!Agilent Technologies,N5230A,MY45001629,A.07.50.67
!Agilent N5230A: A.07.50.67
!Date: Monday, June 05, 2017 15:56:35
!Correction: S11(Full 2 Port(1,2)) 
!S21(Full 2 Port(1,2)) 
!S12(Full 2 Port(1,2)) 
!S22(Full 2 Port(1,2)) 
!S2P File: Measurements: S11, S21, S12, S22:
# Hz S  dB   R 50
1000000000 -2.338532e-001 5.291378e+001 -4.966404e+001 -1.438750e+001 -5.057709e+001 -2.106292e+001 -8.754473e-001 4.391191e+001
1095000000 -2.628259e-001 3.676292e+001 -4.230551e+001 -6.490545e+001 -4.283231e+001 -6.271432e+001 -1.118902e+000 2.680343e+001
1190000000 -4.363555e-001 1.872669e+001 -3.435274e+001 -1.239360e+002 -3.463540e+001 -1.231141e+002 -1.615864e+000 8.727974e+000
1285000000 -8.740737e-001 -1.370193e+000 -2.774199e+001 1.718543e+002 -2.782281e+001 1.722637e+002 -2.271761e+000 -8.774603e+000
1380000000 -1.361848e+000 -2.446729e+001 -2.224469e+001 1.000889e+002 -2.229444e+001 1.002069e+002 -2.462736e+000 -2.952350e+001
1475000000 -3.066939e+000 -5.770834e+001 -1.599183e+001 2.662775e+001 -1.600908e+001 2.657153e+001 -3.530089e+000 -6.246046e+001
1570000000 -9.323510e+000 -9.408475e+001 -1.211907e+001 -6.018249e+001 -1.211506e+001 -6.013012e+001 -8.902655e+000 -1.013820e+002
1665000000 -2.123482e+001 -4.894416e+001 -1.074824e+001 -1.467244e+002 -1.076899e+001 -1.466285e+002 -2.095814e+001 -8.818531e+001
1760000000 -1.281289e+001 5.364410e+000 -1.094567e+001 1.354435e+002 -1.096239e+001 1.354714e+002 -1.611539e+001 -8.156317e+000
1855000000 -7.569092e+000 -2.802614e+001 -1.223237e+001 7.228799e+001 -1.223164e+001 7.249207e+001 -1.031440e+001 -3.615531e+001
1950000000 -7.864068e+000 -6.151731e+001 -1.166620e+001 1.598989e+001 -1.164220e+001 1.602691e+001 -1.000536e+001 -6.253426e+001
2045000000 -1.029768e+001 -7.060891e+001 -1.167394e+001 -5.022456e+001 -1.164456e+001 -5.017592e+001 -1.180575e+001 -7.197394e+001
2140000000 -9.581363e+000 -8.298479e+001 -1.290091e+001 -9.720746e+001 -1.285374e+001 -9.737917e+001 -1.094701e+001 -8.259199e+001
2235000000 -1.090503e+001 -9.396242e+001 -1.130023e+001 -1.485774e+002 -1.130281e+001 -1.488752e+002 -1.152617e+001 -8.873280e+001
2330000000 -1.143763e+001 -1.081640e+002 -1.051598e+001 1.536664e+002 -1.050847e+001 1.534060e+002 -1.075507e+001 -1.002098e+002
2425000000 -1.316507e+001 -1.126531e+002 -1.024648e+001 9.329259e+001 -1.025205e+001 9.339408e+001 -1.088998e+001 -1.126938e+002
2520000000 -1.268280e+001 -1.220471e+002 -1.097702e+001 4.142289e+001 -1.099010e+001 4.139848e+001 -1.217145e+001 -1.308577e+002
2615000000 -1.554042e+001 -1.419997e+002 -1.033123e+001 -1.048821e+001 -1.031206e+001 -1.033921e+001 -1.425740e+001 -1.369574e+002
2710000000 -2.017366e+001 -1.178540e+002 -1.032811e+001 -6.621881e+001 -1.032512e+001 -6.621328e+001 -1.649031e+001 -1.274292e+002
2805000000 -1.623975e+001 -9.750960e+001 -1.043815e+001 -1.187015e+002 -1.043526e+001 -1.186286e+002 -1.530463e+001 -1.222951e+002
2900000000 -1.352875e+001 -1.116207e+002 -1.079116e+001 -1.690607e+002 -1.078764e+001 -1.690214e+002 -1.368579e+001 -1.220946e+002
2995000000 -1.289139e+001 -1.254671e+002 -1.048841e+001 1.447916e+002 -1.047734e+001 1.447909e+002 -1.247914e+001 -1.291969e+002
3090000000 -1.396720e+001 -1.368098e+002 -9.839099e+000 9.293301e+001 -9.819836e+000 9.287646e+001 -1.285627e+001 -1.428533e+002
3185000000 -1.489548e+001 -1.241145e+002 -9.712391e+000 3.903848e+001 -9.694449e+000 3.905505e+001 -1.408962e+001 -1.301203e+002
3280000000 -1.132233e+001 -1.194277e+002 -9.894389e+000 -1.339019e+001 -9.863623e+000 -1.302142e+001 -1.014063e+001 -1.310281e+002
3375000000 -8.661552e+000 -1.397211e+002 -1.024541e+001 -6.283856e+001 -1.026505e+001 -6.254022e+001 -8.085132e+000 -1.494428e+002
3470000000 -8.225195e+000 -1.613198e+002 -1.009665e+001 -1.109596e+002 -1.006508e+001 -1.107237e+002 -7.977138e+000 -1.711241e+002
3565000000 -8.942451e+000 -1.787744e+002 -1.009405e+001 -1.614463e+002 -1.007141e+001 -1.611726e+002 -8.872663e+000 1.733234e+002
3660000000 -1.033335e+001 1.706528e+002 -9.994623e+000 1.509635e+002 -9.984739e+000 1.511434e+002 -9.975956e+000 1.656505e+002
3755000000 -1.055428e+001 1.653344e+002 -9.644694e+000 1.024006e+002 -9.625468e+000 1.026070e+002 -9.949107e+000 1.557910e+002
3850000000 -1.128118e+001 1.544587e+002 -9.150826e+000 5.118111e+001 -9.148264e+000 5.138747e+001 -1.121399e+001 1.419182e+002
3945000000 -1.311393e+001 1.479979e+002 -8.950719e+000 -1.926597e+000 -8.945765e+000 -1.957828e+000 -1.395445e+001 1.376395e+002
4040000000 -1.407713e+001 1.502849e+002 -9.193400e+000 -5.467510e+001 -9.184529e+000 -5.481288e+001 -1.414685e+001 1.442681e+002
4135000000 -1.532502e+001 1.517084e+002 -9.463697e+000 -1.077993e+002 -9.454584e+000 -1.077554e+002 -1.485061e+001 1.349882e+002
4230000000 -1.541650e+001 1.731924e+002 -1.045722e+001 -1.616196e+002 -1.049381e+001 -1.615260e+002 -1.772474e+001 1.527446e+002
4325000000 -1.113494e+001 1.721146e+002 -1.195793e+001 1.515467e+002 -1.197917e+001 1.514736e+002 -1.304875e+001 1.618167e+002
4420000000 -9.392663e+000 1.539316e+002 -1.285367e+001 1.116934e+002 -1.287095e+001 1.118082e+002 -1.161705e+001 1.421008e+002
4515000000 -9.251671e+000 1.403298e+002 -1.254606e+001 7.029136e+001 -1.258166e+001 7.040572e+001 -1.136704e+001 1.313210e+002
4610000000 -8.567690e+000 1.296366e+002 -1.205672e+001 2.416524e+001 -1.205818e+001 2.424206e+001 -1.078633e+001 1.178102e+002
4705000000 -8.296264e+000 1.126276e+002 -1.187016e+001 -2.319733e+001 -1.193365e+001 -2.333857e+001 -1.028587e+001 9.814631e+001
4800000000 -9.244672e+000 9.160767e+001 -1.162370e+001 -7.095307e+001 -1.164282e+001 -7.116235e+001 -1.190267e+001 7.759816e+001
4895000000 -1.185238e+001 7.967563e+001 -1.156266e+001 -1.202367e+002 -1.155003e+001 -1.206134e+002 -1.378305e+001 6.159492e+001
4990000000 -1.403016e+001 7.832281e+001 -1.176459e+001 -1.696320e+002 -1.177336e+001 -1.695835e+002 -1.524979e+001 5.180222e+001
5085000000 -1.541711e+001 7.729411e+001 -1.203164e+001 1.421738e+002 -1.206478e+001 1.420545e+002 -1.674830e+001 3.560710e+001
5180000000 -1.725513e+001 8.300469e+001 -1.239027e+001 9.602831e+001 -1.243043e+001 9.575513e+001 -2.096677e+001 1.667676e+001
5275000000 -1.666919e+001 1.001234e+002 -1.248766e+001 4.967739e+001 -1.252690e+001 4.942239e+001 -2.660970e+001 3.087723e+001
5370000000 -1.362204e+001 9.380086e+001 -1.270984e+001 3.868675e+000 -1.273313e+001 3.489898e+000 -2.132980e+001 5.233640e+001
5465000000 -1.280992e+001 7.221719e+001 -1.257840e+001 -4.158401e+001 -1.266273e+001 -4.160370e+001 -1.944896e+001 2.890056e+001
5560000000 -1.479138e+001 5.092221e+001 -1.235335e+001 -8.847548e+001 -1.241890e+001 -8.871761e+001 -2.060916e+001 -5.935438e+000
5655000000 -1.871195e+001 5.435435e+001 -1.216506e+001 -1.390279e+002 -1.221058e+001 -1.387341e+002 -2.620484e+001 -2.345818e+001
5750000000 -1.624795e+001 6.781277e+001 -1.259356e+001 1.701054e+002 -1.253624e+001 1.700304e+002 -2.446247e+001 2.552552e+001
5845000000 -1.439362e+001 4.415622e+001 -1.367853e+001 1.207140e+002 -1.362129e+001 1.201152e+002 -1.832009e+001 -1.667768e+000
5940000000 -1.530286e+001 1.151088e+001 -1.467276e+001 7.802142e+001 -1.466127e+001 7.758328e+001 -1.586727e+001 -3.548116e+001
6035000000 -1.805860e+001 -2.190260e+001 -1.524041e+001 3.716820e+001 -1.526227e+001 3.701825e+001 -1.450774e+001 -7.005855e+001
6130000000 -2.026364e+001 -7.786967e+001 -1.498409e+001 -1.422259e+000 -1.502632e+001 -1.712515e+000 -1.531021e+001 -1.087258e+002
6225000000 -2.030844e+001 -1.622949e+002 -1.439294e+001 -4.374253e+001 -1.441790e+001 -4.420852e+001 -1.832361e+001 -1.460288e+002
6320000000 -1.861514e+001 1.261042e+002 -1.361312e+001 -9.074181e+001 -1.357492e+001 -9.024599e+001 -2.970305e+001 1.753880e+002
6415000000 -2.096194e+001 6.937094e+001 -1.315797e+001 -1.397470e+002 -1.314900e+001 -1.393068e+002 -2.576017e+001 -5.038375e+001
6510000000 -3.517437e+001 6.433202e+000 -1.316152e+001 1.717051e+002 -1.323922e+001 1.716423e+002 -1.790231e+001 -8.411874e+001
6605000000 -2.520226e+001 1.615973e+002 -1.318257e+001 1.252914e+002 -1.326017e+001 1.247996e+002 -1.628973e+001 -1.160751e+002
6700000000 -1.988215e+001 1.252218e+002 -1.333810e+001 7.800294e+001 -1.334702e+001 7.758166e+001 -1.723811e+001 -1.411127e+002
6795000000 -1.883695e+001 8.311449e+001 -1.348361e+001 3.188453e+001 -1.343175e+001 3.170280e+001 -2.062520e+001 -1.543657e+002
6890000000 -2.142590e+001 3.348319e+001 -1.350770e+001 -1.397577e+001 -1.349296e+001 -1.361863e+001 -2.092871e+001 -1.231791e+002
6985000000 -2.453570e+001 -5.170095e+001 -1.323063e+001 -5.943439e+001 -1.330549e+001 -5.904605e+001 -1.598003e+001 -1.262544e+002
7080000000 -2.034442e+001 -1.319678e+002 -1.296929e+001 -1.065237e+002 -1.301057e+001 -1.067133e+002 -1.281963e+001 -1.449522e+002
7175000000 -1.691885e+001 -1.751298e+002 -1.310583e+001 -1.537915e+002 -1.304184e+001 -1.543307e+002 -1.247396e+001 -1.689970e+002
7270000000 -1.543596e+001 1.598335e+002 -1.327089e+001 1.591396e+002 -1.323582e+001 1.587709e+002 -1.227712e+001 1.719465e+002
7365000000 -1.512076e+001 1.411571e+002 -1.330358e+001 1.127903e+002 -1.329774e+001 1.126412e+002 -1.315186e+001 1.604592e+002
7460000000 -1.518317e+001 1.313439e+002 -1.311943e+001 6.618987e+001 -1.316529e+001 6.694237e+001 -1.304997e+001 1.546907e+002
7555000000 -1.450080e+001 1.271742e+002 -1.291796e+001 2.087698e+001 -1.295057e+001 2.080383e+001 -1.214514e+001 1.447305e+002
7650000000 -1.332543e+001 1.163664e+002 -1.272580e+001 -2.556378e+001 -1.271727e+001 -2.611048e+001 -1.164400e+001 1.302921e+002
7745000000 -1.287318e+001 1.009508e+002 -1.271030e+001 -7.476785e+001 -1.266310e+001 -7.501061e+001 -1.222218e+001 1.152614e+002
7840000000 -1.408476e+001 8.659784e+001 -1.276889e+001 -1.235861e+002 -1.271549e+001 -1.227088e+002 -1.299438e+001 1.107133e+002
7935000000 -1.630191e+001 8.655172e+001 -1.272795e+001 -1.701097e+002 -1.279496e+001 -1.702587e+002 -1.306039e+001 1.067838e+002
8030000000 -1.608797e+001 9.625899e+001 -1.291721e+001 1.425876e+002 -1.282834e+001 1.419251e+002 -1.230433e+001 9.883846e+001
8125000000 -1.436487e+001 9.219357e+001 -1.292479e+001 9.372827e+001 -1.292832e+001 9.328436e+001 -1.210209e+001 8.787751e+001
8220000000 -1.485415e+001 8.050209e+001 -1.321462e+001 4.451869e+001 -1.314716e+001 4.471214e+001 -1.260116e+001 8.190588e+001
8315000000 -1.598238e+001 8.414240e+001 -1.357538e+001 -2.921812e+000 -1.358342e+001 -2.277782e+000 -1.231419e+001 7.741324e+001
8410000000 -1.417022e+001 9.114107e+001 -1.393126e+001 -4.862126e+001 -1.391610e+001 -4.795029e+001 -1.139873e+001 6.835255e+001
8505000000 -1.239731e+001 7.936608e+001 -1.401812e+001 -9.305917e+001 -1.407446e+001 -9.328960e+001 -1.118153e+001 5.682592e+001
8600000000 -1.231913e+001 6.251699e+001 -1.393280e+001 -1.385711e+002 -1.393548e+001 -1.391523e+002 -1.047516e+001 4.228999e+001
8695000000 -1.402802e+001 5.523761e+001 -1.409424e+001 1.748016e+002 -1.405013e+001 1.740579e+002 -1.157800e+001 3.181563e+001
8790000000 -1.397870e+001 5.749696e+001 -1.391784e+001 1.254253e+002 -1.386146e+001 1.260562e+002 -1.137222e+001 1.864101e+001
8885000000 -1.270704e+001 4.550671e+001 -1.398567e+001 7.510841e+001 -1.409834e+001 7.598142e+001 -1.126380e+001 8.187226e+000
8980000000 -1.429997e+001 2.245211e+001 -1.472507e+001 2.731675e+001 -1.477658e+001 2.714936e+001 -1.101898e+001 -1.045561e+001
9075000000 -1.948851e+001 5.959656e+000 -1.536141e+001 -1.626572e+001 -1.538183e+001 -1.679608e+001 -1.265514e+001 -3.054515e+001
9170000000 -2.389204e+001 7.539030e+001 -1.525129e+001 -5.954972e+001 -1.520952e+001 -5.993545e+001 -1.494018e+001 -4.569744e+001
9265000000 -1.645831e+001 6.561185e+001 -1.478951e+001 -1.093696e+002 -1.471871e+001 -1.087912e+002 -1.633940e+001 -3.835028e+001
9360000000 -1.708429e+001 2.993186e+001 -1.513796e+001 -1.619996e+002 -1.519655e+001 -1.614660e+002 -1.411024e+001 -5.011455e+001
9455000000 -2.707804e+001 2.992886e+001 -1.641646e+001 1.510175e+002 -1.626498e+001 1.504551e+002 -1.436111e+001 -7.376945e+001
9550000000 -2.071844e+001 1.102772e+002 -1.722536e+001 1.069003e+002 -1.705325e+001 1.075727e+002 -1.543112e+001 -1.019587e+002
9645000000 -1.540899e+001 8.796066e+001 -1.683946e+001 6.447489e+001 -1.679930e+001 6.485021e+001 -1.887154e+001 -1.067806e+002
9740000000 -1.579374e+001 6.100562e+001 -1.650544e+001 1.515536e+001 -1.663244e+001 1.514636e+001 -1.927678e+001 -9.925808e+001
9835000000 -2.179765e+001 6.811436e+001 -1.745199e+001 -3.617335e+001 -1.740094e+001 -3.738900e+001 -1.517645e+001 -1.067992e+002
9930000000 -1.661587e+001 1.124729e+002 -1.895260e+001 -8.140500e+001 -1.878918e+001 -8.144632e+001 -1.363139e+001 -1.369184e+002
10025000000 -1.225299e+001 1.021109e+002 -1.934799e+001 -1.241263e+002 -1.914479e+001 -1.234579e+002 -1.363608e+001 -1.593339e+002
10120000000 -1.047273e+001 8.868420e+001 -1.892185e+001 -1.717333e+002 -1.915274e+001 -1.712893e+002 -1.437340e+001 1.782649e+002
10215000000 -9.042056e+000 8.337296e+001 -1.978649e+001 1.375362e+002 -1.997362e+001 1.369003e+002 -1.616732e+001 1.646154e+002
10310000000 -6.872534e+000 7.347126e+001 -2.219907e+001 9.173712e+001 -2.223286e+001 9.099197e+001 -1.727972e+001 1.532978e+002
10405000000 -5.536571e+000 5.688539e+001 -2.383989e+001 5.936603e+001 -2.352109e+001 5.650158e+001 -2.021389e+001 1.405197e+002
10500000000 -5.083260e+000 4.312125e+001 -2.306566e+001 1.776758e+001 -2.309991e+001 1.860196e+001 -2.216898e+001 1.477883e+002
10595000000 -4.168877e+000 3.170008e+001 -2.297899e+001 -3.602110e+001 -2.331974e+001 -3.524951e+001 -2.312144e+001 1.733851e+002
10690000000 -3.190560e+000 1.536602e+001 -2.900671e+001 -9.564101e+001 -2.717733e+001 -8.249089e+001 -2.050875e+001 -1.659786e+002
10785000000 -3.103377e+000 -7.549688e+000 -2.921490e+001 -8.813705e+001 -3.102051e+001 -8.506622e+001 -1.521408e+001 -1.723730e+002
10880000000 -4.137371e+000 -3.134700e+001 -2.689725e+001 -8.979681e+001 -2.565486e+001 -9.737545e+001 -1.455832e+001 1.667957e+002
10975000000 -6.289682e+000 -4.776196e+001 -2.139429e+001 -1.509388e+002 -2.182483e+001 -1.462921e+002 -1.553827e+001 1.588714e+002
11070000000 -7.975175e+000 -6.048954e+001 -2.000133e+001 1.610318e+002 -1.935390e+001 1.605679e+002 -1.474207e+001 1.703337e+002
11165000000 -9.777484e+000 -8.114613e+001 -1.936783e+001 9.874454e+001 -1.946588e+001 1.029373e+002 -1.154013e+001 1.574953e+002
11260000000 -1.414590e+001 -1.102414e+002 -1.949150e+001 6.049099e+001 -1.978739e+001 5.576611e+001 -1.058327e+001 1.371633e+002
11355000000 -2.391851e+001 -1.365463e+002 -1.991639e+001 7.537383e+000 -1.939941e+001 1.415592e+001 -1.095658e+001 1.236964e+002
11450000000 -3.451725e+001 2.332213e+001 -1.851375e+001 -3.282494e+001 -1.812716e+001 -3.385815e+001 -1.160169e+001 1.154567e+002
11545000000 -2.790390e+001 3.964312e+001 -1.783069e+001 -8.053239e+001 -1.765326e+001 -8.310333e+001 -1.171038e+001 1.079617e+002
11640000000 -2.080453e+001 5.370470e+001 -1.711837e+001 -1.320852e+002 -1.726816e+001 -1.362132e+002 -1.110579e+001 1.038080e+002
11735000000 -1.513621e+001 3.810778e+001 -1.764400e+001 1.797161e+002 -1.756885e+001 1.746273e+002 -1.085805e+001 8.928032e+001
11830000000 -1.351901e+001 1.689837e+001 -1.856814e+001 1.312618e+002 -1.824391e+001 1.262679e+002 -1.066430e+001 7.849836e+001
11925000000 -1.346437e+001 -7.809371e-002 -1.846352e+001 7.676833e+001 -1.855029e+001 8.177846e+001 -1.247387e+001 6.465290e+001
12020000000 -1.441628e+001 -6.664825e+000 -1.748134e+001 3.510830e+001 -1.850555e+001 3.451472e+001 -1.182154e+001 6.499235e+001
12115000000 -1.511510e+001 -9.085820e+000 -1.839824e+001 -7.009000e+000 -1.793913e+001 -1.049030e+001 -1.180840e+001 4.751287e+001
12210000000 -1.592017e+001 -7.542686e+000 -1.889244e+001 -5.880755e+001 -1.777857e+001 -5.697999e+001 -1.206024e+001 5.931827e+001
12305000000 -1.581860e+001 4.852304e+000 -1.798717e+001 -1.096355e+002 -1.808734e+001 -1.041096e+002 -1.098834e+001 3.996255e+001
12400000000 -1.359123e+001 1.112511e+001 -1.720548e+001 -1.508484e+002 -1.781470e+001 -1.518330e+002 -1.046848e+001 4.269269e+001
12495000000 -1.109958e+001 2.424939e+000 -1.863698e+001 1.626396e+002 -1.786943e+001 1.586852e+002 -9.450396e+000 2.363538e+001
12590000000 -1.008654e+001 -1.175216e+001 -1.873160e+001 1.154014e+002 -1.851192e+001 1.078474e+002 -8.734098e+000 8.571970e+000
12685000000 -1.034922e+001 -2.056163e+001 -2.015348e+001 6.894911e+001 -1.951592e+001 6.419528e+001 -1.104637e+001 8.095208e+000
12780000000 -1.036663e+001 -2.279578e+001 -2.049448e+001 2.464001e+001 -1.983670e+001 1.752475e+001 -1.151619e+001 -4.067991e+000
12875000000 -9.184064e+000 -2.668915e+001 -2.062678e+001 -1.907196e+001 -1.959282e+001 -2.250449e+001 -9.227056e+000 -1.322254e+001
12970000000 -8.170686e+000 -3.836293e+001 -2.015093e+001 -6.677652e+001 -1.957223e+001 -6.875944e+001 -7.802154e+000 -1.609101e+001
13065000000 -8.236800e+000 -5.406890e+001 -2.040062e+001 -1.150682e+002 -1.969798e+001 -1.164593e+002 -9.230223e+000 -3.055171e+001
13160000000 -8.916568e+000 -6.345318e+001 -2.098643e+001 -1.621714e+002 -2.041947e+001 -1.663659e+002 -9.395807e+000 -4.610191e+001
13255000000 -9.649220e+000 -6.975350e+001 -2.249891e+001 1.577019e+002 -2.140561e+001 1.567067e+002 -9.540435e+000 -4.804478e+001
13350000000 -8.940652e+000 -7.506893e+001 -2.284843e+001 1.182570e+002 -2.235358e+001 1.201322e+002 -9.041514e+000 -5.336513e+001
13445000000 -8.243837e+000 -8.938709e+001 -2.183166e+001 7.769633e+001 -2.069669e+001 7.568943e+001 -8.156554e+000 -6.264509e+001
13540000000 -9.038711e+000 -1.098516e+002 -2.073299e+001 3.519682e+001 -2.009605e+001 3.188310e+001 -7.972002e+000 -7.314287e+001
13635000000 -1.100283e+001 -1.240178e+002 -2.133311e+001 -9.366004e+000 -2.050754e+001 -1.411184e+001 -8.977533e+000 -8.657230e+001
13730000000 -1.396205e+001 -1.328472e+002 -2.164893e+001 -5.339955e+001 -2.015461e+001 -5.733865e+001 -8.379462e+000 -9.731155e+001
13825000000 -1.637808e+001 -1.305838e+002 -2.011476e+001 -9.111098e+001 -1.932005e+001 -9.768739e+001 -9.603443e+000 -9.819608e+001
13920000000 -1.588067e+001 -1.254724e+002 -1.908805e+001 -1.382158e+002 -1.822942e+001 -1.425309e+002 -1.105110e+001 -1.099502e+002
14015000000 -1.632067e+001 -1.343734e+002 -1.877678e+001 1.673329e+002 -1.744458e+001 1.649563e+002 -1.099263e+001 -1.290174e+002
14110000000 -1.854264e+001 -1.403718e+002 -1.824782e+001 1.119820e+002 -1.692607e+001 1.085092e+002 -1.070881e+001 -1.265857e+002
14205000000 -1.763516e+001 -1.234849e+002 -1.810789e+001 6.032314e+001 -1.736481e+001 6.006046e+001 -1.305942e+001 -1.277929e+002
14300000000 -1.534747e+001 -1.389094e+002 -1.884939e+001 7.289599e+000 -1.786000e+001 7.859570e+000 -1.445040e+001 -1.459665e+002
14395000000 -1.473914e+001 -1.642135e+002 -1.965194e+001 -4.512220e+001 -1.823057e+001 -4.282025e+001 -1.431524e+001 -1.614252e+002
14490000000 -1.561486e+001 1.749973e+002 -2.075460e+001 -9.645387e+001 -1.876226e+001 -9.233231e+001 -1.736657e+001 1.770706e+002
14585000000 -1.660171e+001 1.532093e+002 -2.200114e+001 -1.393488e+002 -2.064355e+001 -1.411320e+002 -2.107206e+001 1.479546e+002
14680000000 -1.619909e+001 1.297818e+002 -2.456726e+001 -1.797297e+002 -2.225471e+001 -1.783938e+002 -2.725559e+001 1.170076e+002
14775000000 -1.833811e+001 9.125313e+001 -2.405026e+001 1.454163e+002 -2.324737e+001 1.489687e+002 -2.690529e+001 -2.017840e+000
14870000000 -2.132171e+001 5.981906e+001 -2.327181e+001 1.077856e+002 -2.171026e+001 1.132189e+002 -1.792641e+001 -3.379709e-001
14965000000 -2.706021e+001 3.697513e+001 -2.210686e+001 6.179238e+001 -2.061827e+001 6.574461e+001 -1.807385e+001 -2.461166e+001
15060000000 -3.294825e+001 9.247917e+001 -2.077529e+001 1.591253e+001 -2.059861e+001 2.239215e+001 -1.770825e+001 -7.191136e+001
15155000000 -2.494989e+001 8.804601e+001 -2.108327e+001 -2.929251e+001 -2.069274e+001 -2.290215e+001 -1.415086e+001 -7.116851e+001
15250000000 -2.434315e+001 6.497775e+001 -2.109537e+001 -7.585970e+001 -1.931203e+001 -7.089989e+001 -1.666895e+001 -8.010272e+001
