!Agilent Technologies,N5230A,MY45001629,A.07.50.67
!Agilent N5230A: A.07.50.67
!Date: Monday, June 05, 2017 16:33:19
!Correction: S11(Full 2 Port(1,2)) 
!S21(Full 2 Port(1,2)) 
!S12(Full 2 Port(1,2)) 
!S22(Full 2 Port(1,2)) 
!S2P File: Measurements: S11, S21, S12, S22:
# Hz S  dB   R 50
1000000000 -2.228443e-001 5.255844e+001 -5.275015e+001 -1.993177e+001 -5.134283e+001 -1.584872e+001 -8.613183e-001 4.353909e+001
1095000000 -2.471526e-001 3.634922e+001 -4.338720e+001 -4.949689e+001 -4.306122e+001 -5.648698e+001 -1.100207e+000 2.643655e+001
1190000000 -4.044620e-001 1.800945e+001 -3.419658e+001 -1.061825e+002 -3.401776e+001 -1.067635e+002 -1.557732e+000 7.951513e+000
1285000000 -9.507133e-001 -2.233720e+000 -2.598927e+001 -1.799819e+002 -2.603012e+001 1.794326e+002 -2.341892e+000 -9.693319e+000
1380000000 -1.446933e+000 -2.436653e+001 -2.102251e+001 1.032641e+002 -2.098179e+001 1.027877e+002 -2.543906e+000 -2.928888e+001
1475000000 -2.978126e+000 -5.658963e+001 -1.520553e+001 3.183027e+001 -1.521720e+001 3.168221e+001 -3.415544e+000 -6.164193e+001
1570000000 -8.895494e+000 -9.746922e+001 -1.068452e+001 -5.374101e+001 -1.064552e+001 -5.377015e+001 -8.626637e+000 -1.029138e+002
1665000000 -2.180361e+001 -3.939389e+001 -9.225294e+000 -1.441954e+002 -9.207941e+000 -1.442052e+002 -1.998503e+001 -8.334936e+001
1760000000 -1.252287e+001 -2.003103e+000 -1.006786e+001 1.383901e+002 -1.003599e+001 1.382946e+002 -1.675465e+001 -1.518154e+001
1855000000 -8.123164e+000 -2.916814e+001 -1.080693e+001 7.895080e+001 -1.078940e+001 7.877274e+001 -1.097969e+001 -3.289293e+001
1950000000 -7.799789e+000 -5.982546e+001 -1.021648e+001 2.264257e+001 -1.023207e+001 2.244807e+001 -9.560103e+000 -5.904858e+001
2045000000 -1.027627e+001 -7.761043e+001 -9.200859e+000 -3.791338e+001 -9.196420e+000 -3.796516e+001 -1.126787e+001 -7.990106e+001
2140000000 -1.133345e+001 -7.722119e+001 -8.587597e+000 -9.849089e+001 -8.581916e+000 -9.855990e+001 -1.231001e+001 -7.521259e+001
2235000000 -9.817838e+000 -8.663638e+001 -8.571239e+000 -1.597252e+002 -8.568869e+000 -1.597384e+002 -1.049487e+001 -8.475099e+001
2330000000 -1.014727e+001 -1.095011e+002 -8.822003e+000 1.451179e+002 -8.797584e+000 1.451522e+002 -9.846958e+000 -1.060281e+002
2425000000 -1.260594e+001 -1.232529e+002 -8.513467e+000 8.895721e+001 -8.493774e+000 8.912925e+001 -1.137804e+001 -1.191701e+002
2520000000 -1.412335e+001 -1.278889e+002 -8.493793e+000 3.439805e+001 -8.467591e+000 3.424804e+001 -1.268547e+001 -1.295686e+002
2615000000 -1.593591e+001 -1.378521e+002 -8.433583e+000 -2.058218e+001 -8.407393e+000 -2.071962e+001 -1.359666e+001 -1.413163e+002
2710000000 -2.049053e+001 -1.210907e+002 -8.635912e+000 -7.519540e+001 -8.628802e+000 -7.524650e+001 -1.792477e+001 -1.344523e+002
2805000000 -1.624699e+001 -9.266190e+001 -8.753181e+000 -1.275108e+002 -8.783358e+000 -1.275921e+002 -1.643731e+001 -1.106301e+002
2900000000 -1.254515e+001 -1.116614e+002 -9.074590e+000 -1.774767e+002 -9.079197e+000 -1.775985e+002 -1.212011e+001 -1.163381e+002
2995000000 -1.239905e+001 -1.350554e+002 -8.779433e+000 1.333933e+002 -8.774471e+000 1.335945e+002 -1.160007e+001 -1.373403e+002
3090000000 -1.572050e+001 -1.439613e+002 -8.316228e+000 8.149733e+001 -8.297870e+000 8.157725e+001 -1.369693e+001 -1.477530e+002
3185000000 -1.557599e+001 -1.106328e+002 -8.150302e+000 2.739371e+001 -8.168697e+000 2.735934e+001 -1.423675e+001 -1.261891e+002
3280000000 -1.008501e+001 -1.166742e+002 -8.449116e+000 -2.612995e+001 -8.477476e+000 -2.594864e+001 -9.659610e+000 -1.333634e+002
3375000000 -7.932992e+000 -1.425808e+002 -8.918097e+000 -7.648652e+001 -8.966385e+000 -7.643224e+001 -7.986014e+000 -1.539016e+002
3470000000 -7.795598e+000 -1.647433e+002 -9.106678e+000 -1.241266e+002 -9.102988e+000 -1.240956e+002 -8.224541e+000 -1.763252e+002
3565000000 -8.531009e+000 1.776887e+002 -8.996143e+000 -1.732131e+002 -9.020922e+000 -1.731192e+002 -9.385938e+000 1.711841e+002
3660000000 -9.755589e+000 1.630487e+002 -8.813197e+000 1.380286e+002 -8.823572e+000 1.381209e+002 -1.043874e+001 1.647822e+002
3755000000 -1.124622e+001 1.526382e+002 -8.523591e+000 8.730553e+001 -8.513175e+000 8.745224e+001 -1.065708e+001 1.555816e+002
3850000000 -1.390881e+001 1.505417e+002 -8.425310e+000 3.554593e+001 -8.411851e+000 3.564709e+001 -1.187112e+001 1.486394e+002
3945000000 -1.480501e+001 1.651842e+002 -8.440581e+000 -1.668281e+001 -8.435380e+000 -1.667386e+001 -1.246087e+001 1.473516e+002
4040000000 -1.249899e+001 1.656226e+002 -8.713113e+000 -6.756857e+001 -8.695777e+000 -6.764779e+001 -1.172447e+001 1.388711e+002
4135000000 -1.242800e+001 1.527928e+002 -8.897008e+000 -1.202539e+002 -8.868188e+000 -1.202518e+002 -1.335591e+001 1.164160e+002
4230000000 -1.383624e+001 1.551128e+002 -9.743461e+000 -1.742827e+002 -9.740602e+000 -1.741541e+002 -2.097326e+001 1.219941e+002
4325000000 -1.182960e+001 1.587829e+002 -1.112511e+001 1.377413e+002 -1.112816e+001 1.378813e+002 -1.587951e+001 1.675825e+002
4420000000 -1.047719e+001 1.478276e+002 -1.200351e+001 9.511223e+001 -1.198098e+001 9.530374e+001 -1.246192e+001 1.540464e+002
4515000000 -1.024240e+001 1.371838e+002 -1.203468e+001 5.207146e+001 -1.202177e+001 5.230665e+001 -1.065611e+001 1.411256e+002
4610000000 -9.712897e+000 1.293690e+002 -1.186204e+001 6.574944e+000 -1.180620e+001 6.740586e+000 -9.641150e+000 1.215196e+002
4705000000 -9.334932e+000 1.171900e+002 -1.174577e+001 -4.084480e+001 -1.173757e+001 -4.094141e+001 -8.901918e+000 9.858018e+001
4800000000 -9.397880e+000 1.014840e+002 -1.177268e+001 -8.887301e+001 -1.172510e+001 -8.858647e+001 -9.984305e+000 7.370983e+001
4895000000 -1.045352e+001 8.743497e+001 -1.178754e+001 -1.375371e+002 -1.177776e+001 -1.375262e+002 -1.150037e+001 4.731645e+001
4990000000 -1.192798e+001 7.550453e+001 -1.216196e+001 1.731873e+002 -1.214909e+001 1.733295e+002 -1.517582e+001 2.272110e+001
5085000000 -1.404330e+001 6.550692e+001 -1.264529e+001 1.255232e+002 -1.264164e+001 1.257028e+002 -2.075570e+001 8.709949e+000
5180000000 -1.698300e+001 6.524462e+001 -1.314499e+001 8.013750e+001 -1.310599e+001 8.012760e+001 -3.046950e+001 3.215993e+001
5275000000 -1.883192e+001 8.909109e+001 -1.321130e+001 3.496696e+001 -1.318341e+001 3.457376e+001 -2.463678e+001 8.364690e+001
5370000000 -1.574487e+001 9.305243e+001 -1.367858e+001 -1.108809e+001 -1.365260e+001 -1.179425e+001 -1.822322e+001 6.457207e+001
5465000000 -1.447642e+001 7.934843e+001 -1.394298e+001 -5.493816e+001 -1.387811e+001 -5.511663e+001 -1.660534e+001 3.175672e+001
5560000000 -1.526172e+001 6.596016e+001 -1.376075e+001 -9.881787e+001 -1.373591e+001 -9.877239e+001 -1.758085e+001 -5.227730e+000
5655000000 -1.623693e+001 6.592648e+001 -1.317891e+001 -1.464642e+002 -1.322357e+001 -1.467108e+002 -2.143995e+001 -3.858525e+001
5750000000 -1.427370e+001 6.088744e+001 -1.336331e+001 1.631262e+002 -1.334753e+001 1.637081e+002 -2.866704e+001 -1.274264e+001
5845000000 -1.342800e+001 3.625579e+001 -1.416566e+001 1.139104e+002 -1.413386e+001 1.138629e+002 -2.112214e+001 -2.803674e+000
5940000000 -1.427231e+001 2.867664e+000 -1.498453e+001 7.123890e+001 -1.492813e+001 7.079377e+001 -1.741727e+001 -3.229265e+001
6035000000 -1.686085e+001 -3.313672e+001 -1.555460e+001 2.988900e+001 -1.550239e+001 2.894467e+001 -1.572372e+001 -6.746234e+001
6130000000 -1.847311e+001 -8.804398e+001 -1.530120e+001 -8.564318e+000 -1.523851e+001 -9.210887e+000 -1.576578e+001 -1.068349e+002
6225000000 -1.787720e+001 -1.650501e+002 -1.455152e+001 -5.089059e+001 -1.458738e+001 -5.173288e+001 -1.823361e+001 -1.413901e+002
6320000000 -1.674675e+001 1.261969e+002 -1.362965e+001 -9.821440e+001 -1.355886e+001 -9.782630e+001 -2.922048e+001 -1.744848e+002
6415000000 -1.859044e+001 7.168513e+001 -1.307563e+001 -1.478216e+002 -1.311882e+001 -1.478252e+002 -2.733800e+001 -6.157055e+001
6510000000 -2.722141e+001 2.247431e+001 -1.319728e+001 1.637523e+002 -1.332042e+001 1.635342e+002 -1.791960e+001 -8.547498e+001
6605000000 -3.077418e+001 1.462153e+002 -1.315226e+001 1.173088e+002 -1.315274e+001 1.168123e+002 -1.608350e+001 -1.171731e+002
6700000000 -2.267127e+001 1.213498e+002 -1.311828e+001 6.984222e+001 -1.311390e+001 6.964790e+001 -1.632414e+001 -1.471385e+002
6795000000 -2.119665e+001 8.272733e+001 -1.312812e+001 2.300048e+001 -1.313183e+001 2.261845e+001 -1.960312e+001 -1.634019e+002
6890000000 -2.405507e+001 3.594260e+001 -1.315813e+001 -2.433666e+001 -1.313667e+001 -2.395643e+001 -2.257116e+001 -1.376829e+002
6985000000 -2.800910e+001 -6.283397e+001 -1.302126e+001 -7.095837e+001 -1.302159e+001 -7.071361e+001 -1.703267e+001 -1.286814e+002
7080000000 -2.155221e+001 -1.420394e+002 -1.287833e+001 -1.185357e+002 -1.289816e+001 -1.189315e+002 -1.340162e+001 -1.420222e+002
7175000000 -1.751175e+001 1.790540e+002 -1.300070e+001 -1.656992e+002 -1.304563e+001 -1.664476e+002 -1.216560e+001 -1.677361e+002
7270000000 -1.566742e+001 1.553210e+002 -1.330061e+001 1.472441e+002 -1.329376e+001 1.467575e+002 -1.157931e+001 1.742459e+002
7365000000 -1.532431e+001 1.363132e+002 -1.350495e+001 1.014724e+002 -1.346616e+001 1.014414e+002 -1.177749e+001 1.556903e+002
7460000000 -1.571554e+001 1.253863e+002 -1.348970e+001 5.659467e+001 -1.343575e+001 5.663183e+001 -1.210821e+001 1.457870e+002
7555000000 -1.519650e+001 1.254612e+002 -1.303142e+001 1.145233e+001 -1.307879e+001 1.177352e+001 -1.274265e+001 1.340408e+002
7650000000 -1.379450e+001 1.172136e+002 -1.262083e+001 -3.543560e+001 -1.268217e+001 -3.535156e+001 -1.214780e+001 1.279354e+002
7745000000 -1.283295e+001 1.028185e+002 -1.243980e+001 -8.392630e+001 -1.245930e+001 -8.470986e+001 -1.257117e+001 1.149499e+002
7840000000 -1.372079e+001 8.868089e+001 -1.250449e+001 -1.324794e+002 -1.244386e+001 -1.326771e+002 -1.276008e+001 1.102324e+002
7935000000 -1.506897e+001 8.591296e+001 -1.255738e+001 1.795380e+002 -1.245167e+001 1.790124e+002 -1.285451e+001 1.064054e+002
8030000000 -1.479200e+001 8.658723e+001 -1.244047e+001 1.307583e+002 -1.240730e+001 1.311462e+002 -1.199119e+001 9.890667e+001
8125000000 -1.416277e+001 7.785313e+001 -1.239055e+001 8.164056e+001 -1.247982e+001 8.209704e+001 -1.154480e+001 8.629600e+001
8220000000 -1.625237e+001 6.787267e+001 -1.262150e+001 3.316124e+001 -1.265928e+001 3.255679e+001 -1.199251e+001 7.808572e+001
8315000000 -1.794978e+001 8.779585e+001 -1.314316e+001 -1.480841e+001 -1.315306e+001 -1.532560e+001 -1.259539e+001 7.001743e+001
8410000000 -1.414712e+001 9.715235e+001 -1.350917e+001 -6.144236e+001 -1.359088e+001 -6.163221e+001 -1.195000e+001 6.508039e+001
8505000000 -1.171459e+001 8.062132e+001 -1.376646e+001 -1.061758e+002 -1.389407e+001 -1.067130e+002 -1.132329e+001 5.791656e+001
8600000000 -1.148101e+001 6.025243e+001 -1.376701e+001 -1.510653e+002 -1.370452e+001 -1.515364e+002 -1.033630e+001 3.887077e+001
8695000000 -1.344769e+001 4.980259e+001 -1.362574e+001 1.612275e+002 -1.351789e+001 1.605253e+002 -1.168054e+001 2.601080e+001
8790000000 -1.381546e+001 4.951813e+001 -1.345537e+001 1.114564e+002 -1.342089e+001 1.117243e+002 -1.189126e+001 1.503975e+001
8885000000 -1.268312e+001 3.994016e+001 -1.355579e+001 5.990191e+001 -1.364279e+001 6.064212e+001 -1.174410e+001 7.242284e+000
8980000000 -1.447770e+001 1.594606e+001 -1.456625e+001 1.179823e+001 -1.459469e+001 1.134602e+001 -1.058457e+001 -8.838891e+000
9075000000 -2.026174e+001 -1.022707e+001 -1.537178e+001 -3.030478e+001 -1.535363e+001 -3.095459e+001 -1.186147e+001 -3.585403e+001
9170000000 -2.291473e+001 9.076283e+001 -1.515944e+001 -7.286543e+001 -1.509660e+001 -7.334492e+001 -1.402035e+001 -5.715379e+001
9265000000 -1.572883e+001 6.386596e+001 -1.443003e+001 -1.229203e+002 -1.442907e+001 -1.224249e+002 -1.770559e+001 -4.470844e+001
9360000000 -1.643671e+001 2.686278e+001 -1.468353e+001 -1.758258e+002 -1.479575e+001 -1.751496e+002 -1.415088e+001 -5.483462e+001
9455000000 -2.749850e+001 1.935109e+001 -1.559658e+001 1.358080e+002 -1.564068e+001 1.358847e+002 -1.428836e+001 -7.696278e+001
9550000000 -2.050388e+001 1.094873e+002 -1.658867e+001 9.078101e+001 -1.653918e+001 8.987737e+001 -1.467394e+001 -1.113222e+002
9645000000 -1.513184e+001 7.950358e+001 -1.665758e+001 4.890305e+001 -1.654058e+001 4.809164e+001 -1.963591e+001 -1.138536e+002
9740000000 -1.637673e+001 4.929741e+001 -1.635172e+001 -2.094577e+000 -1.625146e+001 -1.542980e+000 -1.932984e+001 -9.551691e+001
9835000000 -2.612335e+001 7.101842e+001 -1.707539e+001 -5.554420e+001 -1.697806e+001 -5.446305e+001 -1.415828e+001 -1.053981e+002
9930000000 -1.620084e+001 1.176796e+002 -1.827716e+001 -9.916814e+001 -1.855431e+001 -9.924685e+001 -1.308899e+001 -1.411857e+002
10025000000 -1.188956e+001 9.983875e+001 -1.874990e+001 -1.405048e+002 -1.890392e+001 -1.405200e+002 -1.329977e+001 -1.640771e+002
10120000000 -1.082710e+001 8.464703e+001 -1.863261e+001 1.721402e+002 -1.865149e+001 1.709197e+002 -1.467422e+001 1.745418e+002
10215000000 -9.715758e+000 8.284123e+001 -1.942776e+001 1.209573e+002 -1.932956e+001 1.191133e+002 -1.687696e+001 1.667998e+002
10310000000 -7.269506e+000 7.432573e+001 -2.184137e+001 7.044577e+001 -2.147681e+001 7.041890e+001 -1.657980e+001 1.555135e+002
10405000000 -5.970190e+000 5.698196e+001 -2.341171e+001 3.527553e+001 -2.291201e+001 3.750897e+001 -1.969324e+001 1.371574e+002
10500000000 -5.736930e+000 4.326389e+001 -2.233620e+001 -1.944295e+000 -2.242579e+001 -2.133854e-001 -2.256548e+001 1.295835e+002
10595000000 -5.186283e+000 3.532797e+001 -2.127129e+001 -5.026171e+001 -2.209475e+001 -5.567474e+001 -2.519696e+001 -1.648431e+002
10690000000 -3.837203e+000 2.427087e+001 -2.523304e+001 -1.194120e+002 -2.463578e+001 -1.133557e+002 -1.901532e+001 -1.656578e+002
10785000000 -2.996434e+000 3.560377e+000 -2.806331e+001 -1.413595e+002 -3.041316e+001 -1.439875e+002 -1.483304e+001 -1.737474e+002
10880000000 -3.249788e+000 -2.032527e+001 -3.066703e+001 -1.182088e+002 -2.924374e+001 -1.242859e+002 -1.553516e+001 1.638321e+002
10975000000 -4.762034e+000 -3.994829e+001 -2.414956e+001 -1.731809e+002 -2.423112e+001 -1.640249e+002 -1.598633e+001 1.489208e+002
11070000000 -6.276830e+000 -5.670659e+001 -2.070261e+001 1.426209e+002 -2.085728e+001 1.420291e+002 -1.616905e+001 1.681169e+002
11165000000 -8.283704e+000 -7.889568e+001 -2.053585e+001 7.908855e+001 -2.057073e+001 8.445576e+001 -1.153457e+001 1.596593e+002
11260000000 -1.293756e+001 -1.034521e+002 -1.978879e+001 3.537278e+001 -2.067284e+001 3.415632e+001 -1.066787e+001 1.337779e+002
11355000000 -2.208153e+001 -1.101335e+002 -2.151827e+001 -7.233941e+000 -2.086697e+001 -1.005393e+001 -1.144631e+001 1.155772e+002
11450000000 -2.843607e+001 -5.742834e+001 -1.940315e+001 -4.953238e+001 -1.959402e+001 -5.271803e+001 -1.184984e+001 1.124815e+002
11545000000 -3.336496e+001 1.658477e+001 -1.834871e+001 -1.033393e+002 -1.885222e+001 -1.052502e+002 -1.171001e+001 9.741424e+001
11640000000 -2.067878e+001 4.351672e+001 -1.799345e+001 -1.574646e+002 -1.858571e+001 -1.544301e+002 -1.092946e+001 9.578066e+001
11735000000 -1.515699e+001 2.668134e+001 -1.818118e+001 1.545459e+002 -1.821593e+001 1.564536e+002 -1.093807e+001 7.907037e+001
11830000000 -1.411529e+001 8.530190e+000 -1.811610e+001 1.064765e+002 -1.939472e+001 1.048967e+002 -1.112344e+001 7.535853e+001
11925000000 -1.353586e+001 -1.046817e+000 -1.963795e+001 6.680557e+001 -1.995484e+001 6.009801e+001 -1.249522e+001 6.332227e+001
12020000000 -1.359520e+001 -1.150994e+001 -2.138941e+001 1.972001e+001 -1.977415e+001 1.867101e+001 -1.083592e+001 5.758615e+001
12115000000 -1.446208e+001 -1.989517e+001 -1.941530e+001 -2.909907e+001 -1.920370e+001 -2.737646e+001 -1.171041e+001 3.805079e+001
12210000000 -1.637511e+001 -1.652450e+001 -1.756365e+001 -7.517330e+001 -1.871160e+001 -7.465126e+001 -1.180271e+001 5.044462e+001
12305000000 -1.630639e+001 3.604025e+000 -1.812849e+001 -1.222561e+002 -1.870945e+001 -1.229350e+002 -1.143928e+001 3.713863e+001
12400000000 -1.293697e+001 9.772859e+000 -1.936342e+001 -1.722288e+002 -1.865705e+001 -1.744197e+002 -9.007339e+000 3.562076e+001
12495000000 -1.044862e+001 -4.419482e+000 -1.959381e+001 1.288526e+002 -1.923926e+001 1.354403e+002 -9.793086e+000 1.715882e+001
12590000000 -9.923360e+000 -1.962570e+001 -2.015261e+001 8.743579e+001 -2.012703e+001 8.672038e+001 -8.479534e+000 2.695313e+000
12685000000 -1.081644e+001 -2.564685e+001 -2.214745e+001 4.200282e+001 -2.152298e+001 4.173030e+001 -1.112578e+001 5.066052e+000
12780000000 -1.038396e+001 -2.487446e+001 -2.276149e+001 7.726963e+000 -2.185680e+001 4.058546e+000 -1.039721e+001 -7.397466e+000
12875000000 -8.720909e+000 -3.211816e+001 -2.172512e+001 -2.948541e+001 -2.143699e+001 -3.553672e+001 -8.814981e+000 -1.776477e+001
12970000000 -7.788269e+000 -4.513865e+001 -2.129284e+001 -7.564883e+001 -2.082658e+001 -8.065113e+001 -7.761619e+000 -2.164241e+001
13065000000 -8.479436e+000 -6.154891e+001 -2.068331e+001 -1.267637e+002 -2.069590e+001 -1.368098e+002 -1.000259e+001 -3.400533e+001
13160000000 -9.377369e+000 -6.667104e+001 -2.274014e+001 -1.773099e+002 -2.217365e+001 1.759413e+002 -9.595438e+000 -4.086296e+001
13255000000 -9.369688e+000 -7.055612e+001 -2.466554e+001 1.536341e+002 -2.403042e+001 1.435488e+002 -9.403353e+000 -4.677971e+001
13350000000 -8.355831e+000 -8.036854e+001 -2.340276e+001 1.207941e+002 -2.281267e+001 1.130556e+002 -8.211253e+000 -6.162465e+001
13445000000 -8.233761e+000 -9.715236e+001 -2.138878e+001 7.540546e+001 -2.136975e+001 6.322010e+001 -8.091137e+000 -6.738710e+001
13540000000 -9.396210e+000 -1.156033e+002 -2.032727e+001 2.739660e+001 -2.096071e+001 1.963774e+001 -9.188636e+000 -7.469794e+001
13635000000 -1.118048e+001 -1.278544e+002 -2.011451e+001 -2.145635e+001 -2.107626e+001 -2.663522e+001 -1.034688e+001 -8.946072e+001
13730000000 -1.393494e+001 -1.330048e+002 -1.949148e+001 -6.970184e+001 -2.079847e+001 -6.632043e+001 -8.346850e+000 -1.018389e+002
13825000000 -1.606895e+001 -1.356821e+002 -1.817462e+001 -1.145383e+002 -1.899904e+001 -1.140067e+002 -9.394134e+000 -1.032921e+002
13920000000 -1.567779e+001 -1.296608e+002 -1.733661e+001 -1.605590e+002 -1.843171e+001 -1.600832e+002 -1.092863e+001 -1.137646e+002
14015000000 -1.709969e+001 -1.384972e+002 -1.652072e+001 1.488655e+002 -1.740479e+001 1.452977e+002 -1.214546e+001 -1.354407e+002
14110000000 -1.854354e+001 -1.375115e+002 -1.641171e+001 9.342019e+001 -1.725433e+001 9.035615e+001 -1.192674e+001 -1.339001e+002
14205000000 -1.678804e+001 -1.324117e+002 -1.632675e+001 4.142687e+001 -1.739756e+001 3.717067e+001 -1.327818e+001 -1.437245e+002
14300000000 -1.536294e+001 -1.507475e+002 -1.693145e+001 -1.144199e+001 -1.782574e+001 -1.279773e+001 -1.345090e+001 -1.560529e+002
14395000000 -1.563987e+001 -1.759241e+002 -1.755843e+001 -6.501852e+001 -1.828299e+001 -6.821681e+001 -1.557406e+001 -1.668277e+002
14490000000 -1.682194e+001 1.732771e+002 -1.879225e+001 -1.153539e+002 -1.994732e+001 -1.232362e+002 -2.081241e+001 1.684642e+002
14585000000 -1.629000e+001 1.530606e+002 -2.089968e+001 -1.638241e+002 -2.202310e+001 -1.632423e+002 -2.121055e+001 1.162909e+002
14680000000 -1.550986e+001 1.233499e+002 -2.233429e+001 1.545622e+002 -2.318028e+001 1.566758e+002 -2.047796e+001 1.128236e+002
14775000000 -1.667751e+001 8.115176e+001 -2.264027e+001 1.145055e+002 -2.348448e+001 1.156471e+002 -3.105621e+001 4.998611e+001
14870000000 -2.115006e+001 3.383661e+001 -2.433422e+001 7.506209e+001 -2.500587e+001 8.368005e+001 -1.713490e+001 -1.993891e+001
14965000000 -3.773848e+001 2.714828e+001 -2.408399e+001 4.009821e+001 -2.393584e+001 5.145210e+001 -1.748063e+001 -2.980820e+001
15060000000 -2.502627e+001 1.099504e+002 -2.237046e+001 -4.165627e+000 -2.219158e+001 7.207893e+000 -2.364568e+001 -4.336569e+001
15155000000 -2.164594e+001 6.818797e+001 -2.142946e+001 -5.245496e+001 -2.200371e+001 -4.375012e+001 -1.673593e+001 -7.978564e+001
15250000000 -2.437691e+001 4.080282e+001 -2.170111e+001 -1.035292e+002 -2.135132e+001 -8.889787e+001 -1.573052e+001 -8.899966e+001
