!Agilent Technologies,N5230A,MY45001629,A.07.50.67
!Agilent N5230A: A.07.50.67
!Date: Monday, June 05, 2017 16:30:03
!Correction: S11(Full 2 Port(1,2)) 
!S21(Full 2 Port(1,2)) 
!S12(Full 2 Port(1,2)) 
!S22(Full 2 Port(1,2)) 
!S2P File: Measurements: S11, S21, S12, S22:
# Hz S  dB   R 50
1000000000 -2.197054e-001 5.265655e+001 -5.044430e+001 -2.220329e+001 -5.113732e+001 -1.460867e+001 -8.607818e-001 4.354069e+001
1095000000 -2.431025e-001 3.648236e+001 -4.306274e+001 -5.939822e+001 -4.327645e+001 -5.432318e+001 -1.094873e+000 2.644571e+001
1190000000 -4.001935e-001 1.810817e+001 -3.428832e+001 -1.076554e+002 -3.398537e+001 -1.071524e+002 -1.557957e+000 8.024702e+000
1285000000 -9.505596e-001 -2.112024e+000 -2.603628e+001 1.794086e+002 -2.597138e+001 1.798663e+002 -2.347923e+000 -9.711381e+000
1380000000 -1.446011e+000 -2.420154e+001 -2.098974e+001 1.029508e+002 -2.092273e+001 1.030868e+002 -2.558363e+000 -2.925634e+001
1475000000 -2.977884e+000 -5.650739e+001 -1.523591e+001 3.167096e+001 -1.519289e+001 3.182995e+001 -3.428151e+000 -6.148648e+001
1570000000 -8.925963e+000 -9.747659e+001 -1.073997e+001 -5.354881e+001 -1.072955e+001 -5.367487e+001 -8.582223e+000 -1.028818e+002
1665000000 -2.138609e+001 -3.819315e+001 -9.278189e+000 -1.436251e+002 -9.290785e+000 -1.437380e+002 -2.005221e+001 -8.341043e+001
1760000000 -1.248702e+001 -2.309155e+000 -1.004345e+001 1.389698e+002 -1.005144e+001 1.388677e+002 -1.682443e+001 -1.682756e+001
1855000000 -8.108585e+000 -2.942048e+001 -1.078769e+001 7.904736e+001 -1.080156e+001 7.906491e+001 -1.110617e+001 -3.324444e+001
1950000000 -7.838862e+000 -6.006133e+001 -1.028236e+001 2.265189e+001 -1.029631e+001 2.267279e+001 -9.571203e+000 -5.938824e+001
2045000000 -1.033171e+001 -7.762254e+001 -9.279579e+000 -3.757434e+001 -9.278162e+000 -3.746975e+001 -1.120407e+001 -8.043164e+001
2140000000 -1.145983e+001 -7.690108e+001 -8.664658e+000 -9.804057e+001 -8.645512e+000 -9.797631e+001 -1.231543e+001 -7.521743e+001
2235000000 -9.861790e+000 -8.555260e+001 -8.625079e+000 -1.589727e+002 -8.618870e+000 -1.591802e+002 -1.045463e+001 -8.405242e+001
2330000000 -1.012765e+001 -1.079802e+002 -8.923825e+000 1.455957e+002 -8.899722e+000 1.454379e+002 -9.828667e+000 -1.052912e+002
2425000000 -1.236790e+001 -1.218183e+002 -8.641475e+000 8.967533e+001 -8.639248e+000 8.963154e+001 -1.117224e+001 -1.184048e+002
2520000000 -1.373353e+001 -1.280217e+002 -8.621800e+000 3.498039e+001 -8.624379e+000 3.475327e+001 -1.248929e+001 -1.297338e+002
2615000000 -1.568004e+001 -1.404656e+002 -8.604100e+000 -1.968078e+001 -8.592914e+000 -1.973479e+001 -1.368593e+001 -1.438084e+002
2710000000 -2.094581e+001 -1.262059e+002 -8.856630e+000 -7.430386e+001 -8.849877e+000 -7.435661e+001 -1.846004e+001 -1.347497e+002
2805000000 -1.693144e+001 -9.023766e+001 -9.006391e+000 -1.265380e+002 -9.011388e+000 -1.265034e+002 -1.671889e+001 -1.097588e+002
2900000000 -1.285667e+001 -1.081689e+002 -9.363422e+000 -1.769229e+002 -9.362773e+000 -1.768319e+002 -1.215409e+001 -1.138772e+002
2995000000 -1.239700e+001 -1.301694e+002 -9.154030e+000 1.349578e+002 -9.136105e+000 1.349223e+002 -1.120956e+001 -1.351960e+002
3090000000 -1.480083e+001 -1.395399e+002 -8.701863e+000 8.391315e+001 -8.679772e+000 8.384064e+001 -1.290412e+001 -1.505413e+002
3185000000 -1.498130e+001 -1.169886e+002 -8.454725e+000 3.050501e+001 -8.479629e+000 3.021414e+001 -1.449341e+001 -1.310703e+002
3280000000 -1.035703e+001 -1.196118e+002 -8.713006e+000 -2.269191e+001 -8.696179e+000 -2.279435e+001 -1.003911e+001 -1.339784e+002
3375000000 -8.231285e+000 -1.438933e+002 -9.111077e+000 -7.337263e+001 -9.135003e+000 -7.334406e+001 -8.285858e+000 -1.521804e+002
3470000000 -8.135145e+000 -1.650152e+002 -9.215327e+000 -1.209566e+002 -9.219397e+000 -1.211227e+002 -8.369971e+000 -1.737531e+002
3565000000 -8.859335e+000 1.781773e+002 -9.189307e+000 -1.703838e+002 -9.186130e+000 -1.704945e+002 -8.958703e+000 1.733552e+002
3660000000 -1.018425e+001 1.651148e+002 -8.936021e+000 1.411667e+002 -8.937843e+000 1.410512e+002 -1.012580e+001 1.646696e+002
3755000000 -1.149400e+001 1.573359e+002 -8.663751e+000 9.049165e+001 -8.685758e+000 9.034911e+001 -1.050553e+001 1.549218e+002
3850000000 -1.341379e+001 1.569933e+002 -8.576259e+000 3.877876e+001 -8.596480e+000 3.841356e+001 -1.188262e+001 1.475057e+002
3945000000 -1.346736e+001 1.648855e+002 -8.666787e+000 -1.349026e+001 -8.646920e+000 -1.383005e+001 -1.254496e+001 1.467837e+002
4040000000 -1.192084e+001 1.591410e+002 -8.988234e+000 -6.407795e+001 -8.994755e+000 -6.438519e+001 -1.174790e+001 1.392438e+002
4135000000 -1.275191e+001 1.460785e+002 -9.116890e+000 -1.159212e+002 -9.112123e+000 -1.164398e+002 -1.365175e+001 1.158238e+002
4230000000 -1.498620e+001 1.534033e+002 -9.984129e+000 -1.702805e+002 -9.976891e+000 -1.704779e+002 -2.227763e+001 1.255064e+002
4325000000 -1.250087e+001 1.615969e+002 -1.145978e+001 1.421008e+002 -1.148842e+001 1.419521e+002 -1.513894e+001 1.731635e+002
4420000000 -1.102578e+001 1.523051e+002 -1.243945e+001 1.008023e+002 -1.249306e+001 1.005835e+002 -1.179041e+001 1.550801e+002
4515000000 -1.023178e+001 1.451756e+002 -1.251891e+001 5.992506e+001 -1.253892e+001 5.991212e+001 -1.020561e+001 1.403636e+002
4610000000 -8.740249e+000 1.349778e+002 -1.204340e+001 1.622279e+001 -1.205014e+001 1.638151e+001 -9.263519e+000 1.188446e+002
4705000000 -8.000610e+000 1.170083e+002 -1.165188e+001 -3.092714e+001 -1.171144e+001 -3.095851e+001 -8.879719e+000 9.479926e+001
4800000000 -8.548511e+000 9.510401e+001 -1.144145e+001 -7.892525e+001 -1.143189e+001 -7.913570e+001 -1.064435e+001 6.869798e+001
4895000000 -1.056591e+001 7.872077e+001 -1.123860e+001 -1.287121e+002 -1.126810e+001 -1.288769e+002 -1.302051e+001 4.624013e+001
4990000000 -1.297833e+001 6.969158e+001 -1.150733e+001 -1.787744e+002 -1.153545e+001 -1.788169e+002 -1.642089e+001 3.238249e+001
5085000000 -1.558939e+001 6.468871e+001 -1.185705e+001 1.328396e+002 -1.189600e+001 1.324586e+002 -2.051413e+001 2.469464e+001
5180000000 -1.897600e+001 7.686834e+001 -1.243818e+001 8.644907e+001 -1.244324e+001 8.639956e+001 -2.587437e+001 3.667571e+001
5275000000 -1.740814e+001 1.049948e+002 -1.256975e+001 4.056638e+001 -1.252246e+001 4.058130e+001 -2.450383e+001 6.674062e+001
5370000000 -1.375984e+001 9.615048e+001 -1.292485e+001 -5.110284e+000 -1.292681e+001 -4.909618e+000 -1.857559e+001 5.461084e+001
5465000000 -1.286932e+001 7.466085e+001 -1.289909e+001 -4.836325e+001 -1.293688e+001 -4.841852e+001 -1.685544e+001 2.278375e+001
5560000000 -1.444039e+001 5.455178e+001 -1.253277e+001 -9.382098e+001 -1.250945e+001 -9.368895e+001 -1.840336e+001 -1.854396e+001
5655000000 -1.751974e+001 5.519555e+001 -1.206981e+001 -1.434000e+002 -1.206367e+001 -1.436539e+002 -2.509095e+001 -5.009436e+001
5750000000 -1.548210e+001 6.197438e+001 -1.226403e+001 1.647375e+002 -1.230362e+001 1.643476e+002 -2.639015e+001 2.862992e+001
5845000000 -1.411838e+001 3.748131e+001 -1.340906e+001 1.146055e+002 -1.344469e+001 1.143698e+002 -1.902384e+001 -2.003760e+000
5940000000 -1.504187e+001 3.816924e+000 -1.450912e+001 7.164232e+001 -1.447403e+001 7.191740e+001 -1.642373e+001 -3.477490e+001
6035000000 -1.813361e+001 -3.223685e+001 -1.500341e+001 3.154842e+001 -1.499734e+001 3.170250e+001 -1.508745e+001 -7.011662e+001
6130000000 -2.027546e+001 -9.116086e+001 -1.466784e+001 -6.003672e+000 -1.465966e+001 -6.149905e+000 -1.547298e+001 -1.081223e+002
6225000000 -1.944766e+001 -1.742640e+002 -1.396232e+001 -4.953359e+001 -1.392315e+001 -4.944760e+001 -1.826074e+001 -1.417708e+002
6320000000 -1.776080e+001 1.158004e+002 -1.302033e+001 -9.637930e+001 -1.298839e+001 -9.585950e+001 -2.944684e+001 -1.657537e+002
6415000000 -1.998761e+001 5.784839e+001 -1.251474e+001 -1.460089e+002 -1.254317e+001 -1.459632e+002 -2.620670e+001 -6.703257e+001
6510000000 -3.072451e+001 -2.068005e+001 -1.263468e+001 1.654403e+002 -1.269759e+001 1.650693e+002 -1.847188e+001 -8.676047e+001
6605000000 -2.574466e+001 1.695541e+002 -1.264952e+001 1.188185e+002 -1.266497e+001 1.183414e+002 -1.654235e+001 -1.177949e+002
6700000000 -2.021030e+001 1.269984e+002 -1.259683e+001 7.198070e+001 -1.258738e+001 7.173655e+001 -1.724006e+001 -1.434369e+002
6795000000 -1.939337e+001 8.584947e+001 -1.256502e+001 2.502004e+001 -1.254866e+001 2.448967e+001 -2.098574e+001 -1.549287e+002
6890000000 -2.213454e+001 3.943969e+001 -1.255875e+001 -2.258932e+001 -1.254722e+001 -2.229987e+001 -2.063758e+001 -1.263983e+002
6985000000 -2.682472e+001 -4.621093e+001 -1.241391e+001 -6.884520e+001 -1.245125e+001 -6.842568e+001 -1.611134e+001 -1.296559e+002
7080000000 -2.213970e+001 -1.337197e+002 -1.228068e+001 -1.164615e+002 -1.229086e+001 -1.169564e+002 -1.329041e+001 -1.472254e+002
7175000000 -1.800511e+001 -1.760351e+002 -1.245630e+001 -1.639933e+002 -1.247807e+001 -1.644688e+002 -1.250409e+001 -1.703099e+002
7270000000 -1.609349e+001 1.614739e+002 -1.271280e+001 1.490421e+002 -1.265615e+001 1.486958e+002 -1.228695e+001 1.728307e+002
7365000000 -1.526650e+001 1.436893e+002 -1.282431e+001 1.025945e+002 -1.278837e+001 1.026398e+002 -1.247647e+001 1.569677e+002
7460000000 -1.479225e+001 1.329848e+002 -1.277323e+001 5.653108e+001 -1.279087e+001 5.715405e+001 -1.251291e+001 1.483658e+002
7555000000 -1.388857e+001 1.247270e+002 -1.250709e+001 1.146968e+001 -1.258487e+001 1.149925e+001 -1.264116e+001 1.354419e+002
7650000000 -1.312273e+001 1.117269e+002 -1.224290e+001 -3.438987e+001 -1.234245e+001 -3.478165e+001 -1.215183e+001 1.271061e+002
7745000000 -1.292630e+001 9.713412e+001 -1.209397e+001 -8.253443e+001 -1.209343e+001 -8.300276e+001 -1.275170e+001 1.146942e+002
7840000000 -1.437717e+001 8.481524e+001 -1.213478e+001 -1.313472e+002 -1.206623e+001 -1.310821e+002 -1.278188e+001 1.100330e+002
7935000000 -1.618062e+001 8.628477e+001 -1.210683e+001 -1.793378e+002 -1.209058e+001 -1.789392e+002 -1.277745e+001 1.056937e+002
8030000000 -1.553867e+001 9.246877e+001 -1.195770e+001 1.328663e+002 -1.199576e+001 1.327858e+002 -1.197373e+001 9.680436e+001
8125000000 -1.426444e+001 8.515051e+001 -1.188262e+001 8.381036e+001 -1.201838e+001 8.378989e+001 -1.152273e+001 8.402164e+001
8220000000 -1.568368e+001 7.458916e+001 -1.222255e+001 3.444638e+001 -1.224274e+001 3.413263e+001 -1.226732e+001 7.672484e+001
8315000000 -1.670603e+001 8.723857e+001 -1.281630e+001 -1.422019e+001 -1.273114e+001 -1.411598e+001 -1.281385e+001 7.022352e+001
8410000000 -1.383002e+001 9.385922e+001 -1.325056e+001 -5.947997e+001 -1.320271e+001 -6.041385e+001 -1.204551e+001 6.576802e+001
8505000000 -1.174739e+001 7.856453e+001 -1.350260e+001 -1.043791e+002 -1.348398e+001 -1.050088e+002 -1.116010e+001 5.897454e+001
8600000000 -1.166590e+001 5.814403e+001 -1.343771e+001 -1.500940e+002 -1.340271e+001 -1.496202e+002 -1.013100e+001 4.166288e+001
8695000000 -1.378074e+001 4.727504e+001 -1.324303e+001 1.626963e+002 -1.320725e+001 1.632980e+002 -1.119015e+001 2.607458e+001
8790000000 -1.455502e+001 5.036299e+001 -1.290732e+001 1.143118e+002 -1.295454e+001 1.143198e+002 -1.148043e+001 1.428661e+001
8885000000 -1.331990e+001 4.346795e+001 -1.306542e+001 6.363892e+001 -1.305936e+001 6.290172e+001 -1.159341e+001 5.591560e+000
8980000000 -1.487328e+001 2.286463e+001 -1.395216e+001 1.357502e+001 -1.391153e+001 1.314840e+001 -1.063002e+001 -1.010409e+001
9075000000 -1.967071e+001 5.985357e+000 -1.466907e+001 -3.141170e+001 -1.462069e+001 -3.111299e+001 -1.225030e+001 -3.417260e+001
9170000000 -2.218282e+001 7.352753e+001 -1.468804e+001 -7.357523e+001 -1.470916e+001 -7.289438e+001 -1.425642e+001 -5.470991e+001
9265000000 -1.594702e+001 5.961038e+001 -1.383716e+001 -1.213003e+002 -1.390714e+001 -1.215338e+002 -1.767887e+001 -4.038522e+001
9360000000 -1.675875e+001 2.149311e+001 -1.408980e+001 -1.741777e+002 -1.420777e+001 -1.750235e+002 -1.431157e+001 -5.138812e+001
9455000000 -2.958604e+001 2.583022e+000 -1.526600e+001 1.353737e+002 -1.515699e+001 1.352455e+002 -1.441316e+001 -7.355106e+001
9550000000 -2.007342e+001 1.178403e+002 -1.607977e+001 8.895750e+001 -1.610348e+001 8.943815e+001 -1.490548e+001 -1.064768e+002
9645000000 -1.490652e+001 8.555215e+001 -1.622066e+001 4.772793e+001 -1.622623e+001 4.831424e+001 -1.899110e+001 -1.162986e+002
9740000000 -1.555737e+001 5.515048e+001 -1.576099e+001 2.346145e-001 -1.580234e+001 -6.047542e-001 -1.955596e+001 -1.021784e+002
9835000000 -2.341461e+001 6.097430e+001 -1.647049e+001 -5.317256e+001 -1.636912e+001 -5.432484e+001 -1.453778e+001 -1.088742e+002
9930000000 -1.694170e+001 1.138952e+002 -1.795069e+001 -1.006901e+002 -1.787055e+001 -1.014897e+002 -1.308539e+001 -1.417808e+002
10025000000 -1.249618e+001 1.017557e+002 -1.889983e+001 -1.438747e+002 -1.866885e+001 -1.427896e+002 -1.339832e+001 -1.670289e+002
10120000000 -1.101685e+001 8.795673e+001 -1.860808e+001 1.690737e+002 -1.855049e+001 1.707128e+002 -1.416670e+001 1.732017e+002
10215000000 -9.631126e+000 8.481801e+001 -1.916513e+001 1.189684e+002 -1.935756e+001 1.191330e+002 -1.705352e+001 1.655249e+002
10310000000 -7.194538e+000 7.560039e+001 -2.118797e+001 7.250558e+001 -2.145403e+001 7.161415e+001 -1.638628e+001 1.531891e+002
10405000000 -5.861176e+000 5.797812e+001 -2.302842e+001 3.828857e+001 -2.300553e+001 3.612903e+001 -1.898835e+001 1.424508e+002
10500000000 -5.666304e+000 4.436308e+001 -2.267063e+001 1.018032e+000 -2.231177e+001 -1.120019e+000 -2.151637e+001 1.289845e+002
10595000000 -5.173493e+000 3.580716e+001 -2.287479e+001 -5.617742e+001 -2.175125e+001 -5.275873e+001 -2.757986e+001 -1.799682e+002
10690000000 -3.808243e+000 2.440469e+001 -2.383754e+001 -1.128888e+002 -2.477935e+001 -1.090936e+002 -1.823203e+001 -1.575005e+002
10785000000 -2.986421e+000 4.007251e+000 -3.424433e+001 -1.274690e+002 -3.055666e+001 -1.415336e+002 -1.442840e+001 1.769130e+002
10880000000 -3.266394e+000 -2.006018e+001 -3.026757e+001 -1.445134e+002 -2.883392e+001 -1.319530e+002 -1.568673e+001 1.566632e+002
10975000000 -4.799378e+000 -4.008357e+001 -2.419894e+001 -1.620032e+002 -2.442955e+001 -1.610708e+002 -1.570064e+001 1.585242e+002
11070000000 -6.375522e+000 -5.640108e+001 -2.191482e+001 1.400245e+002 -2.124379e+001 1.421420e+002 -1.478156e+001 1.668382e+002
11165000000 -8.416937e+000 -7.832014e+001 -1.983717e+001 8.532910e+001 -2.046662e+001 8.480492e+001 -1.183952e+001 1.592081e+002
11260000000 -1.305878e+001 -1.045749e+002 -2.177590e+001 3.357546e+001 -2.067616e+001 3.560877e+001 -1.036440e+001 1.372698e+002
11355000000 -2.231027e+001 -1.073967e+002 -2.044615e+001 -1.021583e+001 -2.067421e+001 -8.106423e+000 -1.057717e+001 1.135979e+002
11450000000 -2.795558e+001 -4.982755e+001 -1.963017e+001 -5.618705e+001 -1.978539e+001 -5.161000e+001 -1.117701e+001 1.126884e+002
11545000000 -3.078264e+001 8.459577e+000 -1.972235e+001 -1.002900e+002 -1.899899e+001 -1.030197e+002 -1.078048e+001 9.549992e+001
11640000000 -2.130288e+001 4.379027e+001 -1.939231e+001 -1.509726e+002 -1.900645e+001 -1.523860e+002 -1.056956e+001 1.015571e+002
11735000000 -1.539317e+001 2.762223e+001 -1.955162e+001 1.611666e+002 -1.872676e+001 1.592078e+002 -1.166855e+001 8.810733e+001
11830000000 -1.417140e+001 1.034693e+001 -1.951461e+001 1.062964e+002 -1.926921e+001 1.064834e+002 -1.166403e+001 7.255930e+001
11925000000 -1.356464e+001 -8.224822e-001 -1.976620e+001 5.637377e+001 -2.003697e+001 6.211210e+001 -1.159382e+001 7.236737e+001
12020000000 -1.400488e+001 -9.224948e+000 -1.909476e+001 2.151630e+001 -1.967149e+001 2.032203e+001 -1.177159e+001 5.487175e+001
12115000000 -1.456595e+001 -1.439083e+001 -1.980258e+001 -1.797523e+001 -1.946670e+001 -2.425529e+001 -1.159764e+001 4.631665e+001
12210000000 -1.579087e+001 -1.511129e+001 -1.900198e+001 -7.724628e+001 -1.848767e+001 -7.292959e+001 -1.296131e+001 4.621568e+001
12305000000 -1.632034e+001 2.920653e+000 -1.838589e+001 -1.275180e+002 -1.862154e+001 -1.242377e+002 -1.130961e+001 4.234790e+001
12400000000 -1.312309e+001 8.979984e+000 -1.826399e+001 -1.752445e+002 -1.885939e+001 -1.753152e+002 -1.035493e+001 3.382010e+001
12495000000 -1.065868e+001 -2.800476e+000 -2.022663e+001 1.410139e+002 -1.948834e+001 1.387426e+002 -9.512125e+000 2.144127e+001
12590000000 -1.001650e+001 -1.775081e+001 -1.886464e+001 9.231806e+001 -2.013471e+001 8.640456e+001 -8.459906e+000 1.286304e+000
12685000000 -1.076767e+001 -2.502527e+001 -2.050065e+001 4.827777e+001 -2.120601e+001 4.435071e+001 -1.148846e+001 5.689780e+000
12780000000 -1.058180e+001 -2.237528e+001 -2.134262e+001 1.028029e+001 -2.213654e+001 3.617915e+000 -1.095033e+001 -7.425906e+000
12875000000 -8.912586e+000 -2.972845e+001 -2.074744e+001 -3.308554e+001 -2.179638e+001 -3.850431e+001 -8.364694e+000 -1.763267e+001
12970000000 -7.825212e+000 -4.274362e+001 -2.042172e+001 -7.740571e+001 -2.120522e+001 -7.977061e+001 -7.495448e+000 -2.032485e+001
13065000000 -8.117126e+000 -6.025515e+001 -2.014997e+001 -1.294990e+002 -2.088762e+001 -1.343779e+002 -9.676343e+000 -3.856311e+001
13160000000 -9.118494e+000 -6.730567e+001 -2.170410e+001 1.784793e+002 -2.288479e+001 1.740393e+002 -9.518840e+000 -4.463682e+001
13255000000 -9.497123e+000 -7.123012e+001 -2.367876e+001 1.458676e+002 -2.527055e+001 1.480306e+002 -9.439766e+000 -4.854164e+001
13350000000 -8.572371e+000 -7.925409e+001 -2.322398e+001 1.182177e+002 -2.408377e+001 1.201217e+002 -8.410341e+000 -6.202119e+001
13445000000 -8.265037e+000 -9.394269e+001 -2.085365e+001 7.378478e+001 -2.147671e+001 7.091949e+001 -7.862148e+000 -6.967130e+001
13540000000 -9.201647e+000 -1.141281e+002 -2.047120e+001 2.063413e+001 -2.114166e+001 2.248276e+001 -8.432764e+000 -7.454462e+001
13635000000 -1.112531e+001 -1.272527e+002 -2.028374e+001 -2.797012e+001 -2.101342e+001 -2.283512e+001 -1.003552e+001 -8.621587e+001
13730000000 -1.396452e+001 -1.341430e+002 -2.047672e+001 -7.372427e+001 -2.127695e+001 -6.817547e+001 -8.605981e+000 -1.023676e+002
13825000000 -1.611502e+001 -1.304195e+002 -1.948865e+001 -1.153268e+002 -1.953545e+001 -1.104226e+002 -9.171844e+000 -1.066347e+002
13920000000 -1.552799e+001 -1.275855e+002 -1.808815e+001 -1.662262e+002 -1.882442e+001 -1.567486e+002 -1.019412e+001 -1.118914e+002
14015000000 -1.664587e+001 -1.378774e+002 -1.734209e+001 1.432645e+002 -1.774694e+001 1.505679e+002 -1.225972e+001 -1.308334e+002
14110000000 -1.854927e+001 -1.408371e+002 -1.650234e+001 9.072456e+001 -1.776430e+001 9.116405e+001 -1.195214e+001 -1.364589e+002
14205000000 -1.693407e+001 -1.295276e+002 -1.696700e+001 3.709692e+001 -1.781012e+001 4.195108e+001 -1.236786e+001 -1.419818e+002
14300000000 -1.539028e+001 -1.471252e+002 -1.725325e+001 -1.600491e+001 -1.795364e+001 -1.076075e+001 -1.331690e+001 -1.520477e+002
14395000000 -1.560820e+001 -1.746490e+002 -1.780613e+001 -7.026972e+001 -1.860857e+001 -6.734768e+001 -1.579580e+001 -1.577827e+002
14490000000 -1.684014e+001 1.734432e+002 -1.941273e+001 -1.214420e+002 -2.019391e+001 -1.176741e+002 -2.063658e+001 1.756619e+002
14585000000 -1.660957e+001 1.573862e+002 -2.068345e+001 -1.716693e+002 -2.253383e+001 -1.667297e+002 -2.141902e+001 1.349767e+002
14680000000 -1.585304e+001 1.284902e+002 -2.285469e+001 1.455965e+002 -2.354991e+001 1.539527e+002 -2.274585e+001 1.141931e+002
14775000000 -1.657890e+001 8.539820e+001 -2.360119e+001 1.079294e+002 -2.546007e+001 1.164865e+002 -2.870461e+001 1.128280e+001
14870000000 -2.114336e+001 4.408472e+001 -2.648244e+001 7.334255e+001 -2.668046e+001 8.064275e+001 -1.665771e+001 -1.395804e+001
14965000000 -3.209352e+001 4.279863e+001 -2.613678e+001 5.129105e+001 -2.493941e+001 5.403792e+001 -1.698119e+001 -3.313327e+001
15060000000 -2.567187e+001 1.031474e+002 -2.393361e+001 3.836606e+000 -2.328209e+001 1.136141e+001 -2.007759e+001 -5.885661e+001
15155000000 -2.223040e+001 5.986194e+001 -2.216503e+001 -4.192086e+001 -2.167757e+001 -3.751134e+001 -1.640742e+001 -7.234650e+001
15250000000 -2.426834e+001 3.172762e+001 -2.264373e+001 -9.045286e+001 -2.196547e+001 -8.468704e+001 -1.554096e+001 -8.523487e+001
