!Agilent Technologies,N5230A,MY45001629,A.07.50.67
!Agilent N5230A: A.07.50.67
!Date: Monday, June 05, 2017 16:34:35
!Correction: S11(Full 2 Port(1,2)) 
!S21(Full 2 Port(1,2)) 
!S12(Full 2 Port(1,2)) 
!S22(Full 2 Port(1,2)) 
!S2P File: Measurements: S11, S21, S12, S22:
# Hz S  dB   R 50
1000000000 -2.179507e-001 5.257301e+001 -4.959163e+001 -2.300959e+001 -5.158263e+001 -1.321646e+001 -8.725610e-001 4.356781e+001
1095000000 -2.436200e-001 3.637886e+001 -4.319938e+001 -5.699246e+001 -4.290745e+001 -5.188296e+001 -1.104684e+000 2.641435e+001
1190000000 -3.969035e-001 1.801387e+001 -3.409693e+001 -1.085976e+002 -3.411589e+001 -1.067406e+002 -1.562748e+000 7.916195e+000
1285000000 -9.422970e-001 -2.220995e+000 -2.614262e+001 -1.798886e+002 -2.606996e+001 -1.796686e+002 -2.344538e+000 -9.782509e+000
1380000000 -1.455973e+000 -2.446868e+001 -2.106797e+001 1.033604e+002 -2.104792e+001 1.037023e+002 -2.550983e+000 -2.932061e+001
1475000000 -3.015612e+000 -5.655494e+001 -1.527674e+001 3.258701e+001 -1.523520e+001 3.281725e+001 -3.439815e+000 -6.168160e+001
1570000000 -8.960521e+000 -9.771027e+001 -1.067533e+001 -5.321180e+001 -1.067002e+001 -5.326005e+001 -8.747403e+000 -1.027810e+002
1665000000 -2.121075e+001 -3.530791e+001 -9.302331e+000 -1.437114e+002 -9.311515e+000 -1.438090e+002 -1.977661e+001 -8.075233e+001
1760000000 -1.248134e+001 -3.978076e+000 -1.011425e+001 1.391827e+002 -1.014417e+001 1.391729e+002 -1.680098e+001 -1.747393e+001
1855000000 -8.171968e+000 -3.012703e+001 -1.082550e+001 7.965371e+001 -1.084483e+001 7.967370e+001 -1.125199e+001 -3.373607e+001
1950000000 -7.948126e+000 -6.040511e+001 -1.036344e+001 2.319771e+001 -1.035045e+001 2.327162e+001 -9.680508e+000 -5.917762e+001
2045000000 -1.045588e+001 -7.774918e+001 -9.325702e+000 -3.716318e+001 -9.320024e+000 -3.714381e+001 -1.137839e+001 -7.944952e+001
2140000000 -1.155576e+001 -7.594508e+001 -8.766250e+000 -9.751910e+001 -8.723031e+000 -9.762873e+001 -1.227002e+001 -7.437670e+001
2235000000 -9.813059e+000 -8.419643e+001 -8.761865e+000 -1.588222e+002 -8.751710e+000 -1.589570e+002 -1.036466e+001 -8.333701e+001
2330000000 -9.929164e+000 -1.070816e+002 -9.026154e+000 1.464395e+002 -9.024066e+000 1.462283e+002 -9.658965e+000 -1.054905e+002
2425000000 -1.194679e+001 -1.224508e+002 -8.766853e+000 9.083506e+001 -8.780093e+000 9.073252e+001 -1.093728e+001 -1.198702e+002
2520000000 -1.349124e+001 -1.311193e+002 -8.737583e+000 3.612938e+001 -8.748555e+000 3.618493e+001 -1.261716e+001 -1.322884e+002
2615000000 -1.581198e+001 -1.450544e+002 -8.703901e+000 -1.867248e+001 -8.682026e+000 -1.853001e+001 -1.408157e+001 -1.438567e+002
2710000000 -2.233818e+001 -1.283377e+002 -8.979994e+000 -7.297061e+001 -8.973239e+000 -7.300261e+001 -1.886946e+001 -1.314153e+002
2805000000 -1.712794e+001 -8.467613e+001 -9.167304e+000 -1.250408e+002 -9.136079e+000 -1.251345e+002 -1.623978e+001 -1.039763e+002
2900000000 -1.258674e+001 -1.043565e+002 -9.499396e+000 -1.747469e+002 -9.485753e+000 -1.747950e+002 -1.168517e+001 -1.136772e+002
2995000000 -1.179347e+001 -1.277626e+002 -9.255114e+000 1.375585e+002 -9.270795e+000 1.373871e+002 -1.090117e+001 -1.358058e+002
3090000000 -1.369071e+001 -1.414185e+002 -8.762194e+000 8.678180e+001 -8.770775e+000 8.671487e+001 -1.248558e+001 -1.524499e+002
3185000000 -1.502282e+001 -1.260899e+002 -8.497012e+000 3.379178e+001 -8.503805e+000 3.370832e+001 -1.498287e+001 -1.373862e+002
3280000000 -1.106578e+001 -1.224941e+002 -8.596475e+000 -1.936994e+001 -8.592381e+000 -1.911446e+001 -1.088512e+001 -1.331914e+002
3375000000 -8.723454e+000 -1.439126e+002 -8.953652e+000 -7.017567e+001 -8.973647e+000 -6.996830e+001 -8.590857e+000 -1.489180e+002
3470000000 -8.552444e+000 -1.643022e+002 -9.080865e+000 -1.179489e+002 -9.087372e+000 -1.179104e+002 -8.290515e+000 -1.700890e+002
3565000000 -9.276546e+000 -1.792610e+002 -9.047188e+000 -1.671498e+002 -9.034591e+000 -1.670412e+002 -8.764793e+000 1.760274e+002
3660000000 -1.024920e+001 1.705427e+002 -8.817584e+000 1.445992e+002 -8.838463e+000 1.448153e+002 -9.451370e+000 1.661404e+002
3755000000 -1.066687e+001 1.630787e+002 -8.544768e+000 9.496083e+001 -8.531588e+000 9.496784e+001 -9.642603e+000 1.527011e+002
3850000000 -1.167024e+001 1.547016e+002 -8.300491e+000 4.432249e+001 -8.280635e+000 4.436251e+001 -1.137327e+001 1.392369e+002
3945000000 -1.298181e+001 1.514464e+002 -8.106714e+000 -7.399943e+000 -8.117323e+000 -7.287770e+000 -1.359614e+001 1.364747e+002
4040000000 -1.309624e+001 1.512545e+002 -8.156198e+000 -5.876951e+001 -8.141713e+000 -5.896404e+001 -1.389917e+001 1.412250e+002
4135000000 -1.429602e+001 1.449474e+002 -8.263025e+000 -1.120564e+002 -8.235321e+000 -1.121015e+002 -1.496508e+001 1.314170e+002
4230000000 -1.613058e+001 1.635036e+002 -9.124595e+000 -1.661601e+002 -9.117528e+000 -1.659962e+002 -1.809161e+001 1.487122e+002
4325000000 -1.204207e+001 1.699184e+002 -1.037341e+001 1.467055e+002 -1.033940e+001 1.467316e+002 -1.379783e+001 1.607945e+002
4420000000 -9.891523e+000 1.560382e+002 -1.108400e+001 1.047262e+002 -1.107448e+001 1.045399e+002 -1.161211e+001 1.446480e+002
4515000000 -9.001842e+000 1.425261e+002 -1.088576e+001 6.170683e+001 -1.084314e+001 6.176758e+001 -1.107591e+001 1.313272e+002
4610000000 -8.143728e+000 1.281436e+002 -1.043777e+001 1.517001e+001 -1.040573e+001 1.523841e+001 -1.091323e+001 1.149935e+002
4705000000 -8.141504e+000 1.092538e+002 -1.016597e+001 -3.363110e+001 -1.013014e+001 -3.385541e+001 -1.043795e+001 9.897909e+001
4800000000 -9.258502e+000 8.916171e+001 -1.006601e+001 -8.308181e+001 -1.000688e+001 -8.309518e+001 -1.135127e+001 7.955656e+001
4895000000 -1.186015e+001 7.605360e+001 -9.947370e+000 -1.334909e+002 -9.944206e+000 -1.336045e+002 -1.229143e+001 5.960509e+001
4990000000 -1.459762e+001 7.415794e+001 -1.033631e+001 1.756676e+002 -1.030693e+001 1.757614e+002 -1.440144e+001 3.958131e+001
5085000000 -1.615301e+001 8.045902e+001 -1.089662e+001 1.266602e+002 -1.087187e+001 1.266654e+002 -1.764320e+001 2.143898e+001
5180000000 -1.627269e+001 8.748563e+001 -1.150584e+001 7.980254e+001 -1.149076e+001 7.977647e+001 -2.387105e+001 5.928289e+000
5275000000 -1.545691e+001 9.340717e+001 -1.173461e+001 3.429688e+001 -1.169529e+001 3.392366e+001 -2.796035e+001 5.449725e+001
5370000000 -1.366047e+001 8.377679e+001 -1.222000e+001 -1.148627e+001 -1.224596e+001 -1.210011e+001 -2.047288e+001 5.834699e+001
5465000000 -1.363570e+001 6.510558e+001 -1.239576e+001 -5.540369e+001 -1.241530e+001 -5.607467e+001 -1.837154e+001 2.875842e+001
5560000000 -1.599417e+001 4.899632e+001 -1.228362e+001 -1.003623e+002 -1.225621e+001 -1.005273e+002 -1.974532e+001 -7.384576e+000
5655000000 -1.940426e+001 6.217278e+001 -1.178232e+001 -1.494326e+002 -1.183178e+001 -1.494186e+002 -2.583154e+001 -3.696064e+001
5750000000 -1.560313e+001 7.057000e+001 -1.213902e+001 1.592050e+002 -1.208139e+001 1.592457e+002 -2.418578e+001 3.240992e+001
5845000000 -1.364649e+001 4.427980e+001 -1.314651e+001 1.094218e+002 -1.306726e+001 1.094177e+002 -1.779688e+001 -9.345658e-001
5940000000 -1.423390e+001 8.948415e+000 -1.407406e+001 6.644548e+001 -1.408380e+001 6.619765e+001 -1.555446e+001 -3.675930e+001
6035000000 -1.677551e+001 -2.830800e+001 -1.470275e+001 2.554770e+001 -1.468020e+001 2.493324e+001 -1.443942e+001 -7.181833e+001
6130000000 -1.896849e+001 -8.561905e+001 -1.456086e+001 -1.259541e+001 -1.460634e+001 -1.310213e+001 -1.463440e+001 -1.133935e+002
6225000000 -1.912838e+001 -1.674327e+002 -1.389621e+001 -5.545424e+001 -1.393559e+001 -5.591411e+001 -1.720630e+001 -1.502918e+002
6320000000 -1.808090e+001 1.199871e+002 -1.301318e+001 -1.020357e+002 -1.305399e+001 -1.019536e+002 -2.741224e+001 1.533675e+002
6415000000 -2.088439e+001 6.195219e+001 -1.265069e+001 -1.516455e+002 -1.261056e+001 -1.517112e+002 -2.712793e+001 -2.782374e+001
6510000000 -3.584982e+001 -5.561306e+000 -1.289302e+001 1.601492e+002 -1.288068e+001 1.599493e+002 -1.754720e+001 -7.681456e+001
6605000000 -2.493502e+001 1.563271e+002 -1.294985e+001 1.139698e+002 -1.287730e+001 1.136071e+002 -1.546235e+001 -1.115122e+002
6700000000 -1.998626e+001 1.196272e+002 -1.283307e+001 6.700048e+001 -1.279693e+001 6.728468e+001 -1.607035e+001 -1.433439e+002
6795000000 -1.927115e+001 7.932912e+001 -1.278373e+001 2.073144e+001 -1.281987e+001 2.088320e+001 -1.899490e+001 -1.599158e+002
6890000000 -2.171084e+001 3.151500e+001 -1.267544e+001 -2.557226e+001 -1.275674e+001 -2.557794e+001 -2.161805e+001 -1.347032e+002
6985000000 -2.500462e+001 -5.328245e+001 -1.257975e+001 -7.186420e+001 -1.260698e+001 -7.204327e+001 -1.689532e+001 -1.329915e+002
7080000000 -2.092943e+001 -1.331721e+002 -1.257805e+001 -1.200560e+002 -1.249366e+001 -1.203661e+002 -1.355513e+001 -1.452944e+002
7175000000 -1.726439e+001 -1.766928e+002 -1.267209e+001 -1.677251e+002 -1.259676e+001 -1.677925e+002 -1.282701e+001 -1.696963e+002
7270000000 -1.549720e+001 1.586677e+002 -1.286309e+001 1.450308e+002 -1.282171e+001 1.454238e+002 -1.218773e+001 1.748372e+002
7365000000 -1.492047e+001 1.399437e+002 -1.292014e+001 9.934428e+001 -1.302117e+001 9.960506e+001 -1.246764e+001 1.595849e+002
7460000000 -1.485151e+001 1.279240e+002 -1.290769e+001 5.404928e+001 -1.302702e+001 5.444209e+001 -1.220378e+001 1.484921e+002
7555000000 -1.431889e+001 1.219267e+002 -1.265234e+001 9.428518e+000 -1.267200e+001 8.928845e+000 -1.234155e+001 1.370753e+002
7650000000 -1.361937e+001 1.109482e+002 -1.246339e+001 -3.686739e+001 -1.244657e+001 -3.756917e+001 -1.185811e+001 1.256948e+002
7745000000 -1.330600e+001 9.764394e+001 -1.224045e+001 -8.618059e+001 -1.216581e+001 -8.639016e+001 -1.231166e+001 1.126567e+002
7840000000 -1.453941e+001 8.685898e+001 -1.227213e+001 -1.353236e+002 -1.224939e+001 -1.344435e+002 -1.304770e+001 1.083551e+002
7935000000 -1.594951e+001 8.814822e+001 -1.219321e+001 1.780002e+002 -1.226618e+001 1.782594e+002 -1.291776e+001 1.038587e+002
8030000000 -1.507398e+001 9.194626e+001 -1.217606e+001 1.307265e+002 -1.218117e+001 1.300824e+002 -1.231352e+001 9.817321e+001
8125000000 -1.391655e+001 8.239651e+001 -1.215428e+001 8.228256e+001 -1.221375e+001 8.160765e+001 -1.178135e+001 8.482859e+001
8220000000 -1.551254e+001 7.073187e+001 -1.242645e+001 3.210225e+001 -1.233237e+001 3.193688e+001 -1.205450e+001 7.907700e+001
8315000000 -1.716570e+001 8.469801e+001 -1.287417e+001 -1.708422e+001 -1.281317e+001 -1.638220e+001 -1.270661e+001 7.068762e+001
8410000000 -1.405267e+001 9.340828e+001 -1.342919e+001 -6.246601e+001 -1.331173e+001 -6.312510e+001 -1.199529e+001 6.586237e+001
8505000000 -1.180588e+001 7.799415e+001 -1.367486e+001 -1.074720e+002 -1.368601e+001 -1.075449e+002 -1.106923e+001 5.730918e+001
8600000000 -1.171558e+001 5.818303e+001 -1.349372e+001 -1.526688e+002 -1.346319e+001 -1.518508e+002 -1.008591e+001 4.008681e+001
8695000000 -1.388748e+001 4.804657e+001 -1.324956e+001 1.601849e+002 -1.330855e+001 1.610778e+002 -1.138549e+001 2.507700e+001
8790000000 -1.435913e+001 5.109132e+001 -1.308596e+001 1.121168e+002 -1.306890e+001 1.117884e+002 -1.149765e+001 1.392914e+001
8885000000 -1.291826e+001 4.301657e+001 -1.333048e+001 6.139337e+001 -1.321865e+001 6.096878e+001 -1.187056e+001 5.560245e+000
8980000000 -1.462286e+001 2.085614e+001 -1.412062e+001 1.093235e+001 -1.402543e+001 1.101318e+001 -1.065554e+001 -9.699926e+000
9075000000 -1.946441e+001 -2.662900e-001 -1.481641e+001 -3.336367e+001 -1.479805e+001 -3.276024e+001 -1.219893e+001 -3.406212e+001
9170000000 -2.288890e+001 7.560139e+001 -1.469162e+001 -7.537313e+001 -1.468992e+001 -7.526730e+001 -1.444762e+001 -5.610647e+001
9265000000 -1.606850e+001 5.988911e+001 -1.397091e+001 -1.232236e+002 -1.398871e+001 -1.238075e+002 -1.753960e+001 -3.741125e+001
9360000000 -1.680297e+001 2.266992e+001 -1.414872e+001 -1.761516e+002 -1.422666e+001 -1.769754e+002 -1.413540e+001 -5.034414e+001
9455000000 -2.959250e+001 6.250674e+000 -1.527948e+001 1.327684e+002 -1.517078e+001 1.329050e+002 -1.363098e+001 -7.543338e+001
9550000000 -1.999851e+001 1.163902e+002 -1.621841e+001 8.578369e+001 -1.625918e+001 8.629552e+001 -1.446316e+001 -1.118157e+002
9645000000 -1.465859e+001 8.358924e+001 -1.642651e+001 4.519584e+001 -1.648632e+001 4.595981e+001 -1.896078e+001 -1.221332e+002
9740000000 -1.546560e+001 5.222900e+001 -1.604808e+001 -2.039826e+000 -1.614909e+001 -3.108678e+000 -2.122614e+001 -9.843767e+001
9835000000 -2.430791e+001 5.724899e+001 -1.676492e+001 -5.540749e+001 -1.673055e+001 -5.621130e+001 -1.459850e+001 -1.070223e+002
9930000000 -1.712941e+001 1.158218e+002 -1.843453e+001 -1.019168e+002 -1.833711e+001 -1.027255e+002 -1.311363e+001 -1.400146e+002
10025000000 -1.232623e+001 1.016091e+002 -1.917936e+001 -1.446011e+002 -1.897738e+001 -1.432222e+002 -1.341323e+001 -1.653443e+002
10120000000 -1.089061e+001 8.675008e+001 -1.876137e+001 1.687113e+002 -1.869721e+001 1.694854e+002 -1.423310e+001 1.746422e+002
10215000000 -9.581323e+000 8.349146e+001 -1.926960e+001 1.186241e+002 -1.952804e+001 1.179031e+002 -1.663913e+001 1.672970e+002
10310000000 -7.206337e+000 7.456694e+001 -2.141640e+001 7.139544e+001 -2.169992e+001 6.993994e+001 -1.602685e+001 1.535258e+002
10405000000 -5.916015e+000 5.686618e+001 -2.323243e+001 3.811079e+001 -2.306420e+001 3.597230e+001 -1.898747e+001 1.380434e+002
10500000000 -5.720609e+000 4.333149e+001 -2.278375e+001 4.039317e-001 -2.243541e+001 -4.117025e-001 -2.125118e+001 1.258461e+002
10595000000 -5.177251e+000 3.555035e+001 -2.131306e+001 -5.140851e+001 -2.180153e+001 -5.557738e+001 -3.080709e+001 -1.674659e+002
10690000000 -3.874401e+000 2.432024e+001 -2.585564e+001 -1.100406e+002 -2.464529e+001 -1.091314e+002 -1.842590e+001 -1.597517e+002
10785000000 -2.904410e+000 3.872352e+000 -2.848750e+001 -1.422413e+002 -3.104367e+001 -1.441104e+002 -1.440099e+001 1.791080e+002
10880000000 -3.201934e+000 -2.006729e+001 -2.872497e+001 -1.127377e+002 -3.000933e+001 -1.274459e+002 -1.567178e+001 1.608253e+002
10975000000 -4.742512e+000 -4.026605e+001 -2.474631e+001 -1.680586e+002 -2.440840e+001 -1.615386e+002 -1.552002e+001 1.580001e+002
11070000000 -6.319426e+000 -5.635321e+001 -2.021890e+001 1.456199e+002 -2.087612e+001 1.435577e+002 -1.553943e+001 1.646807e+002
11165000000 -8.237576e+000 -7.836054e+001 -2.082832e+001 8.360463e+001 -2.024477e+001 8.461359e+001 -1.185239e+001 1.583081e+002
11260000000 -1.289555e+001 -1.045352e+002 -1.945083e+001 3.344986e+001 -2.048094e+001 3.388854e+001 -1.006832e+001 1.365872e+002
11355000000 -2.216113e+001 -1.084282e+002 -2.068187e+001 -4.783474e+000 -2.051121e+001 -8.090108e+000 -1.091660e+001 1.142401e+002
11450000000 -2.807107e+001 -5.346546e+001 -1.940459e+001 -4.710080e+001 -1.952547e+001 -5.215536e+001 -1.120583e+001 1.083447e+002
11545000000 -3.261779e+001 7.804908e+000 -1.862683e+001 -1.083768e+002 -1.917314e+001 -1.032225e+002 -1.150754e+001 9.624123e+001
11640000000 -2.120659e+001 4.160767e+001 -1.807387e+001 -1.583318e+002 -1.891323e+001 -1.534598e+002 -1.036023e+001 9.768272e+001
11735000000 -1.523581e+001 2.687591e+001 -1.839496e+001 1.516536e+002 -1.844385e+001 1.564576e+002 -1.098640e+001 8.404327e+001
11830000000 -1.415084e+001 7.787893e+000 -1.824929e+001 1.032840e+002 -1.893145e+001 1.054250e+002 -1.176145e+001 7.407565e+001
11925000000 -1.384919e+001 -2.482796e+000 -1.847064e+001 6.349495e+001 -1.978518e+001 5.868388e+001 -1.173887e+001 6.459948e+001
12020000000 -1.398274e+001 -9.799438e+000 -2.030687e+001 2.152490e+001 -2.029822e+001 1.623408e+001 -1.188957e+001 5.719338e+001
12115000000 -1.434935e+001 -1.739573e+001 -2.011416e+001 -3.170841e+001 -1.924217e+001 -2.513519e+001 -1.083261e+001 4.045605e+001
12210000000 -1.584097e+001 -1.809096e+001 -1.842005e+001 -7.917873e+001 -1.895798e+001 -7.663753e+001 -1.248750e+001 4.983995e+001
12305000000 -1.658385e+001 1.856794e+000 -1.812513e+001 -1.202055e+002 -1.885451e+001 -1.242614e+002 -1.110276e+001 3.189945e+001
12400000000 -1.320303e+001 9.410000e+000 -1.942731e+001 -1.694067e+002 -1.869610e+001 -1.755200e+002 -9.860553e+000 3.797828e+001
12495000000 -1.053123e+001 -3.341128e+000 -1.924355e+001 1.323824e+002 -1.925319e+001 1.374957e+002 -9.087906e+000 1.651728e+001
12590000000 -1.001396e+001 -1.920612e+001 -2.066661e+001 9.476821e+001 -2.035406e+001 8.900507e+001 -9.258970e+000 6.889494e+000
12685000000 -1.069505e+001 -2.550870e+001 -2.219339e+001 5.313064e+001 -2.153498e+001 4.293198e+001 -1.177714e+001 -2.250715e+000
12780000000 -1.057450e+001 -2.463447e+001 -2.342068e+001 1.021316e+001 -2.223967e+001 2.296702e+000 -9.971292e+000 -1.226585e+001
12875000000 -8.728774e+000 -3.052813e+001 -2.193897e+001 -2.812732e+001 -2.192555e+001 -3.918650e+001 -8.210844e+000 -1.609268e+001
12970000000 -7.861709e+000 -4.513067e+001 -2.144644e+001 -7.495132e+001 -2.057373e+001 -7.956795e+001 -7.968055e+000 -2.012240e+001
13065000000 -8.269178e+000 -6.218106e+001 -2.119555e+001 -1.274608e+002 -2.088483e+001 -1.331752e+002 -1.032970e+001 -3.932875e+001
13160000000 -9.419988e+000 -6.665414e+001 -2.275376e+001 -1.756812e+002 -2.286606e+001 1.769080e+002 -9.240693e+000 -4.888028e+001
13255000000 -9.429958e+000 -7.129590e+001 -2.433365e+001 1.545762e+002 -2.446050e+001 1.428588e+002 -9.106954e+000 -4.587448e+001
13350000000 -8.537482e+000 -7.985624e+001 -2.331503e+001 1.229092e+002 -2.378300e+001 1.180854e+002 -8.395685e+000 -5.783007e+001
13445000000 -8.108154e+000 -9.449252e+001 -2.070869e+001 7.800262e+001 -2.161874e+001 7.210058e+001 -7.956758e+000 -6.808696e+001
13540000000 -9.300069e+000 -1.158523e+002 -2.006191e+001 2.286164e+001 -2.043743e+001 1.849159e+001 -8.617677e+000 -7.856124e+001
13635000000 -1.110877e+001 -1.291890e+002 -2.042615e+001 -2.317838e+001 -2.140105e+001 -2.391414e+001 -9.812905e+000 -8.888103e+001
13730000000 -1.393455e+001 -1.327382e+002 -1.989901e+001 -6.659235e+001 -2.092753e+001 -7.406302e+001 -7.840827e+000 -1.012546e+002
13825000000 -1.613846e+001 -1.328728e+002 -1.888693e+001 -1.067446e+002 -2.004093e+001 -1.130289e+002 -9.042334e+000 -1.040989e+002
13920000000 -1.578432e+001 -1.297486e+002 -1.753984e+001 -1.551422e+002 -1.904336e+001 -1.567221e+002 -1.175234e+001 -1.153091e+002
14015000000 -1.700380e+001 -1.408447e+002 -1.669732e+001 1.542907e+002 -1.789680e+001 1.486088e+002 -1.197900e+001 -1.387690e+002
14110000000 -1.911007e+001 -1.402049e+002 -1.689633e+001 9.940476e+001 -1.733237e+001 9.314327e+001 -1.104043e+001 -1.317708e+002
14205000000 -1.721856e+001 -1.284993e+002 -1.672920e+001 4.780722e+001 -1.742124e+001 4.250551e+001 -1.271498e+001 -1.318259e+002
14300000000 -1.522317e+001 -1.467885e+002 -1.723860e+001 -3.442326e+000 -1.787994e+001 -7.945224e+000 -1.439548e+001 -1.528922e+002
14395000000 -1.523407e+001 -1.740544e+002 -1.766495e+001 -5.980428e+001 -1.849190e+001 -6.390411e+001 -1.557562e+001 -1.777666e+002
14490000000 -1.683756e+001 1.708497e+002 -1.910302e+001 -1.123229e+002 -1.980911e+001 -1.175061e+002 -1.870657e+001 1.633630e+002
14585000000 -1.649687e+001 1.538104e+002 -2.116885e+001 -1.635029e+002 -2.169051e+001 -1.628417e+002 -2.275779e+001 1.417114e+002
14680000000 -1.572148e+001 1.270708e+002 -2.271856e+001 1.558893e+002 -2.331328e+001 1.528221e+002 -2.428411e+001 1.253407e+002
14775000000 -1.668972e+001 8.261005e+001 -2.399326e+001 1.108540e+002 -2.447089e+001 1.179448e+002 -2.360561e+001 2.706583e+001
14870000000 -2.042242e+001 3.935095e+001 -2.493126e+001 7.605251e+001 -2.564804e+001 8.783012e+001 -1.576226e+001 -9.629912e+000
14965000000 -3.187191e+001 1.768864e+001 -2.450362e+001 4.738822e+001 -2.461752e+001 6.378376e+001 -1.822489e+001 -3.213225e+001
15060000000 -2.653025e+001 1.088484e+002 -2.294286e+001 6.651866e+000 -2.205676e+001 1.608779e+001 -2.097733e+001 -6.721455e+001
15155000000 -2.208682e+001 6.868167e+001 -2.083395e+001 -4.358340e+001 -2.092945e+001 -3.185082e+001 -1.573262e+001 -7.814705e+001
15250000000 -2.430979e+001 3.480897e+001 -2.121226e+001 -9.461086e+001 -2.095649e+001 -8.268519e+001 -1.585153e+001 -8.190685e+001
