!Agilent Technologies,N5230A,MY45001629,A.07.50.67
!Agilent N5230A: A.07.50.67
!Date: Monday, June 05, 2017 16:31:24
!Correction: S11(Full 2 Port(1,2)) 
!S21(Full 2 Port(1,2)) 
!S12(Full 2 Port(1,2)) 
!S22(Full 2 Port(1,2)) 
!S2P File: Measurements: S11, S21, S12, S22:
# Hz S  dB   R 50
1000000000 -2.203571e-001 5.256182e+001 -5.154616e+001 -1.145472e+000 -5.086377e+001 -1.133620e+001 -8.666844e-001 4.360492e+001
1095000000 -2.395486e-001 3.636543e+001 -4.293634e+001 -5.354086e+001 -4.327021e+001 -5.579275e+001 -1.094755e+000 2.652871e+001
1190000000 -3.978845e-001 1.804264e+001 -3.392284e+001 -1.064339e+002 -3.405956e+001 -1.071017e+002 -1.567309e+000 7.990748e+000
1285000000 -9.407198e-001 -2.265372e+000 -2.610921e+001 -1.791187e+002 -2.614434e+001 -1.790930e+002 -2.351487e+000 -9.819852e+000
1380000000 -1.455011e+000 -2.443571e+001 -2.089442e+001 1.038269e+002 -2.097887e+001 1.038917e+002 -2.563540e+000 -2.935711e+001
1475000000 -3.013014e+000 -5.662593e+001 -1.520207e+001 3.262461e+001 -1.521131e+001 3.260835e+001 -3.443084e+000 -6.156793e+001
1570000000 -8.946849e+000 -9.740114e+001 -1.071245e+001 -5.303053e+001 -1.068120e+001 -5.315446e+001 -8.730947e+000 -1.022589e+002
1665000000 -2.117545e+001 -3.714185e+001 -9.284498e+000 -1.431009e+002 -9.282111e+000 -1.431389e+002 -1.961727e+001 -8.011242e+001
1760000000 -1.247938e+001 -3.303943e+000 -1.006702e+001 1.394472e+002 -1.005974e+001 1.393511e+002 -1.702650e+001 -1.794071e+001
1855000000 -8.197284e+000 -3.011749e+001 -1.087708e+001 7.977416e+001 -1.086020e+001 7.971406e+001 -1.121010e+001 -3.290504e+001
1950000000 -7.940977e+000 -6.035613e+001 -1.035034e+001 2.368013e+001 -1.033158e+001 2.359623e+001 -9.708850e+000 -5.926187e+001
2045000000 -1.045504e+001 -7.769093e+001 -9.305451e+000 -3.654218e+001 -9.315892e+000 -3.682917e+001 -1.141864e+001 -7.991879e+001
2140000000 -1.154059e+001 -7.591212e+001 -8.731745e+000 -9.695924e+001 -8.736961e+000 -9.716833e+001 -1.230115e+001 -7.353938e+001
2235000000 -9.780169e+000 -8.421844e+001 -8.695351e+000 -1.581512e+002 -8.739517e+000 -1.583380e+002 -1.019054e+001 -8.396816e+001
2330000000 -9.871641e+000 -1.072245e+002 -8.988627e+000 1.466837e+002 -9.004308e+000 1.467800e+002 -9.615460e+000 -1.064179e+002
2425000000 -1.194037e+001 -1.230333e+002 -8.715861e+000 9.117576e+001 -8.730001e+000 9.143891e+001 -1.107145e+001 -1.202259e+002
2520000000 -1.354401e+001 -1.317501e+002 -8.743402e+000 3.677839e+001 -8.732052e+000 3.675205e+001 -1.268781e+001 -1.323912e+002
2615000000 -1.590642e+001 -1.451416e+002 -8.657886e+000 -1.782177e+001 -8.604551e+000 -1.781015e+001 -1.416623e+001 -1.437776e+002
2710000000 -2.242056e+001 -1.268823e+002 -8.930144e+000 -7.221208e+001 -8.886945e+000 -7.235685e+001 -1.855622e+001 -1.301072e+002
2805000000 -1.701950e+001 -8.441397e+001 -9.077989e+000 -1.241702e+002 -9.069808e+000 -1.244397e+002 -1.624965e+001 -1.056797e+002
2900000000 -1.249486e+001 -1.044118e+002 -9.415929e+000 -1.740066e+002 -9.406555e+000 -1.741721e+002 -1.179438e+001 -1.141918e+002
2995000000 -1.169471e+001 -1.279932e+002 -9.175011e+000 1.379601e+002 -9.192674e+000 1.380042e+002 -1.084001e+001 -1.363658e+002
3090000000 -1.367239e+001 -1.422665e+002 -8.692114e+000 8.721301e+001 -8.704466e+000 8.723343e+001 -1.244094e+001 -1.532715e+002
3185000000 -1.523102e+001 -1.265813e+002 -8.413451e+000 3.444534e+001 -8.423009e+000 3.427948e+001 -1.525795e+001 -1.381057e+002
3280000000 -1.118681e+001 -1.215819e+002 -8.516023e+000 -1.864438e+001 -8.506337e+000 -1.890178e+001 -1.081536e+001 -1.321558e+002
3375000000 -8.748942e+000 -1.433100e+002 -8.831134e+000 -6.965098e+001 -8.857002e+000 -6.966167e+001 -8.549306e+000 -1.484559e+002
3470000000 -8.552050e+000 -1.635106e+002 -9.001924e+000 -1.173907e+002 -8.992949e+000 -1.175210e+002 -8.293957e+000 -1.699013e+002
3565000000 -9.152760e+000 -1.783326e+002 -8.934544e+000 -1.666186e+002 -8.933599e+000 -1.666147e+002 -8.564949e+000 1.758410e+002
3660000000 -1.003873e+001 1.704281e+002 -8.715326e+000 1.455388e+002 -8.701832e+000 1.453806e+002 -9.319850e+000 1.650767e+002
3755000000 -1.050010e+001 1.614925e+002 -8.336928e+000 9.550577e+001 -8.338342e+000 9.538491e+001 -9.708073e+000 1.524111e+002
3850000000 -1.181259e+001 1.524446e+002 -8.090115e+000 4.446866e+001 -8.091713e+000 4.426661e+001 -1.152822e+001 1.388731e+002
3945000000 -1.348349e+001 1.515648e+002 -7.934618e+000 -7.637352e+000 -7.913656e+000 -7.814762e+000 -1.398114e+001 1.361340e+002
4040000000 -1.327474e+001 1.542026e+002 -8.038181e+000 -5.961618e+001 -8.022895e+000 -5.997645e+001 -1.382033e+001 1.442415e+002
4135000000 -1.409110e+001 1.473937e+002 -8.159087e+000 -1.127682e+002 -8.133764e+000 -1.130092e+002 -1.436740e+001 1.335405e+002
4230000000 -1.567631e+001 1.636621e+002 -8.979216e+000 -1.668068e+002 -8.996165e+000 -1.669685e+002 -1.777610e+001 1.431636e+002
4325000000 -1.179555e+001 1.684155e+002 -1.025368e+001 1.456276e+002 -1.027048e+001 1.451520e+002 -1.397476e+001 1.590003e+002
4420000000 -9.915068e+000 1.537762e+002 -1.104772e+001 1.030844e+002 -1.105118e+001 1.029573e+002 -1.204921e+001 1.444333e+002
4515000000 -9.295282e+000 1.412669e+002 -1.086913e+001 6.009360e+001 -1.090327e+001 6.005152e+001 -1.122608e+001 1.326218e+002
4610000000 -8.460518e+000 1.286556e+002 -1.051058e+001 1.374182e+001 -1.050607e+001 1.374030e+001 -1.097421e+001 1.176476e+002
4705000000 -8.278038e+000 1.109046e+002 -1.029861e+001 -3.473927e+001 -1.033104e+001 -3.497594e+001 -1.017655e+001 1.008332e+002
4800000000 -9.203867e+000 9.085248e+001 -1.027722e+001 -8.392506e+001 -1.028792e+001 -8.416609e+001 -1.108598e+001 8.023093e+001
4895000000 -1.162734e+001 7.724188e+001 -1.025848e+001 -1.334436e+002 -1.025752e+001 -1.336625e+002 -1.202328e+001 5.761079e+001
4990000000 -1.423600e+001 7.492042e+001 -1.053369e+001 1.759831e+002 -1.057504e+001 1.761398e+002 -1.429565e+001 3.657003e+001
5085000000 -1.575026e+001 7.695335e+001 -1.101875e+001 1.271232e+002 -1.102914e+001 1.267166e+002 -1.774363e+001 1.751404e+001
5180000000 -1.679153e+001 8.438737e+001 -1.174382e+001 8.033968e+001 -1.176328e+001 8.010721e+001 -2.463087e+001 1.250751e+000
5275000000 -1.595704e+001 9.468046e+001 -1.207726e+001 3.442360e+001 -1.207703e+001 3.447221e+001 -2.953472e+001 7.019076e+001
5370000000 -1.374311e+001 8.623389e+001 -1.253823e+001 -1.076021e+001 -1.258059e+001 -1.085563e+001 -1.969826e+001 6.528645e+001
5465000000 -1.357756e+001 6.739729e+001 -1.267013e+001 -5.421575e+001 -1.272185e+001 -5.391838e+001 -1.697027e+001 2.717958e+001
5560000000 -1.579289e+001 5.078700e+001 -1.241761e+001 -9.854440e+001 -1.242929e+001 -9.853317e+001 -1.861822e+001 -1.365030e+001
5655000000 -1.900345e+001 6.148244e+001 -1.196172e+001 -1.480721e+002 -1.195053e+001 -1.479731e+002 -2.555308e+001 -4.476347e+001
5750000000 -1.542098e+001 6.965018e+001 -1.217697e+001 1.609269e+002 -1.219789e+001 1.605985e+002 -2.460754e+001 2.695638e+001
5845000000 -1.359932e+001 4.246746e+001 -1.320132e+001 1.112577e+002 -1.328035e+001 1.106707e+002 -1.811189e+001 -2.541742e+000
5940000000 -1.432777e+001 7.038674e+000 -1.427221e+001 6.827153e+001 -1.430151e+001 6.827237e+001 -1.572653e+001 -3.616436e+001
6035000000 -1.722142e+001 -3.066415e+001 -1.483449e+001 2.739680e+001 -1.481870e+001 2.770409e+001 -1.454763e+001 -7.084708e+001
6130000000 -1.956957e+001 -8.781244e+001 -1.452692e+001 -1.064466e+001 -1.456083e+001 -1.033040e+001 -1.475815e+001 -1.111131e+002
6225000000 -1.949468e+001 -1.703180e+002 -1.386455e+001 -5.329081e+001 -1.388649e+001 -5.334198e+001 -1.753065e+001 -1.473826e+002
6320000000 -1.813783e+001 1.185444e+002 -1.296502e+001 -9.914388e+001 -1.296122e+001 -9.932529e+001 -2.802381e+001 1.623864e+002
6415000000 -2.075249e+001 6.113586e+001 -1.256401e+001 -1.491593e+002 -1.251807e+001 -1.493326e+002 -2.657088e+001 -4.147832e+001
6510000000 -3.437714e+001 -1.095537e+001 -1.279975e+001 1.617501e+002 -1.274077e+001 1.616017e+002 -1.776770e+001 -7.867471e+001
6605000000 -2.533671e+001 1.589489e+002 -1.280568e+001 1.151766e+002 -1.273931e+001 1.153061e+002 -1.575093e+001 -1.130479e+002
6700000000 -2.011629e+001 1.214138e+002 -1.265048e+001 6.831017e+001 -1.267322e+001 6.875014e+001 -1.638815e+001 -1.412374e+002
6795000000 -1.934533e+001 8.123421e+001 -1.261905e+001 2.224573e+001 -1.267094e+001 2.215058e+001 -1.955806e+001 -1.582868e+002
6890000000 -2.173432e+001 3.547137e+001 -1.260160e+001 -2.377345e+001 -1.261859e+001 -2.442266e+001 -2.112451e+001 -1.347955e+002
6985000000 -2.556381e+001 -4.774337e+001 -1.252635e+001 -7.053398e+001 -1.254879e+001 -7.122814e+001 -1.688770e+001 -1.309764e+002
7080000000 -2.148867e+001 -1.303855e+002 -1.241053e+001 -1.189194e+002 -1.234961e+001 -1.192625e+002 -1.362878e+001 -1.453261e+002
7175000000 -1.743874e+001 -1.737479e+002 -1.255372e+001 -1.669124e+002 -1.249908e+001 -1.666765e+002 -1.270967e+001 -1.684795e+002
7270000000 -1.539171e+001 1.612912e+002 -1.267021e+001 1.465108e+002 -1.267557e+001 1.465966e+002 -1.234091e+001 1.737953e+002
7365000000 -1.458364e+001 1.409091e+002 -1.267864e+001 1.009486e+002 -1.279189e+001 1.009198e+002 -1.237514e+001 1.585894e+002
7460000000 -1.457345e+001 1.267614e+002 -1.274877e+001 5.522615e+001 -1.278892e+001 5.529978e+001 -1.242186e+001 1.485663e+002
7555000000 -1.429988e+001 1.203806e+002 -1.256108e+001 9.708553e+000 -1.251456e+001 9.301341e+000 -1.243582e+001 1.350494e+002
7650000000 -1.367688e+001 1.108151e+002 -1.239357e+001 -3.725930e+001 -1.234241e+001 -3.742464e+001 -1.215012e+001 1.280177e+002
7745000000 -1.327147e+001 9.799537e+001 -1.215427e+001 -8.591518e+001 -1.218860e+001 -8.564825e+001 -1.238454e+001 1.135877e+002
7840000000 -1.449121e+001 8.654873e+001 -1.214695e+001 -1.341397e+002 -1.219047e+001 -1.337396e+002 -1.238670e+001 1.084128e+002
7935000000 -1.601702e+001 8.785537e+001 -1.222089e+001 1.793691e+002 -1.222445e+001 1.789765e+002 -1.296124e+001 1.003663e+002
8030000000 -1.521999e+001 9.239703e+001 -1.219142e+001 1.317111e+002 -1.210357e+001 1.309766e+002 -1.220040e+001 9.641895e+001
8125000000 -1.393394e+001 8.311749e+001 -1.215650e+001 8.232298e+001 -1.207937e+001 8.209214e+001 -1.192996e+001 8.546803e+001
8220000000 -1.546334e+001 7.181143e+001 -1.228341e+001 3.200985e+001 -1.230459e+001 3.243913e+001 -1.200241e+001 7.713955e+001
8315000000 -1.697247e+001 8.431561e+001 -1.276609e+001 -1.639462e+001 -1.282891e+001 -1.580057e+001 -1.242135e+001 7.173580e+001
8410000000 -1.408500e+001 9.222974e+001 -1.337632e+001 -6.200187e+001 -1.325727e+001 -6.203935e+001 -1.173983e+001 6.618439e+001
8505000000 -1.190047e+001 7.801379e+001 -1.354949e+001 -1.069805e+002 -1.362161e+001 -1.068223e+002 -1.119587e+001 5.655738e+001
8600000000 -1.179233e+001 5.836386e+001 -1.336660e+001 -1.518210e+002 -1.343392e+001 -1.510487e+002 -9.936973e+000 4.020124e+001
8695000000 -1.397140e+001 4.856163e+001 -1.322973e+001 1.616028e+002 -1.321850e+001 1.613665e+002 -1.132102e+001 2.628659e+001
8790000000 -1.444927e+001 5.157256e+001 -1.311405e+001 1.128402e+002 -1.301827e+001 1.120444e+002 -1.149861e+001 1.313485e+001
8885000000 -1.288487e+001 4.391266e+001 -1.328465e+001 6.135856e+001 -1.321774e+001 6.164116e+001 -1.170427e+001 7.369351e+000
8980000000 -1.441012e+001 2.139048e+001 -1.399479e+001 1.153775e+001 -1.403234e+001 1.197505e+001 -1.072442e+001 -1.001969e+001
9075000000 -1.922964e+001 -1.357566e+000 -1.466788e+001 -3.265322e+001 -1.478733e+001 -3.217258e+001 -1.197855e+001 -3.279012e+001
9170000000 -2.335462e+001 7.719878e+001 -1.465192e+001 -7.425084e+001 -1.475112e+001 -7.431332e+001 -1.435279e+001 -5.437263e+001
9265000000 -1.608469e+001 6.086071e+001 -1.403948e+001 -1.219925e+002 -1.401611e+001 -1.227779e+002 -1.787337e+001 -3.969004e+001
9360000000 -1.677050e+001 2.395721e+001 -1.428125e+001 -1.757974e+002 -1.424992e+001 -1.760447e+002 -1.420003e+001 -4.813180e+001
9455000000 -2.926222e+001 7.490721e+000 -1.512941e+001 1.340410e+002 -1.516197e+001 1.334750e+002 -1.381892e+001 -7.560605e+001
9550000000 -2.027167e+001 1.163290e+002 -1.607822e+001 8.791233e+001 -1.626201e+001 8.703513e+001 -1.435284e+001 -1.090603e+002
9645000000 -1.470051e+001 8.404889e+001 -1.647084e+001 4.659327e+001 -1.641556e+001 4.629447e+001 -1.948690e+001 -1.267583e+002
9740000000 -1.530177e+001 5.377660e+001 -1.636269e+001 -1.511381e+000 -1.616860e+001 -2.111440e+000 -2.057027e+001 -9.919414e+001
9835000000 -2.378674e+001 5.161319e+001 -1.692017e+001 -5.593919e+001 -1.676468e+001 -5.559831e+001 -1.521178e+001 -1.050304e+002
9930000000 -1.733816e+001 1.166609e+002 -1.818575e+001 -1.022507e+002 -1.831731e+001 -1.020404e+002 -1.282974e+001 -1.408153e+002
10025000000 -1.228656e+001 1.021674e+002 -1.888572e+001 -1.436109e+002 -1.905534e+001 -1.428969e+002 -1.352770e+001 -1.622666e+002
10120000000 -1.081707e+001 8.679183e+001 -1.870020e+001 1.718156e+002 -1.873608e+001 1.702694e+002 -1.403700e+001 1.713331e+002
10215000000 -9.639983e+000 8.317876e+001 -1.954442e+001 1.218362e+002 -1.951212e+001 1.191692e+002 -1.660766e+001 1.679643e+002
10310000000 -7.220147e+000 7.470407e+001 -2.169836e+001 7.145615e+001 -2.145675e+001 7.101654e+001 -1.646960e+001 1.527014e+002
10405000000 -5.908513e+000 5.695328e+001 -2.334727e+001 3.415266e+001 -2.318265e+001 3.661117e+001 -1.820575e+001 1.400640e+002
10500000000 -5.658405e+000 4.329385e+001 -2.265217e+001 -2.045654e+000 -2.271141e+001 -7.369902e-001 -2.146894e+001 1.277095e+002
10595000000 -5.099184e+000 3.523129e+001 -2.118722e+001 -4.872160e+001 -2.200219e+001 -5.438326e+001 -2.440141e+001 -1.736209e+002
10690000000 -3.848642e+000 2.364356e+001 -2.579544e+001 -1.135624e+002 -2.513008e+001 -1.078208e+002 -2.010516e+001 -1.648235e+002
10785000000 -2.977989e+000 3.502720e+000 -2.869787e+001 -1.375792e+002 -3.098460e+001 -1.370431e+002 -1.508479e+001 -1.739211e+002
10880000000 -3.242805e+000 -2.103775e+001 -3.028479e+001 -1.168496e+002 -2.987035e+001 -1.279573e+002 -1.449252e+001 1.614943e+002
10975000000 -4.820876e+000 -4.082336e+001 -2.422980e+001 -1.680892e+002 -2.449228e+001 -1.600212e+002 -1.506226e+001 1.516389e+002
11070000000 -6.293565e+000 -5.634446e+001 -2.020840e+001 1.471082e+002 -2.082289e+001 1.434543e+002 -1.573173e+001 1.704598e+002
11165000000 -8.269876e+000 -7.823242e+001 -2.016489e+001 8.034814e+001 -2.012615e+001 8.492525e+001 -1.122089e+001 1.591558e+002
11260000000 -1.294969e+001 -1.052641e+002 -1.959309e+001 3.453505e+001 -2.048365e+001 3.467525e+001 -1.027692e+001 1.325260e+002
11355000000 -2.224516e+001 -1.126157e+002 -2.160359e+001 -8.405849e+000 -2.106044e+001 -8.163823e+000 -1.074660e+001 1.176755e+002
11450000000 -2.836905e+001 -5.156747e+001 -1.993283e+001 -4.431642e+001 -1.968654e+001 -5.157281e+001 -1.203126e+001 1.153129e+002
11545000000 -3.245450e+001 7.011926e+000 -1.848362e+001 -1.024069e+002 -1.898836e+001 -1.032276e+002 -1.140000e+001 1.005201e+002
11640000000 -2.070841e+001 4.273786e+001 -1.787886e+001 -1.524268e+002 -1.864413e+001 -1.517643e+002 -1.107017e+001 9.618734e+001
11735000000 -1.528895e+001 2.591731e+001 -1.812732e+001 1.574796e+002 -1.873255e+001 1.559955e+002 -1.137320e+001 8.101136e+001
11830000000 -1.420827e+001 7.923025e+000 -1.824623e+001 1.112192e+002 -1.869942e+001 1.081154e+002 -1.122507e+001 7.825983e+001
11925000000 -1.385239e+001 -1.346822e+000 -1.999794e+001 6.723840e+001 -1.982759e+001 5.966583e+001 -1.333058e+001 7.002436e+001
12020000000 -1.374886e+001 -9.392816e+000 -2.043463e+001 1.673892e+001 -1.981554e+001 1.885223e+001 -1.084165e+001 5.881224e+001
12115000000 -1.419105e+001 -1.796845e+001 -1.875995e+001 -2.780376e+001 -1.942150e+001 -2.420491e+001 -1.210847e+001 3.787901e+001
12210000000 -1.578674e+001 -1.828096e+001 -1.847578e+001 -6.901469e+001 -1.894778e+001 -7.350599e+001 -1.210146e+001 4.713405e+001
12305000000 -1.651421e+001 2.097264e+000 -1.986978e+001 -1.148673e+002 -1.885857e+001 -1.222442e+002 -1.245474e+001 3.508062e+001
12400000000 -1.335064e+001 9.358216e+000 -1.932529e+001 -1.714185e+002 -1.913715e+001 -1.735736e+002 -9.827735e+000 3.574723e+001
12495000000 -1.054659e+001 -2.739768e+000 -1.844009e+001 1.373628e+002 -1.958712e+001 1.401094e+002 -9.777426e+000 1.642441e+001
12590000000 -1.004117e+001 -1.868679e+001 -1.862718e+001 9.382745e+001 -2.012559e+001 9.056989e+001 -9.553361e+000 1.776522e+000
12685000000 -1.073353e+001 -2.632632e+001 -2.068041e+001 5.189771e+001 -2.186858e+001 4.548475e+001 -1.099900e+001 -4.954321e+000
12780000000 -1.045737e+001 -2.499344e+001 -2.152143e+001 1.342110e+001 -2.225833e+001 5.331065e+000 -9.740523e+000 -6.666979e+000
12875000000 -8.689121e+000 -3.208006e+001 -2.012300e+001 -2.620105e+001 -2.167849e+001 -3.207085e+001 -8.678310e+000 -1.182313e+001
12970000000 -7.886096e+000 -4.422592e+001 -2.017857e+001 -7.197926e+001 -2.179733e+001 -7.855296e+001 -8.664567e+000 -2.260847e+001
13065000000 -8.354804e+000 -6.116467e+001 -1.997183e+001 -1.269681e+002 -2.107690e+001 -1.305724e+002 -9.959196e+000 -4.425246e+001
13160000000 -9.374785e+000 -6.665532e+001 -2.171184e+001 -1.734576e+002 -2.241843e+001 1.778472e+002 -8.969801e+000 -4.479940e+001
13255000000 -9.518961e+000 -7.107513e+001 -2.389983e+001 1.537208e+002 -2.463417e+001 1.444469e+002 -9.252649e+000 -4.204009e+001
13350000000 -8.603750e+000 -7.982218e+001 -2.277851e+001 1.247165e+002 -2.382692e+001 1.223264e+002 -8.947273e+000 -5.803838e+001
13445000000 -8.222718e+000 -9.512537e+001 -2.051747e+001 7.976619e+001 -2.162402e+001 7.467547e+001 -7.836905e+000 -7.288309e+001
13540000000 -9.171164e+000 -1.150835e+002 -1.980356e+001 2.360204e+001 -2.049253e+001 2.319023e+001 -7.833268e+000 -7.922485e+001
13635000000 -1.106370e+001 -1.283853e+002 -1.960183e+001 -2.358652e+001 -2.113939e+001 -2.378285e+001 -9.026246e+000 -8.691374e+001
13730000000 -1.399638e+001 -1.332217e+002 -2.033654e+001 -6.806161e+001 -2.109911e+001 -6.843896e+001 -8.530633e+000 -9.835420e+001
13825000000 -1.613273e+001 -1.319528e+002 -1.890551e+001 -1.148152e+002 -1.978641e+001 -1.088118e+002 -1.018638e+001 -1.041111e+002
13920000000 -1.561130e+001 -1.302839e+002 -1.788918e+001 -1.617068e+002 -1.879422e+001 -1.562228e+002 -1.072236e+001 -1.208730e+002
14015000000 -1.690829e+001 -1.409197e+002 -1.714884e+001 1.478786e+002 -1.785224e+001 1.484941e+002 -1.065540e+001 -1.311474e+002
14110000000 -1.888877e+001 -1.425052e+002 -1.662918e+001 9.423151e+001 -1.740407e+001 9.439799e+001 -1.116815e+001 -1.233898e+002
14205000000 -1.707075e+001 -1.284322e+002 -1.658300e+001 4.237482e+001 -1.758160e+001 4.155237e+001 -1.434230e+001 -1.302368e+002
14300000000 -1.509088e+001 -1.460368e+002 -1.675076e+001 -9.388900e+000 -1.779903e+001 -6.572629e+000 -1.418382e+001 -1.634340e+002
14395000000 -1.524730e+001 -1.749943e+002 -1.757079e+001 -6.541689e+001 -1.834321e+001 -6.114726e+001 -1.394506e+001 -1.729351e+002
14490000000 -1.696602e+001 1.706362e+002 -1.893047e+001 -1.201859e+002 -1.986189e+001 -1.139514e+002 -1.756499e+001 -1.763705e+002
14585000000 -1.659871e+001 1.544478e+002 -2.050246e+001 -1.677962e+002 -2.237999e+001 -1.629790e+002 -2.670163e+001 1.587593e+002
14680000000 -1.581448e+001 1.257734e+002 -2.277918e+001 1.521070e+002 -2.335208e+001 1.592715e+002 -2.320134e+001 8.139317e+001
14775000000 -1.670797e+001 8.277848e+001 -2.246728e+001 1.103274e+002 -2.400371e+001 1.157847e+002 -2.303938e+001 3.517140e+001
14870000000 -2.064820e+001 3.650491e+001 -2.535886e+001 7.548217e+001 -2.682958e+001 8.633550e+001 -1.781823e+001 -6.808609e+000
14965000000 -3.266670e+001 6.171023e+000 -2.441428e+001 5.235989e+001 -2.422316e+001 6.481122e+001 -1.763752e+001 -4.900409e+001
15060000000 -2.697640e+001 1.079800e+002 -2.258086e+001 8.803043e+000 -2.223954e+001 1.723674e+001 -1.773655e+001 -6.950822e+001
15155000000 -2.186716e+001 6.923480e+001 -2.124954e+001 -3.772095e+001 -2.109324e+001 -3.312750e+001 -1.542660e+001 -6.510544e+001
15250000000 -2.347769e+001 3.687485e+001 -2.133718e+001 -8.712161e+001 -2.177369e+001 -8.398338e+001 -1.726740e+001 -7.451842e+001
