!Agilent Technologies,N5230A,MY45001629,A.07.50.67
!Agilent N5230A: A.07.50.67
!Date: Monday, June 05, 2017 16:31:36
!Correction: S11(Full 2 Port(1,2)) 
!S21(Full 2 Port(1,2)) 
!S12(Full 2 Port(1,2)) 
!S22(Full 2 Port(1,2)) 
!S2P File: Measurements: S11, S21, S12, S22:
# Hz S  dB   R 50
1000000000 -2.172334e-001 5.256380e+001 -5.276576e+001 -1.892735e+001 -5.124577e+001 -1.518655e+001 -8.668907e-001 4.353593e+001
1095000000 -2.438434e-001 3.635562e+001 -4.412624e+001 -5.901163e+001 -4.337762e+001 -5.450230e+001 -1.098581e+000 2.649070e+001
1190000000 -3.936653e-001 1.801685e+001 -3.424548e+001 -1.057271e+002 -3.407082e+001 -1.063931e+002 -1.549749e+000 7.991357e+000
1285000000 -9.432831e-001 -2.248659e+000 -2.620107e+001 -1.785152e+002 -2.609100e+001 -1.787576e+002 -2.346274e+000 -9.754915e+000
1380000000 -1.459850e+000 -2.442233e+001 -2.105226e+001 1.042600e+002 -2.102405e+001 1.041107e+002 -2.559484e+000 -2.929391e+001
1475000000 -3.008544e+000 -5.653373e+001 -1.523903e+001 3.304352e+001 -1.519101e+001 3.293402e+001 -3.452798e+000 -6.156816e+001
1570000000 -9.012991e+000 -9.739542e+001 -1.069832e+001 -5.317080e+001 -1.069827e+001 -5.317000e+001 -8.722718e+000 -1.026569e+002
1665000000 -2.101625e+001 -3.769642e+001 -9.310589e+000 -1.429182e+002 -9.289623e+000 -1.428176e+002 -1.960969e+001 -7.999702e+001
1760000000 -1.253670e+001 -3.646920e+000 -1.008342e+001 1.396483e+002 -1.008227e+001 1.398002e+002 -1.699759e+001 -1.838732e+001
1855000000 -8.236336e+000 -3.003465e+001 -1.088233e+001 8.018528e+001 -1.087002e+001 8.004595e+001 -1.117725e+001 -3.322000e+001
1950000000 -7.943753e+000 -6.010962e+001 -1.035376e+001 2.384686e+001 -1.030850e+001 2.380462e+001 -9.668911e+000 -5.932353e+001
2045000000 -1.048381e+001 -7.741724e+001 -9.321168e+000 -3.655357e+001 -9.334305e+000 -3.669574e+001 -1.131522e+001 -8.019005e+001
2140000000 -1.152280e+001 -7.566720e+001 -8.721040e+000 -9.691364e+001 -8.726733e+000 -9.720231e+001 -1.233432e+001 -7.360487e+001
2235000000 -9.766500e+000 -8.438501e+001 -8.698733e+000 -1.581966e+002 -8.704877e+000 -1.582821e+002 -1.029539e+001 -8.360045e+001
2330000000 -9.856413e+000 -1.074319e+002 -8.974630e+000 1.469402e+002 -8.983463e+000 1.468997e+002 -9.636871e+000 -1.059279e+002
2425000000 -1.193784e+001 -1.233153e+002 -8.723899e+000 9.125504e+001 -8.710041e+000 9.138725e+001 -1.103818e+001 -1.202282e+002
2520000000 -1.364677e+001 -1.318228e+002 -8.687847e+000 3.684019e+001 -8.664131e+000 3.688351e+001 -1.277830e+001 -1.327603e+002
2615000000 -1.600600e+001 -1.450287e+002 -8.608823e+000 -1.787976e+001 -8.566768e+000 -1.794882e+001 -1.407051e+001 -1.432331e+002
2710000000 -2.242503e+001 -1.255552e+002 -8.867892e+000 -7.225453e+001 -8.834960e+000 -7.241976e+001 -1.904040e+001 -1.306005e+002
2805000000 -1.693060e+001 -8.465515e+001 -9.015367e+000 -1.245084e+002 -9.029342e+000 -1.246679e+002 -1.633553e+001 -1.052295e+002
2900000000 -1.245099e+001 -1.049146e+002 -9.419377e+000 -1.740940e+002 -9.381660e+000 -1.743598e+002 -1.169887e+001 -1.142416e+002
2995000000 -1.167642e+001 -1.285503e+002 -9.113648e+000 1.377096e+002 -9.120593e+000 1.377559e+002 -1.091816e+001 -1.364354e+002
3090000000 -1.371186e+001 -1.430126e+002 -8.647935e+000 8.696027e+001 -8.659881e+000 8.717529e+001 -1.253328e+001 -1.538218e+002
3185000000 -1.536545e+001 -1.263439e+002 -8.361675e+000 3.437804e+001 -8.349836e+000 3.412470e+001 -1.530436e+001 -1.366113e+002
3280000000 -1.121684e+001 -1.209672e+002 -8.466323e+000 -1.893330e+001 -8.406248e+000 -1.903331e+001 -1.079758e+001 -1.313005e+002
3375000000 -8.748410e+000 -1.427185e+002 -8.777635e+000 -6.990598e+001 -8.796399e+000 -6.998838e+001 -8.487398e+000 -1.483141e+002
3470000000 -8.509141e+000 -1.629785e+002 -8.919591e+000 -1.176364e+002 -8.917002e+000 -1.177769e+002 -8.168259e+000 -1.699429e+002
3565000000 -9.046540e+000 -1.780577e+002 -8.870666e+000 -1.669076e+002 -8.851190e+000 -1.670411e+002 -8.527117e+000 1.755597e+002
3660000000 -9.863477e+000 1.700100e+002 -8.578356e+000 1.448645e+002 -8.587487e+000 1.448657e+002 -9.380297e+000 1.648880e+002
3755000000 -1.046630e+001 1.598833e+002 -8.240142e+000 9.471069e+001 -8.254408e+000 9.455440e+001 -9.781917e+000 1.519117e+002
3850000000 -1.208856e+001 1.511936e+002 -7.999953e+000 4.337839e+001 -7.989003e+000 4.305006e+001 -1.171145e+001 1.382801e+002
3945000000 -1.384021e+001 1.530843e+002 -7.837969e+000 -9.288559e+000 -7.839720e+000 -9.475762e+000 -1.435055e+001 1.398742e+002
4040000000 -1.314532e+001 1.562809e+002 -8.061240e+000 -6.116012e+001 -8.053762e+000 -6.145379e+001 -1.329600e+001 1.469192e+002
4135000000 -1.386182e+001 1.482632e+002 -8.215933e+000 -1.138621e+002 -8.207963e+000 -1.142241e+002 -1.378917e+001 1.308187e+002
4230000000 -1.535569e+001 1.625369e+002 -9.049834e+000 -1.682152e+002 -9.051314e+000 -1.683065e+002 -1.830387e+001 1.362602e+002
4325000000 -1.177984e+001 1.662900e+002 -1.037091e+001 1.439734e+002 -1.040853e+001 1.436887e+002 -1.467036e+001 1.605645e+002
4420000000 -1.016010e+001 1.527037e+002 -1.123978e+001 1.015367e+002 -1.129538e+001 1.011557e+002 -1.223758e+001 1.470164e+002
4515000000 -9.533497e+000 1.419445e+002 -1.128349e+001 5.933340e+001 -1.129167e+001 5.925838e+001 -1.128214e+001 1.356460e+002
4610000000 -8.476497e+000 1.300741e+002 -1.087389e+001 1.363405e+001 -1.090419e+001 1.375538e+001 -1.061127e+001 1.200617e+002
4705000000 -8.175026e+000 1.119089e+002 -1.063953e+001 -3.412828e+001 -1.068513e+001 -3.448113e+001 -9.806520e+000 9.994146e+001
4800000000 -9.078674e+000 9.110439e+001 -1.053393e+001 -8.277229e+001 -1.052069e+001 -8.297063e+001 -1.075287e+001 7.746709e+001
4895000000 -1.150091e+001 7.730134e+001 -1.040146e+001 -1.328521e+002 -1.043396e+001 -1.328733e+002 -1.221284e+001 5.475313e+001
4990000000 -1.407383e+001 7.340849e+001 -1.075882e+001 1.768160e+002 -1.079207e+001 1.767936e+002 -1.479622e+001 3.443611e+001
5085000000 -1.589748e+001 7.443603e+001 -1.127032e+001 1.280988e+002 -1.130101e+001 1.280145e+002 -1.844078e+001 1.741924e+001
5180000000 -1.725574e+001 8.459404e+001 -1.191499e+001 8.201649e+001 -1.196267e+001 8.208405e+001 -2.641034e+001 1.116040e+001
5275000000 -1.599262e+001 9.757677e+001 -1.214981e+001 3.687033e+001 -1.207487e+001 3.680701e+001 -2.577666e+001 7.310839e+001
5370000000 -1.362656e+001 8.679460e+001 -1.243643e+001 -9.117515e+000 -1.243659e+001 -8.951016e+000 -1.883375e+001 5.694023e+001
5465000000 -1.344870e+001 6.754102e+001 -1.253283e+001 -5.258922e+001 -1.253127e+001 -5.267976e+001 -1.736812e+001 2.136307e+001
5560000000 -1.566941e+001 5.007133e+001 -1.224997e+001 -9.828499e+001 -1.224161e+001 -9.817126e+001 -1.971950e+001 -1.624426e+001
5655000000 -1.891200e+001 6.072718e+001 -1.184637e+001 -1.473171e+002 -1.184838e+001 -1.473384e+002 -2.737934e+001 -3.885093e+001
5750000000 -1.539968e+001 6.865700e+001 -1.208555e+001 1.613808e+002 -1.210691e+001 1.611726e+002 -2.413759e+001 3.027511e+001
5845000000 -1.369359e+001 4.121152e+001 -1.314998e+001 1.115547e+002 -1.317471e+001 1.112570e+002 -1.807966e+001 -2.305560e+000
5940000000 -1.465273e+001 6.465610e+000 -1.416209e+001 6.831113e+001 -1.413719e+001 6.873485e+001 -1.567165e+001 -3.615298e+001
6035000000 -1.763457e+001 -2.941793e+001 -1.468300e+001 2.781468e+001 -1.470043e+001 2.779720e+001 -1.441854e+001 -7.030602e+001
6130000000 -1.996123e+001 -8.496783e+001 -1.446246e+001 -1.032240e+001 -1.443181e+001 -1.045413e+001 -1.474257e+001 -1.106633e+002
6225000000 -1.983663e+001 -1.682418e+002 -1.383385e+001 -5.367628e+001 -1.374515e+001 -5.351895e+001 -1.745988e+001 -1.464547e+002
6320000000 -1.834987e+001 1.198139e+002 -1.279460e+001 -9.966029e+001 -1.283892e+001 -9.987000e+001 -2.796806e+001 1.697797e+002
6415000000 -2.092347e+001 6.159304e+001 -1.241344e+001 -1.494656e+002 -1.242718e+001 -1.497415e+002 -2.796637e+001 -4.612440e+001
6510000000 -3.461130e+001 -1.295551e+001 -1.270331e+001 1.613632e+002 -1.267284e+001 1.613366e+002 -1.810068e+001 -7.933523e+001
6605000000 -2.517361e+001 1.602151e+002 -1.279819e+001 1.153758e+002 -1.270727e+001 1.150015e+002 -1.610231e+001 -1.108751e+002
6700000000 -2.005436e+001 1.220061e+002 -1.262932e+001 6.817534e+001 -1.263831e+001 6.848148e+001 -1.636535e+001 -1.402856e+002
6795000000 -1.921470e+001 8.162965e+001 -1.258504e+001 2.147247e+001 -1.263586e+001 2.169773e+001 -1.936013e+001 -1.552165e+002
6890000000 -2.161046e+001 3.530590e+001 -1.253213e+001 -2.477821e+001 -1.257281e+001 -2.478346e+001 -2.121106e+001 -1.345135e+002
6985000000 -2.528562e+001 -4.748446e+001 -1.243935e+001 -7.086430e+001 -1.247510e+001 -7.125404e+001 -1.663637e+001 -1.323293e+002
7080000000 -2.118208e+001 -1.295716e+002 -1.233591e+001 -1.188401e+002 -1.231200e+001 -1.196252e+002 -1.369266e+001 -1.463642e+002
7175000000 -1.730284e+001 -1.738285e+002 -1.250140e+001 -1.670949e+002 -1.245203e+001 -1.672871e+002 -1.282652e+001 -1.698729e+002
7270000000 -1.531363e+001 1.605929e+002 -1.273864e+001 1.458536e+002 -1.268254e+001 1.461521e+002 -1.239789e+001 1.736691e+002
7365000000 -1.467080e+001 1.400879e+002 -1.276103e+001 9.991815e+001 -1.282755e+001 9.989520e+001 -1.269880e+001 1.574529e+002
7460000000 -1.470417e+001 1.270234e+002 -1.271774e+001 5.429884e+001 -1.285114e+001 5.431688e+001 -1.245929e+001 1.493058e+002
7555000000 -1.434705e+001 1.211208e+002 -1.262264e+001 9.074519e+000 -1.265096e+001 8.922630e+000 -1.259148e+001 1.372932e+002
7650000000 -1.361937e+001 1.106032e+002 -1.251044e+001 -3.686491e+001 -1.242450e+001 -3.715320e+001 -1.179008e+001 1.281811e+002
7745000000 -1.332373e+001 9.796243e+001 -1.225704e+001 -8.506219e+001 -1.220575e+001 -8.541545e+001 -1.218409e+001 1.133552e+002
7840000000 -1.453760e+001 8.633731e+001 -1.213588e+001 -1.340696e+002 -1.213977e+001 -1.333227e+002 -1.272335e+001 1.057513e+002
7935000000 -1.601272e+001 8.830402e+001 -1.208450e+001 1.785396e+002 -1.213898e+001 1.784227e+002 -1.316912e+001 1.030951e+002
8030000000 -1.524611e+001 9.247113e+001 -1.211408e+001 1.306257e+002 -1.211597e+001 1.303377e+002 -1.241464e+001 9.766122e+001
8125000000 -1.399189e+001 8.343315e+001 -1.220151e+001 8.247099e+001 -1.216315e+001 8.180290e+001 -1.168132e+001 8.526088e+001
8220000000 -1.533176e+001 7.209838e+001 -1.243769e+001 3.250578e+001 -1.237311e+001 3.238668e+001 -1.217148e+001 7.806864e+001
8315000000 -1.695986e+001 8.321380e+001 -1.285705e+001 -1.626055e+001 -1.286536e+001 -1.536374e+001 -1.256923e+001 7.103764e+001
8410000000 -1.421047e+001 9.219869e+001 -1.334401e+001 -6.198592e+001 -1.323766e+001 -6.210067e+001 -1.175742e+001 6.581307e+001
8505000000 -1.198956e+001 7.835881e+001 -1.364571e+001 -1.068968e+002 -1.357509e+001 -1.070536e+002 -1.108208e+001 5.822372e+001
8600000000 -1.173960e+001 5.871588e+001 -1.345151e+001 -1.518137e+002 -1.347443e+001 -1.518631e+002 -9.982708e+000 4.023529e+001
8695000000 -1.391793e+001 4.859092e+001 -1.325076e+001 1.610006e+002 -1.333019e+001 1.613017e+002 -1.113105e+001 2.587144e+001
8790000000 -1.445119e+001 5.153733e+001 -1.302622e+001 1.125213e+002 -1.307094e+001 1.123073e+002 -1.162934e+001 1.366936e+001
8885000000 -1.285940e+001 4.364436e+001 -1.329512e+001 6.181860e+001 -1.325072e+001 6.111014e+001 -1.156687e+001 6.532611e+000
8980000000 -1.437323e+001 2.085697e+001 -1.410315e+001 1.157191e+001 -1.404945e+001 1.185081e+001 -1.063176e+001 -9.119896e+000
9075000000 -1.925610e+001 -1.625112e+000 -1.475385e+001 -3.273869e+001 -1.481860e+001 -3.237591e+001 -1.208695e+001 -3.399914e+001
9170000000 -2.335575e+001 7.784595e+001 -1.467001e+001 -7.517535e+001 -1.477140e+001 -7.458025e+001 -1.423790e+001 -5.484443e+001
9265000000 -1.604173e+001 6.099250e+001 -1.398269e+001 -1.228232e+002 -1.408332e+001 -1.227730e+002 -1.794967e+001 -3.936184e+001
9360000000 -1.681514e+001 2.332256e+001 -1.430952e+001 -1.752432e+002 -1.424747e+001 -1.763967e+002 -1.408322e+001 -4.952913e+001
9455000000 -2.916853e+001 5.361553e+000 -1.529268e+001 1.332218e+002 -1.520726e+001 1.331314e+002 -1.382227e+001 -7.367960e+001
9550000000 -2.017094e+001 1.163211e+002 -1.612078e+001 8.726947e+001 -1.623407e+001 8.708610e+001 -1.418591e+001 -1.091110e+002
9645000000 -1.467494e+001 8.420852e+001 -1.636102e+001 4.630614e+001 -1.648400e+001 4.622696e+001 -1.925986e+001 -1.274110e+002
9740000000 -1.529219e+001 5.331101e+001 -1.619372e+001 -1.822783e+000 -1.616863e+001 -2.453703e+000 -2.056131e+001 -1.009560e+002
9835000000 -2.363023e+001 5.061630e+001 -1.694750e+001 -5.496058e+001 -1.678651e+001 -5.617154e+001 -1.497388e+001 -1.047370e+002
9930000000 -1.738737e+001 1.160400e+002 -1.848419e+001 -1.018954e+002 -1.832330e+001 -1.020652e+002 -1.308886e+001 -1.414463e+002
10025000000 -1.227720e+001 1.021788e+002 -1.912239e+001 -1.438130e+002 -1.907314e+001 -1.426295e+002 -1.321321e+001 -1.633545e+002
10120000000 -1.081536e+001 8.679626e+001 -1.859391e+001 1.698435e+002 -1.883633e+001 1.707394e+002 -1.436675e+001 1.721723e+002
10215000000 -9.608880e+000 8.311224e+001 -1.936964e+001 1.197068e+002 -1.950139e+001 1.193876e+002 -1.638313e+001 1.667386e+002
10310000000 -7.166954e+000 7.462083e+001 -2.164015e+001 7.211993e+001 -2.159199e+001 7.026820e+001 -1.604877e+001 1.556832e+002
10405000000 -5.902827e+000 5.697018e+001 -2.357786e+001 3.823509e+001 -2.329826e+001 3.623947e+001 -1.816769e+001 1.372016e+002
10500000000 -5.670135e+000 4.318867e+001 -2.303774e+001 -1.449525e+000 -2.270344e+001 7.287711e-001 -2.109620e+001 1.276365e+002
10595000000 -5.191243e+000 3.511974e+001 -2.284089e+001 -5.567199e+001 -2.206357e+001 -5.435460e+001 -2.445306e+001 1.723270e+002
10690000000 -3.853263e+000 2.353271e+001 -2.366286e+001 -1.068459e+002 -2.444404e+001 -1.101225e+002 -1.927746e+001 -1.562881e+002
10785000000 -2.951636e+000 3.161623e+000 -3.287669e+001 -1.419418e+002 -3.102643e+001 -1.380717e+002 -1.419025e+001 -1.729702e+002
10880000000 -3.251215e+000 -2.077529e+001 -2.919071e+001 -1.447253e+002 -2.937473e+001 -1.228329e+002 -1.429794e+001 1.581920e+002
10975000000 -4.851547e+000 -4.048259e+001 -2.339963e+001 -1.567076e+002 -2.403367e+001 -1.575610e+002 -1.642832e+001 1.518913e+002
11070000000 -6.405336e+000 -5.665613e+001 -2.130338e+001 1.414935e+002 -2.111225e+001 1.417098e+002 -1.478152e+001 1.684749e+002
11165000000 -8.323001e+000 -7.855443e+001 -1.911043e+001 8.776587e+001 -2.027848e+001 8.460739e+001 -1.153600e+001 1.551484e+002
11260000000 -1.282583e+001 -1.056394e+002 -2.080349e+001 3.493134e+001 -2.055560e+001 3.360925e+001 -1.057707e+001 1.382264e+002
11355000000 -2.213004e+001 -1.119100e+002 -2.008154e+001 -1.018201e+001 -2.098931e+001 -7.573256e+000 -1.001476e+001 1.159262e+002
11450000000 -2.877925e+001 -5.185093e+001 -1.989862e+001 -5.466670e+001 -1.959654e+001 -4.963454e+001 -1.101478e+001 1.132276e+002
11545000000 -3.146552e+001 1.113146e+001 -1.963834e+001 -9.964839e+001 -1.913019e+001 -1.004669e+002 -1.068355e+001 9.766734e+001
11640000000 -2.080705e+001 4.360318e+001 -1.892271e+001 -1.482923e+002 -1.869169e+001 -1.518197e+002 -1.054443e+001 1.007895e+002
11735000000 -1.534757e+001 2.612193e+001 -1.941558e+001 1.632215e+002 -1.819459e+001 1.599471e+002 -1.135021e+001 8.870827e+001
11830000000 -1.412197e+001 8.304756e+000 -1.984034e+001 1.102300e+002 -1.900770e+001 1.064034e+002 -1.172511e+001 7.342858e+001
11925000000 -1.385843e+001 -1.745592e+000 -1.976589e+001 5.912893e+001 -1.977291e+001 6.050240e+001 -1.173074e+001 6.709732e+001
12020000000 -1.391826e+001 -8.896814e+000 -1.890096e+001 1.924683e+001 -1.944847e+001 1.833350e+001 -1.164327e+001 5.692231e+001
12115000000 -1.421200e+001 -1.764459e+001 -1.924100e+001 -1.864596e+001 -1.923016e+001 -2.272141e+001 -1.096191e+001 3.853739e+001
12210000000 -1.581490e+001 -1.837957e+001 -1.986448e+001 -7.051109e+001 -1.907485e+001 -7.288975e+001 -1.306226e+001 5.031301e+001
12305000000 -1.655582e+001 1.389954e+000 -1.926498e+001 -1.267662e+002 -1.901004e+001 -1.231491e+002 -1.180384e+001 3.502415e+001
12400000000 -1.308627e+001 8.649134e+000 -1.794557e+001 -1.706807e+002 -1.896432e+001 -1.744879e+002 -1.002598e+001 3.792549e+001
12495000000 -1.060879e+001 -2.598960e+000 -1.908889e+001 1.428845e+002 -1.957523e+001 1.376970e+002 -9.578130e+000 1.724582e+001
12590000000 -1.001476e+001 -1.870610e+001 -1.945890e+001 8.923050e+001 -1.990292e+001 8.979654e+001 -8.821725e+000 2.823023e+000
12685000000 -1.069363e+001 -2.666141e+001 -2.117533e+001 4.513365e+001 -2.155169e+001 4.436610e+001 -1.155461e+001 3.113393e+000
12780000000 -1.053083e+001 -2.533512e+001 -2.153020e+001 2.915496e+000 -2.210671e+001 4.586175e+000 -1.077834e+001 -8.229218e+000
12875000000 -8.750587e+000 -3.175237e+001 -2.104551e+001 -3.847886e+001 -2.162389e+001 -3.368731e+001 -8.778588e+000 -1.870296e+001
12970000000 -7.905192e+000 -4.469584e+001 -2.115053e+001 -8.254396e+001 -2.081495e+001 -7.845765e+001 -7.557768e+000 -2.193859e+001
13065000000 -8.242959e+000 -6.136085e+001 -2.042554e+001 -1.366131e+002 -2.109896e+001 -1.309148e+002 -9.816792e+000 -3.642037e+001
13160000000 -9.470034e+000 -6.685702e+001 -2.217145e+001 1.675304e+002 -2.200421e+001 1.763093e+002 -9.587346e+000 -4.573011e+001
13255000000 -9.545163e+000 -7.126941e+001 -2.439675e+001 1.332500e+002 -2.502151e+001 1.400686e+002 -9.570127e+000 -4.730246e+001
13350000000 -8.583822e+000 -8.037914e+001 -2.340463e+001 1.044316e+002 -2.383448e+001 1.173167e+002 -8.275274e+000 -6.128655e+001
13445000000 -8.315032e+000 -9.502610e+001 -2.036251e+001 6.484073e+001 -2.206708e+001 7.178110e+001 -7.388902e+000 -7.087904e+001
13540000000 -9.054584e+000 -1.156883e+002 -1.997862e+001 1.448910e+001 -2.041150e+001 2.170503e+001 -7.935770e+000 -7.497653e+001
13635000000 -1.112901e+001 -1.286531e+002 -2.054442e+001 -3.828784e+001 -2.131649e+001 -2.511180e+001 -1.006914e+001 -8.464864e+001
13730000000 -1.387767e+001 -1.329490e+002 -2.100223e+001 -7.775418e+001 -2.098002e+001 -7.132682e+001 -8.856323e+000 -1.014310e+002
13825000000 -1.595040e+001 -1.342232e+002 -1.997294e+001 -1.162218e+002 -1.972086e+001 -1.115661e+002 -9.462884e+000 -1.091394e+002
13920000000 -1.571633e+001 -1.304726e+002 -1.873077e+001 -1.638674e+002 -1.873711e+001 -1.561085e+002 -9.781358e+000 -1.166752e+002
14015000000 -1.706314e+001 -1.397472e+002 -1.773644e+001 1.436434e+002 -1.785127e+001 1.497402e+002 -1.131891e+001 -1.279613e+002
14110000000 -1.900677e+001 -1.397150e+002 -1.735057e+001 9.275149e+001 -1.733884e+001 9.834937e+001 -1.222888e+001 -1.256509e+002
14205000000 -1.717692e+001 -1.290784e+002 -1.747878e+001 3.959618e+001 -1.744930e+001 4.426537e+001 -1.414360e+001 -1.382486e+002
14300000000 -1.526763e+001 -1.462430e+002 -1.835379e+001 -1.071129e+001 -1.767195e+001 -7.561038e+000 -1.380791e+001 -1.626319e+002
14395000000 -1.529374e+001 -1.729388e+002 -1.855420e+001 -6.781135e+001 -1.827398e+001 -6.101181e+001 -1.385924e+001 -1.691676e+002
14490000000 -1.683394e+001 1.706078e+002 -2.079142e+001 -1.195776e+002 -1.972606e+001 -1.151298e+002 -1.791407e+001 -1.732279e+002
14585000000 -1.667968e+001 1.532467e+002 -2.270917e+001 -1.622095e+002 -2.152401e+001 -1.605318e+002 -2.682168e+001 1.400484e+002
14680000000 -1.593763e+001 1.279650e+002 -2.542439e+001 1.579605e+002 -2.432484e+001 1.549504e+002 -2.411583e+001 8.521633e+001
14775000000 -1.670585e+001 8.282498e+001 -2.554803e+001 1.277181e+002 -2.463039e+001 1.225213e+002 -2.263669e+001 3.063506e+001
14870000000 -2.061744e+001 3.811769e+001 -2.708846e+001 1.041878e+002 -2.614090e+001 8.956223e+001 -1.719550e+001 -9.776133e+000
14965000000 -3.186194e+001 1.233920e+001 -2.550042e+001 7.789502e+001 -2.470110e+001 6.147516e+001 -1.808136e+001 -4.887100e+001
15060000000 -2.791014e+001 1.052009e+002 -2.348541e+001 2.711540e+001 -2.210547e+001 1.834647e+001 -1.776025e+001 -7.235156e+001
15155000000 -2.211013e+001 6.752242e+001 -2.221789e+001 -2.379305e+001 -2.123230e+001 -3.264323e+001 -1.466804e+001 -6.866014e+001
15250000000 -2.349356e+001 3.702407e+001 -2.241170e+001 -7.788479e+001 -2.097928e+001 -8.413623e+001 -1.773117e+001 -6.886857e+001
