!Agilent Technologies,N5230A,MY45001629,A.07.50.67
!Agilent N5230A: A.07.50.67
!Date: Monday, June 05, 2017 16:33:31
!Correction: S11(Full 2 Port(1,2)) 
!S21(Full 2 Port(1,2)) 
!S12(Full 2 Port(1,2)) 
!S22(Full 2 Port(1,2)) 
!S2P File: Measurements: S11, S21, S12, S22:
# Hz S  dB   R 50
1000000000 -2.206324e-001 5.256134e+001 -5.279494e+001 -1.798400e+001 -5.130401e+001 -1.298609e+001 -8.705441e-001 4.359617e+001
1095000000 -2.452895e-001 3.635868e+001 -4.351307e+001 -4.995776e+001 -4.323812e+001 -5.581471e+001 -1.106265e+000 2.645206e+001
1190000000 -3.951699e-001 1.797180e+001 -3.405560e+001 -1.055328e+002 -3.400794e+001 -1.067298e+002 -1.565694e+000 7.912994e+000
1285000000 -9.554594e-001 -2.204540e+000 -2.595031e+001 1.798714e+002 -2.601038e+001 1.792945e+002 -2.355571e+000 -9.784373e+000
1380000000 -1.437126e+000 -2.433677e+001 -2.099012e+001 1.028439e+002 -2.098791e+001 1.026866e+002 -2.539443e+000 -2.924538e+001
1475000000 -2.963233e+000 -5.658685e+001 -1.516682e+001 3.190506e+001 -1.516524e+001 3.170172e+001 -3.409894e+000 -6.156070e+001
1570000000 -8.880644e+000 -9.794727e+001 -1.063774e+001 -5.434445e+001 -1.063850e+001 -5.422174e+001 -8.557275e+000 -1.025716e+002
1665000000 -2.177793e+001 -3.832011e+001 -9.187712e+000 -1.442663e+002 -9.196730e+000 -1.442108e+002 -1.977682e+001 -8.279414e+001
1760000000 -1.250187e+001 -1.634580e+000 -9.984452e+000 1.383594e+002 -9.998439e+000 1.384821e+002 -1.679116e+001 -1.697759e+001
1855000000 -8.105341e+000 -2.946939e+001 -1.085826e+001 7.858076e+001 -1.083731e+001 7.854197e+001 -1.099652e+001 -3.289270e+001
1950000000 -7.819890e+000 -5.984322e+001 -1.032112e+001 2.265396e+001 -1.029229e+001 2.265634e+001 -9.525785e+000 -5.951263e+001
2045000000 -1.030153e+001 -7.768898e+001 -9.233328e+000 -3.791185e+001 -9.225641e+000 -3.794922e+001 -1.128964e+001 -8.030328e+001
2140000000 -1.135138e+001 -7.724770e+001 -8.660254e+000 -9.835023e+001 -8.639302e+000 -9.858871e+001 -1.221281e+001 -7.436724e+001
2235000000 -9.825742e+000 -8.642136e+001 -8.567322e+000 -1.596357e+002 -8.577888e+000 -1.597451e+002 -1.051542e+001 -8.463331e+001
2330000000 -1.014921e+001 -1.091047e+002 -8.817364e+000 1.452726e+002 -8.827752e+000 1.452000e+002 -9.913049e+000 -1.051305e+002
2425000000 -1.249360e+001 -1.229323e+002 -8.561250e+000 8.909258e+001 -8.570964e+000 8.928474e+001 -1.124917e+001 -1.182037e+002
2520000000 -1.400434e+001 -1.279135e+002 -8.557220e+000 3.410962e+001 -8.549129e+000 3.423717e+001 -1.261258e+001 -1.286378e+002
2615000000 -1.589366e+001 -1.385275e+002 -8.504889e+000 -2.045663e+001 -8.474634e+000 -2.048110e+001 -1.365560e+001 -1.422343e+002
2710000000 -2.058687e+001 -1.224061e+002 -8.765042e+000 -7.484719e+001 -8.714987e+000 -7.493600e+001 -1.822426e+001 -1.353335e+002
2805000000 -1.647257e+001 -9.213519e+001 -8.891817e+000 -1.271772e+002 -8.874461e+000 -1.273365e+002 -1.653902e+001 -1.096113e+002
2900000000 -1.264408e+001 -1.106221e+002 -9.218737e+000 -1.773207e+002 -9.190113e+000 -1.774860e+002 -1.201964e+001 -1.156434e+002
2995000000 -1.240956e+001 -1.336744e+002 -8.914845e+000 1.339206e+002 -8.924957e+000 1.338819e+002 -1.146503e+001 -1.368815e+002
3090000000 -1.542069e+001 -1.424705e+002 -8.454967e+000 8.196645e+001 -8.460110e+000 8.208974e+001 -1.334679e+001 -1.487711e+002
3185000000 -1.542139e+001 -1.128217e+002 -8.273502e+000 2.818048e+001 -8.303592e+000 2.812705e+001 -1.419290e+001 -1.289536e+002
3280000000 -1.018108e+001 -1.178010e+002 -8.569488e+000 -2.508773e+001 -8.587441e+000 -2.515248e+001 -9.810475e+000 -1.345770e+002
3375000000 -8.025212e+000 -1.428922e+002 -9.022197e+000 -7.573003e+001 -9.056196e+000 -7.568308e+001 -8.178892e+000 -1.534749e+002
3470000000 -7.893519e+000 -1.649759e+002 -9.151673e+000 -1.232111e+002 -9.176432e+000 -1.232438e+002 -8.467948e+000 -1.753500e+002
3565000000 -8.594932e+000 1.777615e+002 -9.105317e+000 -1.724188e+002 -9.140018e+000 -1.723979e+002 -9.298522e+000 1.728389e+002
3660000000 -9.833465e+000 1.635125e+002 -8.895422e+000 1.390268e+002 -8.918569e+000 1.389281e+002 -1.010863e+001 1.656112e+002
3755000000 -1.137678e+001 1.535735e+002 -8.637959e+000 8.834509e+001 -8.649911e+000 8.828194e+001 -1.032305e+001 1.557283e+002
3850000000 -1.386042e+001 1.525830e+002 -8.534451e+000 3.658403e+001 -8.541156e+000 3.651165e+001 -1.170755e+001 1.480402e+002
3945000000 -1.441685e+001 1.655803e+002 -8.586888e+000 -1.529638e+001 -8.598348e+000 -1.549421e+001 -1.237569e+001 1.455883e+002
4040000000 -1.225460e+001 1.636326e+002 -8.861909e+000 -6.623384e+001 -8.877225e+000 -6.643232e+001 -1.180901e+001 1.368690e+002
4135000000 -1.244813e+001 1.502774e+002 -8.985975e+000 -1.187271e+002 -8.996507e+000 -1.187668e+002 -1.365308e+001 1.154931e+002
4230000000 -1.427240e+001 1.546947e+002 -9.882801e+000 -1.729641e+002 -9.899521e+000 -1.729284e+002 -2.131864e+001 1.290556e+002
4325000000 -1.199918e+001 1.594186e+002 -1.127594e+001 1.390094e+002 -1.129089e+001 1.391143e+002 -1.546452e+001 1.708067e+002
4420000000 -1.062069e+001 1.484426e+002 -1.217088e+001 9.666605e+001 -1.220069e+001 9.680455e+001 -1.222213e+001 1.550821e+002
4515000000 -1.032978e+001 1.390798e+002 -1.227620e+001 5.441971e+001 -1.228209e+001 5.449463e+001 -1.045458e+001 1.403881e+002
4610000000 -9.511625e+000 1.312818e+002 -1.206078e+001 9.633499e+000 -1.203722e+001 9.762938e+000 -9.438526e+000 1.190286e+002
4705000000 -8.942565e+000 1.173258e+002 -1.181279e+001 -3.782795e+001 -1.183636e+001 -3.786385e+001 -8.885513e+000 9.664733e+001
4800000000 -9.128637e+000 9.957423e+001 -1.177733e+001 -8.500979e+001 -1.177200e+001 -8.516419e+001 -1.026758e+001 7.107186e+001
4895000000 -1.050838e+001 8.498045e+001 -1.169554e+001 -1.339469e+002 -1.168121e+001 -1.340057e+002 -1.221889e+001 4.522501e+001
4990000000 -1.213953e+001 7.378094e+001 -1.204673e+001 1.761710e+002 -1.205799e+001 1.764606e+002 -1.589660e+001 2.623721e+001
5085000000 -1.433018e+001 6.486011e+001 -1.244872e+001 1.289547e+002 -1.244937e+001 1.290423e+002 -2.071948e+001 2.191640e+001
5180000000 -1.754918e+001 6.510379e+001 -1.289846e+001 8.311767e+001 -1.289611e+001 8.321146e+001 -2.687997e+001 3.909259e+001
5275000000 -1.876031e+001 9.450411e+001 -1.300527e+001 3.764173e+001 -1.297931e+001 3.730083e+001 -2.354765e+001 7.617235e+001
5370000000 -1.518779e+001 9.490923e+001 -1.346211e+001 -8.211040e+000 -1.344773e+001 -8.647474e+000 -1.817121e+001 6.092733e+001
5465000000 -1.394287e+001 7.834220e+001 -1.364564e+001 -5.208030e+001 -1.359157e+001 -5.246659e+001 -1.660409e+001 2.647872e+001
5560000000 -1.499696e+001 6.234853e+001 -1.335056e+001 -9.665004e+001 -1.330098e+001 -9.644383e+001 -1.770635e+001 -9.950727e+000
5655000000 -1.656850e+001 6.324246e+001 -1.274858e+001 -1.447749e+002 -1.281363e+001 -1.450244e+002 -2.224688e+001 -4.758574e+001
5750000000 -1.454867e+001 6.096791e+001 -1.291842e+001 1.638514e+002 -1.288774e+001 1.643303e+002 -3.038228e+001 1.522666e+001
5845000000 -1.346918e+001 3.634150e+001 -1.391102e+001 1.141518e+002 -1.389560e+001 1.142004e+002 -2.009846e+001 1.339187e+000
5940000000 -1.432564e+001 2.340613e+000 -1.486129e+001 7.223073e+001 -1.481816e+001 7.172529e+001 -1.684249e+001 -3.176172e+001
6035000000 -1.702847e+001 -3.476804e+001 -1.537403e+001 3.082855e+001 -1.532894e+001 3.033219e+001 -1.523376e+001 -6.628288e+001
6130000000 -1.863742e+001 -9.142831e+001 -1.509735e+001 -7.132542e+000 -1.503466e+001 -7.655313e+000 -1.554554e+001 -1.071353e+002
6225000000 -1.796040e+001 -1.701571e+002 -1.432439e+001 -4.994066e+001 -1.432394e+001 -5.055530e+001 -1.793067e+001 -1.433645e+002
6320000000 -1.677104e+001 1.210760e+002 -1.335415e+001 -9.785121e+001 -1.335632e+001 -9.728496e+001 -2.922526e+001 -1.746014e+002
6415000000 -1.883318e+001 6.481454e+001 -1.287670e+001 -1.473204e+002 -1.286656e+001 -1.471574e+002 -2.740690e+001 -6.098395e+001
6510000000 -2.847158e+001 5.948200e+000 -1.301428e+001 1.646075e+002 -1.306709e+001 1.642214e+002 -1.811193e+001 -8.768628e+001
6605000000 -2.881874e+001 1.606909e+002 -1.301747e+001 1.180067e+002 -1.301942e+001 1.176133e+002 -1.628062e+001 -1.177259e+002
6700000000 -2.169449e+001 1.238545e+002 -1.299745e+001 7.078470e+001 -1.294129e+001 7.046288e+001 -1.679358e+001 -1.468734e+002
6795000000 -2.059781e+001 8.263486e+001 -1.299480e+001 2.387685e+001 -1.297860e+001 2.367967e+001 -2.013442e+001 -1.613648e+002
6890000000 -2.341004e+001 3.594620e+001 -1.292162e+001 -2.334523e+001 -1.294699e+001 -2.308992e+001 -2.227507e+001 -1.307525e+002
6985000000 -2.730788e+001 -6.173089e+001 -1.277696e+001 -6.991025e+001 -1.282779e+001 -6.973868e+001 -1.645046e+001 -1.283440e+002
7080000000 -2.149147e+001 -1.412787e+002 -1.270605e+001 -1.176063e+002 -1.273779e+001 -1.179641e+002 -1.310516e+001 -1.439463e+002
7175000000 -1.749935e+001 1.779593e+002 -1.293182e+001 -1.645012e+002 -1.289649e+001 -1.652462e+002 -1.205178e+001 -1.706423e+002
7270000000 -1.591241e+001 1.549520e+002 -1.313569e+001 1.488076e+002 -1.309254e+001 1.486428e+002 -1.182668e+001 1.717990e+002
7365000000 -1.567667e+001 1.369298e+002 -1.328329e+001 1.032072e+002 -1.322334e+001 1.031104e+002 -1.237019e+001 1.547370e+002
7460000000 -1.587049e+001 1.285613e+002 -1.312935e+001 5.753921e+001 -1.311934e+001 5.801824e+001 -1.261904e+001 1.465098e+002
7555000000 -1.483964e+001 1.274218e+002 -1.264379e+001 1.150627e+001 -1.267414e+001 1.207992e+001 -1.280494e+001 1.366136e+002
7650000000 -1.333760e+001 1.166069e+002 -1.234138e+001 -3.557430e+001 -1.240746e+001 -3.572308e+001 -1.202531e+001 1.284878e+002
7745000000 -1.263523e+001 1.007401e+002 -1.228751e+001 -8.402871e+001 -1.227091e+001 -8.442626e+001 -1.248462e+001 1.144658e+002
7840000000 -1.376365e+001 8.683266e+001 -1.241409e+001 -1.327329e+002 -1.234079e+001 -1.328151e+002 -1.281229e+001 1.091810e+002
7935000000 -1.534974e+001 8.432028e+001 -1.244363e+001 1.794864e+002 -1.237797e+001 1.796229e+002 -1.285328e+001 1.054488e+002
8030000000 -1.511688e+001 8.712053e+001 -1.229842e+001 1.315934e+002 -1.230638e+001 1.315840e+002 -1.218068e+001 9.812365e+001
8125000000 -1.442029e+001 7.932745e+001 -1.223680e+001 8.304709e+001 -1.234018e+001 8.297338e+001 -1.165457e+001 8.535915e+001
8220000000 -1.629917e+001 7.024986e+001 -1.256098e+001 3.395918e+001 -1.258066e+001 3.363104e+001 -1.209521e+001 7.779440e+001
8315000000 -1.752702e+001 8.966275e+001 -1.310941e+001 -1.427083e+001 -1.302558e+001 -1.446215e+001 -1.270778e+001 6.932398e+001
8410000000 -1.390617e+001 9.623629e+001 -1.341233e+001 -5.997276e+001 -1.348108e+001 -6.109127e+001 -1.215669e+001 6.436909e+001
8505000000 -1.164638e+001 7.950492e+001 -1.369962e+001 -1.051570e+002 -1.376867e+001 -1.058816e+002 -1.145567e+001 5.738877e+001
8600000000 -1.151566e+001 5.931162e+001 -1.370676e+001 -1.503185e+002 -1.356915e+001 -1.505305e+002 -1.043867e+001 4.071471e+001
8695000000 -1.348617e+001 4.911893e+001 -1.359383e+001 1.616660e+002 -1.348861e+001 1.617702e+002 -1.161359e+001 2.708638e+001
8790000000 -1.386309e+001 4.891055e+001 -1.326823e+001 1.130910e+002 -1.329083e+001 1.133615e+002 -1.160941e+001 1.650954e+001
8885000000 -1.279273e+001 3.938660e+001 -1.340131e+001 6.302792e+001 -1.349733e+001 6.289012e+001 -1.144423e+001 6.624201e+000
8980000000 -1.487390e+001 1.566210e+001 -1.431013e+001 1.456111e+001 -1.433581e+001 1.422698e+001 -1.044304e+001 -1.093992e+001
9075000000 -2.128826e+001 -6.688907e+000 -1.497745e+001 -2.947131e+001 -1.487070e+001 -2.950912e+001 -1.201832e+001 -3.715918e+001
9170000000 -2.184026e+001 8.727284e+001 -1.476659e+001 -7.300499e+001 -1.472189e+001 -7.311167e+001 -1.426437e+001 -5.777480e+001
9265000000 -1.539400e+001 6.168027e+001 -1.404217e+001 -1.226645e+002 -1.415650e+001 -1.223907e+002 -1.770632e+001 -4.062265e+001
9360000000 -1.649045e+001 2.450672e+001 -1.441830e+001 -1.749656e+002 -1.449191e+001 -1.749796e+002 -1.440174e+001 -5.396392e+001
9455000000 -2.751593e+001 1.097982e+001 -1.538376e+001 1.368153e+002 -1.542994e+001 1.358514e+002 -1.420070e+001 -7.242946e+001
9550000000 -2.074131e+001 1.107534e+002 -1.640598e+001 9.037079e+001 -1.622750e+001 8.979822e+001 -1.459318e+001 -1.077312e+002
9645000000 -1.536100e+001 8.095395e+001 -1.651816e+001 4.854348e+001 -1.631570e+001 4.873778e+001 -1.904275e+001 -1.131118e+002
9740000000 -1.636271e+001 5.180851e+001 -1.593437e+001 -8.615326e-001 -1.595829e+001 -9.629487e-001 -1.924235e+001 -9.905536e+001
9835000000 -2.524410e+001 7.299850e+001 -1.647193e+001 -5.385430e+001 -1.659566e+001 -5.432622e+001 -1.408222e+001 -1.080735e+002
9930000000 -1.612800e+001 1.150146e+002 -1.806058e+001 -9.906933e+001 -1.810995e+001 -1.001513e+002 -1.296347e+001 -1.411819e+002
10025000000 -1.201975e+001 9.877344e+001 -1.876639e+001 -1.406005e+002 -1.868174e+001 -1.416851e+002 -1.326387e+001 -1.655611e+002
10120000000 -1.100108e+001 8.479687e+001 -1.867312e+001 1.710213e+002 -1.847447e+001 1.698367e+002 -1.471293e+001 1.750323e+002
10215000000 -9.740970e+000 8.294489e+001 -1.931129e+001 1.173133e+002 -1.930444e+001 1.183434e+002 -1.663434e+001 1.682315e+002
10310000000 -7.252417e+000 7.442169e+001 -2.141730e+001 6.876330e+001 -2.145788e+001 7.043689e+001 -1.637701e+001 1.546480e+002
10405000000 -5.970528e+000 5.689923e+001 -2.282664e+001 3.765584e+001 -2.295736e+001 3.655858e+001 -1.937949e+001 1.382307e+002
10500000000 -5.753648e+000 4.336475e+001 -2.223237e+001 2.024130e+000 -2.235760e+001 -5.123047e-002 -2.215571e+001 1.297374e+002
10595000000 -5.215293e+000 3.562632e+001 -2.103518e+001 -5.446392e+001 -2.186398e+001 -5.623278e+001 -2.386878e+001 -1.680521e+002
10690000000 -3.852016e+000 2.414077e+001 -2.616666e+001 -1.056699e+002 -2.474768e+001 -1.114839e+002 -1.980130e+001 -1.577097e+002
10785000000 -2.929168e+000 3.635665e+000 -2.873861e+001 -1.418872e+002 -3.067069e+001 -1.377669e+002 -1.474195e+001 -1.760009e+002
10880000000 -3.242679e+000 -2.046063e+001 -2.808142e+001 -1.200465e+002 -3.000830e+001 -1.254759e+002 -1.475988e+001 1.577704e+002
10975000000 -4.748698e+000 -3.990939e+001 -2.436635e+001 -1.659735e+002 -2.392170e+001 -1.631088e+002 -1.618967e+001 1.510888e+002
11070000000 -6.198732e+000 -5.663600e+001 -1.988276e+001 1.420429e+002 -2.118531e+001 1.406254e+002 -1.579357e+001 1.721297e+002
11165000000 -8.331656e+000 -7.911678e+001 -2.075534e+001 8.456244e+001 -2.020725e+001 8.233157e+001 -1.138323e+001 1.584692e+002
11260000000 -1.296791e+001 -1.040022e+002 -1.985052e+001 3.365651e+001 -2.045044e+001 3.542659e+001 -1.088138e+001 1.327199e+002
11355000000 -2.219741e+001 -1.100723e+002 -2.047516e+001 -1.024645e+000 -2.055619e+001 -7.847997e+000 -1.080779e+001 1.179367e+002
11450000000 -2.850268e+001 -5.676149e+001 -1.919722e+001 -4.788452e+001 -1.943286e+001 -5.477487e+001 -1.184607e+001 1.140022e+002
11545000000 -3.333670e+001 1.895296e+001 -1.824581e+001 -1.095277e+002 -1.883581e+001 -1.039791e+002 -1.122382e+001 1.006326e+002
11640000000 -2.086450e+001 4.217737e+001 -1.820984e+001 -1.574539e+002 -1.871662e+001 -1.536830e+002 -1.114194e+001 9.583608e+001
11735000000 -1.520435e+001 2.665608e+001 -1.840503e+001 1.507027e+002 -1.839682e+001 1.563362e+002 -1.167136e+001 7.693135e+001
11830000000 -1.406267e+001 8.418511e+000 -1.869558e+001 1.033491e+002 -1.873496e+001 1.070624e+002 -1.095733e+001 7.322960e+001
11925000000 -1.354976e+001 -2.533946e+000 -1.881247e+001 6.759711e+001 -1.983632e+001 6.246782e+001 -1.328267e+001 6.911572e+001
12020000000 -1.392182e+001 -1.195928e+001 -2.023725e+001 2.273755e+001 -1.936126e+001 2.059329e+001 -1.069454e+001 5.433334e+001
12115000000 -1.453417e+001 -1.961624e+001 -1.903350e+001 -2.856433e+001 -1.913111e+001 -2.494823e+001 -1.213809e+001 4.073355e+001
12210000000 -1.636638e+001 -1.573904e+001 -1.802407e+001 -7.759339e+001 -1.873378e+001 -7.333158e+001 -1.149052e+001 4.386982e+001
12305000000 -1.611479e+001 4.710742e+000 -1.824057e+001 -1.215057e+002 -1.839580e+001 -1.255997e+002 -1.213322e+001 3.899562e+001
12400000000 -1.294550e+001 8.566537e+000 -1.934732e+001 -1.684063e+002 -1.842742e+001 -1.749164e+002 -9.413342e+000 3.016594e+001
12495000000 -1.049151e+001 -4.381851e+000 -1.929007e+001 1.306333e+002 -1.934700e+001 1.342877e+002 -9.810383e+000 1.829800e+001
12590000000 -1.010123e+001 -1.965355e+001 -1.885305e+001 8.260496e+001 -2.009524e+001 8.521487e+001 -9.220334e+000 5.167577e+000
12685000000 -1.082209e+001 -2.612992e+001 -2.062289e+001 3.779344e+001 -2.164080e+001 4.104004e+001 -1.170130e+001 2.610889e-001
12780000000 -1.055297e+001 -2.445537e+001 -2.101452e+001 3.639365e+000 -2.172115e+001 3.462512e+000 -9.645167e+000 -8.090494e+000
12875000000 -8.746077e+000 -3.160192e+001 -2.080984e+001 -3.580686e+001 -2.153724e+001 -3.810913e+001 -8.263497e+000 -1.434287e+001
12970000000 -7.938418e+000 -4.489814e+001 -2.041409e+001 -8.282560e+001 -2.106138e+001 -8.041817e+001 -8.325765e+000 -2.034882e+001
13065000000 -8.397635e+000 -6.078289e+001 -2.022068e+001 -1.369506e+002 -2.076993e+001 -1.348138e+002 -1.037475e+001 -3.969123e+001
13160000000 -9.562890e+000 -6.656535e+001 -2.212870e+001 1.707619e+002 -2.266060e+001 1.750401e+002 -9.033092e+000 -4.562643e+001
13255000000 -9.358603e+000 -7.095969e+001 -2.346389e+001 1.370066e+002 -2.418736e+001 1.423533e+002 -8.689316e+000 -4.443184e+001
13350000000 -8.436233e+000 -8.056337e+001 -2.388160e+001 1.042421e+002 -2.345301e+001 1.128503e+002 -8.514917e+000 -5.725657e+001
13445000000 -8.228614e+000 -9.611781e+001 -2.203348e+001 6.218472e+001 -2.193841e+001 6.728785e+001 -8.201324e+000 -6.885409e+001
13540000000 -9.206742e+000 -1.156352e+002 -2.131960e+001 1.208968e+001 -2.048523e+001 1.810631e+001 -8.584656e+000 -7.898450e+001
13635000000 -1.106855e+001 -1.288927e+002 -2.187353e+001 -3.010674e+001 -2.089831e+001 -2.801562e+001 -9.471440e+000 -8.903727e+001
13730000000 -1.403218e+001 -1.339517e+002 -2.168613e+001 -7.228467e+001 -2.012288e+001 -6.744041e+001 -8.120400e+000 -9.842023e+001
13825000000 -1.639229e+001 -1.333512e+002 -2.042005e+001 -1.179892e+002 -1.926929e+001 -1.144016e+002 -9.909129e+000 -1.001923e+002
13920000000 -1.596571e+001 -1.297647e+002 -1.915344e+001 -1.677716e+002 -1.830652e+001 -1.616119e+002 -1.174292e+001 -1.170042e+002
14015000000 -1.707594e+001 -1.387720e+002 -1.874309e+001 1.422526e+002 -1.767652e+001 1.442592e+002 -1.110513e+001 -1.399297e+002
14110000000 -1.885217e+001 -1.381666e+002 -1.813306e+001 8.659775e+001 -1.726239e+001 8.987236e+001 -1.087811e+001 -1.301988e+002
14205000000 -1.690344e+001 -1.303116e+002 -1.867459e+001 3.360802e+001 -1.785712e+001 4.007254e+001 -1.333985e+001 -1.312343e+002
14300000000 -1.559190e+001 -1.479723e+002 -1.905196e+001 -1.962786e+001 -1.772602e+001 -1.107808e+001 -1.537599e+001 -1.577907e+002
14395000000 -1.545140e+001 -1.736426e+002 -1.943727e+001 -6.875183e+001 -1.834205e+001 -6.451685e+001 -1.535206e+001 -1.791197e+002
14490000000 -1.645452e+001 1.729958e+002 -2.132344e+001 -1.222206e+002 -1.954961e+001 -1.210609e+002 -1.767470e+001 1.690667e+002
14585000000 -1.631061e+001 1.520070e+002 -2.303707e+001 -1.650639e+002 -2.189848e+001 -1.619128e+002 -2.208963e+001 1.484059e+002
14680000000 -1.571799e+001 1.233975e+002 -2.412678e+001 1.584739e+002 -2.287516e+001 1.582641e+002 -2.503202e+001 1.118790e+002
14775000000 -1.704398e+001 8.113464e+001 -2.507300e+001 1.179445e+002 -2.375795e+001 1.137739e+002 -2.469134e+001 2.075046e+001
14870000000 -2.131097e+001 3.289993e+001 -2.598001e+001 8.826434e+001 -2.478847e+001 7.860529e+001 -1.732489e+001 -8.118781e+000
14965000000 -3.520532e+001 3.067895e+001 -2.434900e+001 6.326912e+001 -2.385880e+001 4.679498e+001 -2.002326e+001 -3.002352e+001
15060000000 -2.541736e+001 1.082727e+002 -2.322663e+001 1.271058e+001 -2.292673e+001 5.171810e+000 -2.111886e+001 -6.755196e+001
15155000000 -2.187065e+001 6.975646e+001 -2.103032e+001 -3.577345e+001 -2.130981e+001 -4.248920e+001 -1.498689e+001 -7.429618e+001
15250000000 -2.417901e+001 4.311538e+001 -2.168927e+001 -8.358041e+001 -2.096002e+001 -9.228017e+001 -1.523067e+001 -8.158920e+001
