!Agilent Technologies,N5230A,MY45001629,A.07.50.67
!Agilent N5230A: A.07.50.67
!Date: Monday, June 05, 2017 16:34:08
!Correction: S11(Full 2 Port(1,2)) 
!S21(Full 2 Port(1,2)) 
!S12(Full 2 Port(1,2)) 
!S22(Full 2 Port(1,2)) 
!S2P File: Measurements: S11, S21, S12, S22:
# Hz S  dB   R 50
1000000000 -2.229683e-001 5.254832e+001 -5.373903e+001 -1.473411e+001 -5.064520e+001 -1.618161e+001 -8.570447e-001 4.359623e+001
1095000000 -2.436741e-001 3.634309e+001 -4.325087e+001 -5.203265e+001 -4.310814e+001 -5.572722e+001 -1.097265e+000 2.650122e+001
1190000000 -3.993097e-001 1.797005e+001 -3.407656e+001 -1.050702e+002 -3.405529e+001 -1.072035e+002 -1.567425e+000 7.998327e+000
1285000000 -9.426088e-001 -2.229530e+000 -2.605730e+001 -1.796952e+002 -2.604381e+001 1.795525e+002 -2.354955e+000 -9.737660e+000
1380000000 -1.447341e+000 -2.436623e+001 -2.098140e+001 1.036895e+002 -2.099221e+001 1.032496e+002 -2.557338e+000 -2.937407e+001
1475000000 -2.978045e+000 -5.653914e+001 -1.517320e+001 3.242088e+001 -1.516811e+001 3.232952e+001 -3.430783e+000 -6.171637e+001
1570000000 -8.932833e+000 -9.811543e+001 -1.067266e+001 -5.379127e+001 -1.067696e+001 -5.375191e+001 -8.624660e+000 -1.024258e+002
1665000000 -2.151958e+001 -3.656623e+001 -9.262415e+000 -1.437561e+002 -9.257679e+000 -1.437842e+002 -1.968793e+001 -8.044479e+001
1760000000 -1.245530e+001 -2.714296e+000 -1.005027e+001 1.391027e+002 -1.006371e+001 1.390078e+002 -1.675666e+001 -1.820218e+001
1855000000 -8.111612e+000 -3.000264e+001 -1.082110e+001 7.906041e+001 -1.083380e+001 7.905833e+001 -1.116356e+001 -3.293647e+001
1950000000 -7.885509e+000 -6.045255e+001 -1.036865e+001 2.273527e+001 -1.035151e+001 2.282803e+001 -9.611909e+000 -5.910523e+001
2045000000 -1.040592e+001 -7.822060e+001 -9.310733e+000 -3.781999e+001 -9.295830e+000 -3.777813e+001 -1.135007e+001 -7.974255e+001
2140000000 -1.155698e+001 -7.657291e+001 -8.734746e+000 -9.799572e+001 -8.703988e+000 -9.812259e+001 -1.229458e+001 -7.421886e+001
2235000000 -9.868048e+000 -8.503288e+001 -8.713057e+000 -1.591397e+002 -8.694699e+000 -1.593679e+002 -1.039234e+001 -8.425715e+001
2330000000 -1.005596e+001 -1.073580e+002 -9.021065e+000 1.457144e+002 -9.011505e+000 1.455347e+002 -9.804716e+000 -1.053723e+002
2425000000 -1.212263e+001 -1.217525e+002 -8.737091e+000 8.992603e+001 -8.763814e+000 8.995036e+001 -1.108025e+001 -1.191553e+002
2520000000 -1.353077e+001 -1.295194e+002 -8.752153e+000 3.497267e+001 -8.765145e+000 3.497719e+001 -1.246462e+001 -1.307366e+002
2615000000 -1.562997e+001 -1.434108e+002 -8.694875e+000 -1.963775e+001 -8.692174e+000 -1.959970e+001 -1.372380e+001 -1.441906e+002
2710000000 -2.165333e+001 -1.291871e+002 -9.013247e+000 -7.409632e+001 -8.996956e+000 -7.399862e+001 -1.876354e+001 -1.344646e+002
2805000000 -1.724784e+001 -8.774071e+001 -9.176500e+000 -1.262156e+002 -9.150330e+000 -1.261301e+002 -1.667709e+001 -1.063204e+002
2900000000 -1.284565e+001 -1.059306e+002 -9.548582e+000 -1.761284e+002 -9.526376e+000 -1.762192e+002 -1.196026e+001 -1.130705e+002
2995000000 -1.216062e+001 -1.282170e+002 -9.338281e+000 1.358253e+002 -9.318481e+000 1.356195e+002 -1.100021e+001 -1.345886e+002
3090000000 -1.412388e+001 -1.390336e+002 -8.872330e+000 8.492199e+001 -8.883758e+000 8.492827e+001 -1.253454e+001 -1.497623e+002
3185000000 -1.469442e+001 -1.220478e+002 -8.669670e+000 3.197614e+001 -8.690206e+000 3.196055e+001 -1.446814e+001 -1.368055e+002
3280000000 -1.067026e+001 -1.224008e+002 -8.765960e+000 -2.081363e+001 -8.785813e+000 -2.072809e+001 -1.066500e+001 -1.351944e+002
3375000000 -8.484369e+000 -1.446098e+002 -9.124662e+000 -7.144753e+001 -9.156622e+000 -7.131493e+001 -8.636723e+000 -1.508565e+002
3470000000 -8.355182e+000 -1.654880e+002 -9.247724e+000 -1.192969e+002 -9.255957e+000 -1.193481e+002 -8.472709e+000 -1.716366e+002
3565000000 -9.147689e+000 1.783656e+002 -9.210777e+000 -1.688013e+002 -9.208757e+000 -1.685466e+002 -8.979556e+000 1.756690e+002
3660000000 -1.048666e+001 1.669851e+002 -8.997214e+000 1.428693e+002 -9.022362e+000 1.429574e+002 -9.697605e+000 1.660395e+002
3755000000 -1.143284e+001 1.615724e+002 -8.844812e+000 9.236745e+001 -8.854438e+000 9.236432e+001 -9.975524e+000 1.544038e+002
3850000000 -1.242093e+001 1.596684e+002 -8.753296e+000 4.175739e+001 -8.746569e+000 4.172429e+001 -1.130838e+001 1.442137e+002
3945000000 -1.256816e+001 1.592048e+002 -8.745583e+000 -9.235307e+000 -8.743527e+000 -9.336716e+000 -1.261362e+001 1.394993e+002
4040000000 -1.204294e+001 1.521847e+002 -8.841425e+000 -5.947140e+001 -8.837427e+000 -5.958905e+001 -1.298300e+001 1.350995e+002
4135000000 -1.348962e+001 1.403203e+002 -8.899874e+000 -1.120937e+002 -8.886902e+000 -1.120884e+002 -1.522913e+001 1.190607e+002
4230000000 -1.633951e+001 1.558454e+002 -9.794127e+000 -1.660566e+002 -9.781663e+000 -1.658358e+002 -2.106308e+001 1.506789e+002
4325000000 -1.281228e+001 1.674564e+002 -1.119054e+001 1.471246e+002 -1.117206e+001 1.471296e+002 -1.389190e+001 1.685810e+002
4420000000 -1.069987e+001 1.573363e+002 -1.201153e+001 1.061821e+002 -1.198267e+001 1.061859e+002 -1.126447e+001 1.496704e+002
4515000000 -9.374028e+000 1.471778e+002 -1.171353e+001 6.508383e+001 -1.166717e+001 6.527229e+001 -1.017272e+001 1.336017e+002
4610000000 -7.958207e+000 1.321274e+002 -1.103058e+001 1.921385e+001 -1.102264e+001 1.950765e+001 -1.000859e+001 1.124505e+002
4705000000 -7.678019e+000 1.115725e+002 -1.067348e+001 -2.921546e+001 -1.062885e+001 -2.931008e+001 -9.976735e+000 9.297205e+001
4800000000 -8.681717e+000 8.935995e+001 -1.043790e+001 -7.842337e+001 -1.038095e+001 -7.828867e+001 -1.165500e+001 7.204237e+001
4895000000 -1.114997e+001 7.409345e+001 -1.030754e+001 -1.288068e+002 -1.030713e+001 -1.286990e+002 -1.350904e+001 5.550600e+001
4990000000 -1.415307e+001 6.726987e+001 -1.060985e+001 -1.792952e+002 -1.057967e+001 -1.791823e+002 -1.573648e+001 4.356390e+001
5085000000 -1.716962e+001 6.991569e+001 -1.100713e+001 1.320472e+002 -1.100922e+001 1.320714e+002 -1.792716e+001 2.884843e+001
5180000000 -1.831053e+001 9.439210e+001 -1.145283e+001 8.519336e+001 -1.146742e+001 8.533742e+001 -2.332181e+001 2.177432e+001
5275000000 -1.526089e+001 1.038989e+002 -1.164528e+001 3.926285e+001 -1.159986e+001 3.878806e+001 -2.479959e+001 5.186038e+001
5370000000 -1.281593e+001 8.819722e+001 -1.199325e+001 -7.076217e+000 -1.197034e+001 -7.541922e+000 -1.975784e+001 4.973275e+001
5465000000 -1.279054e+001 6.569512e+001 -1.207294e+001 -5.156199e+001 -1.207237e+001 -5.194972e+001 -1.829127e+001 2.091827e+001
5560000000 -1.515713e+001 4.680626e+001 -1.195567e+001 -9.773428e+001 -1.186850e+001 -9.769260e+001 -2.012768e+001 -1.536695e+001
5655000000 -1.897831e+001 5.385918e+001 -1.153637e+001 -1.471919e+002 -1.157479e+001 -1.473187e+002 -2.748951e+001 -4.335807e+001
5750000000 -1.609344e+001 6.525067e+001 -1.193810e+001 1.611520e+002 -1.191155e+001 1.613844e+002 -2.446946e+001 4.168819e+001
5845000000 -1.448538e+001 4.121186e+001 -1.301833e+001 1.122175e+002 -1.300414e+001 1.122950e+002 -1.825444e+001 1.234488e+000
5940000000 -1.535553e+001 8.714776e+000 -1.385695e+001 7.021570e+001 -1.383878e+001 6.966003e+001 -1.577069e+001 -3.441727e+001
6035000000 -1.814106e+001 -2.507099e+001 -1.435407e+001 2.918077e+001 -1.436522e+001 2.854894e+001 -1.459514e+001 -6.986548e+001
6130000000 -2.060586e+001 -8.152979e+001 -1.404567e+001 -9.334252e+000 -1.402461e+001 -1.003127e+001 -1.463059e+001 -1.083581e+002
6225000000 -2.055414e+001 -1.684339e+002 -1.332234e+001 -5.348647e+001 -1.333151e+001 -5.388856e+001 -1.694507e+001 -1.449453e+002
6320000000 -1.882087e+001 1.170165e+002 -1.257555e+001 -1.005348e+002 -1.249542e+001 -1.006708e+002 -2.567598e+001 1.783333e+002
6415000000 -2.158771e+001 5.779150e+001 -1.217924e+001 -1.510895e+002 -1.213134e+001 -1.505163e+002 -3.178152e+001 -4.637126e+001
6510000000 -3.607329e+001 -3.641247e+001 -1.233608e+001 1.599320e+002 -1.237618e+001 1.603298e+002 -1.951834e+001 -7.872826e+001
6605000000 -2.409993e+001 1.616586e+002 -1.241951e+001 1.137653e+002 -1.243191e+001 1.138325e+002 -1.633050e+001 -1.081190e+002
6700000000 -1.948140e+001 1.224564e+002 -1.229457e+001 6.737338e+001 -1.241208e+001 6.734710e+001 -1.665339e+001 -1.362665e+002
6795000000 -1.879340e+001 8.195995e+001 -1.233678e+001 2.088011e+001 -1.242570e+001 2.067638e+001 -1.864001e+001 -1.534009e+002
6890000000 -2.112385e+001 3.638583e+001 -1.236663e+001 -2.569827e+001 -1.237715e+001 -2.602085e+001 -2.013642e+001 -1.356338e+002
6985000000 -2.495634e+001 -4.143990e+001 -1.228112e+001 -7.274122e+001 -1.225385e+001 -7.260873e+001 -1.669094e+001 -1.363813e+002
7080000000 -2.147747e+001 -1.247205e+002 -1.216703e+001 -1.207829e+002 -1.214765e+001 -1.209512e+002 -1.360457e+001 -1.481627e+002
7175000000 -1.742271e+001 -1.696030e+002 -1.220822e+001 -1.684605e+002 -1.224266e+001 -1.684630e+002 -1.300963e+001 -1.707172e+002
7270000000 -1.506071e+001 1.641760e+002 -1.245266e+001 1.443628e+002 -1.246153e+001 1.444476e+002 -1.245103e+001 1.731429e+002
7365000000 -1.419395e+001 1.417671e+002 -1.269004e+001 9.868941e+001 -1.268588e+001 9.842828e+001 -1.266367e+001 1.601954e+002
7460000000 -1.419276e+001 1.256546e+002 -1.272107e+001 5.329114e+001 -1.277124e+001 5.304912e+001 -1.249354e+001 1.491391e+002
7555000000 -1.425062e+001 1.180082e+002 -1.252248e+001 7.509614e+000 -1.251642e+001 7.724026e+000 -1.237743e+001 1.384337e+002
7650000000 -1.380771e+001 1.093076e+002 -1.232443e+001 -3.918464e+001 -1.226153e+001 -3.887262e+001 -1.198871e+001 1.291381e+002
7745000000 -1.346112e+001 9.718782e+001 -1.203497e+001 -8.740434e+001 -1.204898e+001 -8.725797e+001 -1.200970e+001 1.143572e+002
7840000000 -1.472346e+001 8.644360e+001 -1.198736e+001 -1.353362e+002 -1.203616e+001 -1.353547e+002 -1.246219e+001 1.090660e+002
7935000000 -1.620833e+001 8.887154e+001 -1.207655e+001 1.776102e+002 -1.207934e+001 1.771705e+002 -1.270736e+001 1.009405e+002
8030000000 -1.517375e+001 9.390801e+001 -1.212220e+001 1.288032e+002 -1.200901e+001 1.287873e+002 -1.239464e+001 9.667003e+001
8125000000 -1.390133e+001 8.439304e+001 -1.214616e+001 7.969765e+001 -1.208308e+001 7.993438e+001 -1.223979e+001 8.527609e+001
8220000000 -1.514024e+001 7.267396e+001 -1.223800e+001 3.015812e+001 -1.227846e+001 3.041007e+001 -1.217447e+001 7.998367e+001
8315000000 -1.662514e+001 8.245907e+001 -1.265815e+001 -1.780125e+001 -1.280127e+001 -1.766721e+001 -1.278597e+001 7.317814e+001
8410000000 -1.418373e+001 9.062550e+001 -1.326117e+001 -6.442949e+001 -1.326584e+001 -6.433909e+001 -1.190102e+001 6.791725e+001
8505000000 -1.206319e+001 7.694825e+001 -1.346907e+001 -1.091162e+002 -1.356501e+001 -1.087846e+002 -1.103304e+001 5.739842e+001
8600000000 -1.201273e+001 5.788158e+001 -1.330113e+001 -1.530645e+002 -1.340283e+001 -1.533159e+002 -9.990646e+000 4.034100e+001
8695000000 -1.423735e+001 4.940413e+001 -1.322064e+001 1.596875e+002 -1.325047e+001 1.590172e+002 -1.142676e+001 2.466666e+001
8790000000 -1.442287e+001 5.391045e+001 -1.306326e+001 1.100824e+002 -1.297800e+001 1.099678e+002 -1.153996e+001 1.252974e+001
8885000000 -1.267342e+001 4.548380e+001 -1.329403e+001 5.820201e+001 -1.320200e+001 5.869008e+001 -1.202878e+001 5.713896e+000
8980000000 -1.399535e+001 2.129265e+001 -1.403755e+001 8.837650e+000 -1.409105e+001 9.178288e+000 -1.074640e+001 -1.038268e+001
9075000000 -1.878288e+001 -3.490314e+000 -1.479278e+001 -3.410615e+001 -1.493861e+001 -3.414436e+001 -1.211375e+001 -3.375563e+001
9170000000 -2.388718e+001 7.551191e+001 -1.469752e+001 -7.612151e+001 -1.471095e+001 -7.641557e+001 -1.474338e+001 -5.695984e+001
9265000000 -1.617287e+001 6.061992e+001 -1.415576e+001 -1.247118e+002 -1.414394e+001 -1.250892e+002 -1.769931e+001 -3.924728e+001
9360000000 -1.690007e+001 2.259305e+001 -1.445396e+001 -1.780793e+002 -1.437809e+001 -1.783740e+002 -1.402733e+001 -4.786395e+001
9455000000 -3.016445e+001 1.310716e+001 -1.534626e+001 1.313034e+002 -1.530547e+001 1.312497e+002 -1.338506e+001 -7.523540e+001
9550000000 -1.972998e+001 1.152437e+002 -1.618679e+001 8.591546e+001 -1.626422e+001 8.500391e+001 -1.397060e+001 -1.089892e+002
9645000000 -1.464547e+001 8.314101e+001 -1.646774e+001 4.457470e+001 -1.649154e+001 4.415725e+001 -1.824286e+001 -1.276810e+002
9740000000 -1.527534e+001 5.264544e+001 -1.633902e+001 -4.593097e+000 -1.616136e+001 -5.362663e+000 -2.061592e+001 -1.022984e+002
9835000000 -2.385052e+001 5.006484e+001 -1.716532e+001 -5.939107e+001 -1.691950e+001 -5.942882e+001 -1.510484e+001 -1.056804e+002
9930000000 -1.756722e+001 1.167634e+002 -1.867085e+001 -1.054739e+002 -1.868557e+001 -1.051537e+002 -1.303122e+001 -1.390588e+002
10025000000 -1.228550e+001 1.028662e+002 -1.923079e+001 -1.457007e+002 -1.938872e+001 -1.444542e+002 -1.358849e+001 -1.638045e+002
10120000000 -1.080032e+001 8.698246e+001 -1.885445e+001 1.690205e+002 -1.893779e+001 1.694477e+002 -1.414879e+001 1.744425e+002
10215000000 -9.594067e+000 8.352832e+001 -1.962292e+001 1.193376e+002 -1.952155e+001 1.180377e+002 -1.680096e+001 1.696789e+002
10310000000 -7.183672e+000 7.444862e+001 -2.200644e+001 7.070930e+001 -2.174702e+001 6.954731e+001 -1.617878e+001 1.537644e+002
10405000000 -5.903967e+000 5.708210e+001 -2.357801e+001 3.454579e+001 -2.335629e+001 3.452779e+001 -1.855678e+001 1.410838e+002
10500000000 -5.685943e+000 4.322042e+001 -2.294755e+001 -4.522433e+000 -2.296018e+001 -1.822187e+000 -2.147031e+001 1.225760e+002
10595000000 -5.126626e+000 3.521898e+001 -2.187152e+001 -6.034172e+001 -2.261864e+001 -5.592094e+001 -2.774105e+001 -1.567159e+002
10690000000 -3.886745e+000 2.416986e+001 -2.399742e+001 -1.044747e+002 -2.489725e+001 -1.122216e+002 -1.891073e+001 -1.636093e+002
10785000000 -2.939249e+000 3.952737e+000 -3.158179e+001 -1.522239e+002 -3.038460e+001 -1.474268e+002 -1.494800e+001 -1.773916e+002
10880000000 -3.208923e+000 -2.036350e+001 -2.867356e+001 -1.361716e+002 -3.061697e+001 -1.274756e+002 -1.549052e+001 1.654237e+002
10975000000 -4.771177e+000 -4.006681e+001 -2.498945e+001 -1.560837e+002 -2.438588e+001 -1.601564e+002 -1.538613e+001 1.532892e+002
11070000000 -6.269768e+000 -5.668658e+001 -2.087803e+001 1.390867e+002 -2.100198e+001 1.419944e+002 -1.632911e+001 1.657298e+002
11165000000 -8.240186e+000 -7.861874e+001 -1.993702e+001 8.843794e+001 -2.000725e+001 8.444314e+001 -1.153535e+001 1.599269e+002
11260000000 -1.299966e+001 -1.042043e+002 -2.095137e+001 2.715208e+001 -2.064668e+001 3.332336e+001 -1.003148e+001 1.351092e+002
11355000000 -2.194366e+001 -1.078065e+002 -2.011661e+001 -1.019207e+001 -2.119144e+001 -1.157304e+001 -1.110978e+001 1.147079e+002
11450000000 -2.793960e+001 -5.172894e+001 -1.954718e+001 -5.322279e+001 -1.996816e+001 -5.143966e+001 -1.198670e+001 1.078457e+002
11545000000 -3.430781e+001 2.377887e-001 -2.042416e+001 -1.043490e+002 -1.903049e+001 -1.036822e+002 -1.181783e+001 9.934096e+001
11640000000 -2.111529e+001 4.420602e+001 -1.968398e+001 -1.526313e+002 -1.894818e+001 -1.509207e+002 -1.086442e+001 9.681219e+001
11735000000 -1.524441e+001 2.722643e+001 -1.943749e+001 1.575560e+002 -1.851778e+001 1.587945e+002 -1.083754e+001 8.091228e+001
11830000000 -1.410662e+001 7.726472e+000 -1.951281e+001 1.080218e+002 -1.902212e+001 1.058408e+002 -1.132127e+001 7.616852e+001
11925000000 -1.382294e+001 -1.800367e+000 -1.908938e+001 5.668552e+001 -1.993424e+001 6.137292e+001 -1.196717e+001 6.319359e+001
12020000000 -1.370685e+001 -9.757442e+000 -1.926332e+001 1.956549e+001 -2.025422e+001 1.902750e+001 -1.099767e+001 5.686711e+001
12115000000 -1.423374e+001 -1.853986e+001 -2.058061e+001 -2.312473e+001 -1.978050e+001 -2.408457e+001 -1.116054e+001 3.697872e+001
12210000000 -1.583431e+001 -1.797177e+001 -1.990623e+001 -7.483699e+001 -1.909753e+001 -7.266382e+001 -1.189829e+001 4.608221e+001
12305000000 -1.664904e+001 1.479420e+000 -1.868108e+001 -1.264073e+002 -1.949589e+001 -1.222010e+002 -1.187134e+001 3.454806e+001
12400000000 -1.311186e+001 1.002853e+001 -1.815671e+001 -1.678672e+002 -1.888859e+001 -1.715898e+002 -9.326737e+000 3.630680e+001
12495000000 -1.050062e+001 -2.694227e+000 -2.034128e+001 1.408810e+002 -1.962203e+001 1.401422e+002 -9.465358e+000 1.557039e+001
12590000000 -9.982886e+000 -1.858201e+001 -2.058416e+001 8.691378e+001 -2.034698e+001 9.107699e+001 -8.395279e+000 4.537062e+000
12685000000 -1.072896e+001 -2.581706e+001 -2.298847e+001 4.177335e+001 -2.206346e+001 4.441758e+001 -1.160615e+001 4.863510e+000
12780000000 -1.027586e+001 -2.427120e+001 -2.275468e+001 5.269070e+000 -2.272391e+001 9.203252e+000 -1.021588e+001 -1.088651e+001
12875000000 -8.780802e+000 -3.205508e+001 -2.246928e+001 -3.430956e+001 -2.181364e+001 -3.316169e+001 -8.241056e+000 -1.906073e+001
12970000000 -7.894547e+000 -4.479519e+001 -2.204834e+001 -7.624989e+001 -2.120406e+001 -7.796628e+001 -7.554147e+000 -1.953196e+001
13065000000 -8.263956e+000 -6.194817e+001 -2.196233e+001 -1.306578e+002 -2.113252e+001 -1.313907e+002 -1.002992e+001 -3.857485e+001
13160000000 -9.379189e+000 -6.775830e+001 -2.408628e+001 -1.799828e+002 -2.281875e+001 1.766944e+002 -9.776885e+000 -4.466109e+001
13255000000 -9.437926e+000 -7.136634e+001 -2.625794e+001 1.542185e+002 -2.481766e+001 1.430171e+002 -9.170887e+000 -4.555458e+001
13350000000 -8.576047e+000 -8.027631e+001 -2.484078e+001 1.288084e+002 -2.338679e+001 1.190187e+002 -8.424827e+000 -5.993593e+001
13445000000 -7.975486e+000 -9.542592e+001 -2.251051e+001 8.029095e+001 -2.155296e+001 7.165684e+001 -7.632934e+000 -6.717950e+001
13540000000 -9.247320e+000 -1.151007e+002 -2.203414e+001 2.722363e+001 -2.046062e+001 2.264515e+001 -8.736584e+000 -7.539496e+001
13635000000 -1.099008e+001 -1.281319e+002 -2.236121e+001 -1.775149e+001 -2.105381e+001 -2.535510e+001 -1.011602e+001 -8.781763e+001
13730000000 -1.376818e+001 -1.340598e+002 -2.164732e+001 -5.946947e+001 -2.107945e+001 -6.893555e+001 -8.237476e+000 -1.030090e+002
13825000000 -1.603461e+001 -1.346921e+002 -2.045466e+001 -1.031023e+002 -1.978925e+001 -1.115849e+002 -9.231526e+000 -1.047789e+002
13920000000 -1.554819e+001 -1.325011e+002 -1.927657e+001 -1.485489e+002 -1.828929e+001 -1.561751e+002 -1.120831e+001 -1.125552e+002
14015000000 -1.726961e+001 -1.406147e+002 -1.846415e+001 1.546661e+002 -1.750360e+001 1.506939e+002 -1.271468e+001 -1.375458e+002
14110000000 -1.932696e+001 -1.400654e+002 -1.843566e+001 9.849865e+001 -1.735119e+001 9.431947e+001 -1.151257e+001 -1.362728e+002
14205000000 -1.725528e+001 -1.267501e+002 -1.816521e+001 4.759712e+001 -1.757403e+001 4.347190e+001 -1.261744e+001 -1.328944e+002
14300000000 -1.505381e+001 -1.456563e+002 -1.850349e+001 -4.665152e+000 -1.793573e+001 -8.584503e+000 -1.394500e+001 -1.505261e+002
14395000000 -1.505961e+001 -1.743026e+002 -1.837894e+001 -5.817086e+001 -1.855384e+001 -6.188095e+001 -1.545489e+001 -1.700255e+002
14490000000 -1.662525e+001 1.704022e+002 -1.992336e+001 -1.084097e+002 -1.984776e+001 -1.163346e+002 -1.928189e+001 1.598125e+002
14585000000 -1.634676e+001 1.529989e+002 -2.099363e+001 -1.565289e+002 -2.177980e+001 -1.650019e+002 -2.145176e+001 1.168459e+002
14680000000 -1.579065e+001 1.266247e+002 -2.243247e+001 1.641980e+002 -2.390832e+001 1.552632e+002 -2.088519e+001 1.153308e+002
14775000000 -1.665458e+001 8.238861e+001 -2.333799e+001 1.151913e+002 -2.504583e+001 1.232862e+002 -2.671813e+001 4.523869e+001
14870000000 -2.077069e+001 3.680298e+001 -2.459836e+001 8.893632e+001 -2.654147e+001 9.251964e+001 -1.669261e+001 -2.266273e+001
14965000000 -3.120277e+001 2.204839e+001 -2.254614e+001 5.570187e+001 -2.441199e+001 6.406806e+001 -1.635180e+001 -4.287009e+001
15060000000 -2.683247e+001 1.061705e+002 -2.039309e+001 1.124979e+001 -2.226057e+001 1.708323e+001 -1.972246e+001 -5.098171e+001
15155000000 -2.262456e+001 6.505071e+001 -1.966437e+001 -3.719601e+001 -2.078659e+001 -3.572461e+001 -1.763300e+001 -6.581780e+001
15250000000 -2.444353e+001 4.072563e+001 -1.937168e+001 -8.004269e+001 -2.088878e+001 -8.289027e+001 -1.768559e+001 -9.212410e+001
