!Agilent Technologies,N5230A,MY45001629,A.07.50.67
!Agilent N5230A: A.07.50.67
!Date: Monday, June 05, 2017 16:34:20
!Correction: S11(Full 2 Port(1,2)) 
!S21(Full 2 Port(1,2)) 
!S12(Full 2 Port(1,2)) 
!S22(Full 2 Port(1,2)) 
!S2P File: Measurements: S11, S21, S12, S22:
# Hz S  dB   R 50
1000000000 -2.199740e-001 5.254930e+001 -5.211693e+001 -2.781309e+001 -5.073236e+001 -1.096638e+001 -8.609667e-001 4.362478e+001
1095000000 -2.440258e-001 3.634890e+001 -4.384647e+001 -5.450491e+001 -4.328482e+001 -5.384897e+001 -1.104751e+000 2.643743e+001
1190000000 -3.971297e-001 1.799963e+001 -3.428960e+001 -1.055755e+002 -3.404013e+001 -1.068864e+002 -1.566618e+000 7.978165e+000
1285000000 -9.408544e-001 -2.233660e+000 -2.609390e+001 1.799652e+002 -2.603382e+001 1.798577e+002 -2.352488e+000 -9.868194e+000
1380000000 -1.447567e+000 -2.441028e+001 -2.105397e+001 1.037298e+002 -2.104194e+001 1.035287e+002 -2.547237e+000 -2.937716e+001
1475000000 -2.983062e+000 -5.653604e+001 -1.521143e+001 3.279954e+001 -1.517921e+001 3.274114e+001 -3.427802e+000 -6.166471e+001
1570000000 -8.950562e+000 -9.786016e+001 -1.069585e+001 -5.356154e+001 -1.069225e+001 -5.368765e+001 -8.654909e+000 -1.025422e+002
1665000000 -2.138884e+001 -3.585688e+001 -9.279033e+000 -1.436937e+002 -9.294552e+000 -1.438644e+002 -1.962210e+001 -8.078409e+001
1760000000 -1.244723e+001 -3.001739e+000 -1.005642e+001 1.391312e+002 -1.006827e+001 1.391200e+002 -1.680422e+001 -1.820587e+001
1855000000 -8.115531e+000 -3.015450e+001 -1.079262e+001 7.899760e+001 -1.081791e+001 7.905417e+001 -1.118728e+001 -3.291174e+001
1950000000 -7.913733e+000 -6.054166e+001 -1.034660e+001 2.292660e+001 -1.033585e+001 2.308366e+001 -9.647110e+000 -5.903433e+001
2045000000 -1.043694e+001 -7.810268e+001 -9.327140e+000 -3.764700e+001 -9.309158e+000 -3.753661e+001 -1.133263e+001 -7.935323e+001
2140000000 -1.156655e+001 -7.626401e+001 -8.767358e+000 -9.781754e+001 -8.733228e+000 -9.785618e+001 -1.228719e+001 -7.433134e+001
2235000000 -9.847361e+000 -8.460347e+001 -8.761621e+000 -1.589776e+002 -8.750021e+000 -1.591198e+002 -1.043478e+001 -8.381261e+001
2330000000 -1.000305e+001 -1.070267e+002 -9.026725e+000 1.459997e+002 -9.031232e+000 1.457575e+002 -9.787969e+000 -1.051724e+002
2425000000 -1.201691e+001 -1.217967e+002 -8.766296e+000 9.018953e+001 -8.794645e+000 9.018080e+001 -1.110150e+001 -1.185833e+002
2520000000 -1.347886e+001 -1.305382e+002 -8.795408e+000 3.563180e+001 -8.810941e+000 3.560972e+001 -1.245921e+001 -1.309808e+002
2615000000 -1.569884e+001 -1.443260e+002 -8.734797e+000 -1.906532e+001 -8.709533e+000 -1.897062e+001 -1.380692e+001 -1.447613e+002
2710000000 -2.196109e+001 -1.292191e+002 -8.998391e+000 -7.355764e+001 -8.968353e+000 -7.341991e+001 -1.904053e+001 -1.350910e+002
2805000000 -1.723199e+001 -8.588750e+001 -9.184108e+000 -1.254876e+002 -9.145315e+000 -1.256157e+002 -1.671360e+001 -1.053081e+002
2900000000 -1.276435e+001 -1.050426e+002 -9.565098e+000 -1.756148e+002 -9.553695e+000 -1.756176e+002 -1.173912e+001 -1.127846e+002
2995000000 -1.196741e+001 -1.276705e+002 -9.320850e+000 1.367722e+002 -9.340065e+000 1.366572e+002 -1.094140e+001 -1.354877e+002
3090000000 -1.385679e+001 -1.397811e+002 -8.871048e+000 8.613719e+001 -8.864543e+000 8.600150e+001 -1.249325e+001 -1.515982e+002
3185000000 -1.481365e+001 -1.243209e+002 -8.618729e+000 3.327095e+001 -8.607543e+000 3.315376e+001 -1.476186e+001 -1.375117e+002
3280000000 -1.087570e+001 -1.226320e+002 -8.715494e+000 -1.955940e+001 -8.711637e+000 -1.960240e+001 -1.079442e+001 -1.335981e+002
3375000000 -8.618271e+000 -1.442756e+002 -9.095782e+000 -7.036604e+001 -9.088197e+000 -7.053500e+001 -8.601786e+000 -1.490215e+002
3470000000 -8.475093e+000 -1.649579e+002 -9.220111e+000 -1.183403e+002 -9.221024e+000 -1.184307e+002 -8.375133e+000 -1.705585e+002
3565000000 -9.251955e+000 1.793798e+002 -9.151426e+000 -1.675105e+002 -9.150496e+000 -1.677063e+002 -8.815896e+000 1.753069e+002
3660000000 -1.045328e+001 1.687726e+002 -8.977069e+000 1.441006e+002 -8.970866e+000 1.440257e+002 -9.531985e+000 1.659215e+002
3755000000 -1.112695e+001 1.630503e+002 -8.782204e+000 9.413306e+001 -8.765823e+000 9.407007e+001 -9.867406e+000 1.535008e+002
3850000000 -1.194507e+001 1.580646e+002 -8.596400e+000 4.360742e+001 -8.585141e+000 4.338898e+001 -1.131493e+001 1.426986e+002
3945000000 -1.258562e+001 1.551015e+002 -8.486896e+000 -7.320492e+000 -8.483755e+000 -7.540702e+000 -1.319037e+001 1.371168e+002
4040000000 -1.251657e+001 1.505611e+002 -8.526299e+000 -5.815404e+001 -8.517624e+000 -5.861452e+001 -1.360059e+001 1.365966e+002
4135000000 -1.399240e+001 1.413856e+002 -8.604074e+000 -1.111764e+002 -8.600600e+000 -1.113251e+002 -1.530968e+001 1.251256e+002
4230000000 -1.642874e+001 1.599773e+002 -9.422177e+000 -1.648641e+002 -9.447567e+000 -1.650441e+002 -1.935572e+001 1.499426e+002
4325000000 -1.251851e+001 1.695996e+002 -1.073800e+001 1.484197e+002 -1.075535e+001 1.481802e+002 -1.353652e+001 1.648718e+002
4420000000 -1.028101e+001 1.578961e+002 -1.141565e+001 1.070490e+002 -1.142756e+001 1.068676e+002 -1.125499e+001 1.478324e+002
4515000000 -9.023467e+000 1.454995e+002 -1.109681e+001 6.449492e+001 -1.112070e+001 6.460667e+001 -1.053074e+001 1.314350e+002
4610000000 -7.905236e+000 1.298630e+002 -1.052352e+001 1.835785e+001 -1.056400e+001 1.842871e+001 -1.044360e+001 1.118874e+002
4705000000 -7.815871e+000 1.097224e+002 -1.020929e+001 -3.052596e+001 -1.022872e+001 -3.078028e+001 -1.027476e+001 9.519130e+001
4800000000 -8.947965e+000 8.838613e+001 -1.005316e+001 -8.008603e+001 -1.005422e+001 -8.017871e+001 -1.185162e+001 7.637334e+001
4895000000 -1.154261e+001 7.396426e+001 -9.963322e+000 -1.304952e+002 -9.999265e+000 -1.307497e+002 -1.315591e+001 5.895995e+001
4990000000 -1.459676e+001 6.948200e+001 -1.025028e+001 1.786543e+002 -1.026912e+001 1.786365e+002 -1.486633e+001 4.394196e+001
5085000000 -1.714827e+001 7.707508e+001 -1.067482e+001 1.295937e+002 -1.071560e+001 1.296655e+002 -1.743610e+001 2.769890e+001
5180000000 -1.700684e+001 9.411435e+001 -1.126312e+001 8.273969e+001 -1.131446e+001 8.265435e+001 -2.304656e+001 1.464852e+001
5275000000 -1.499304e+001 9.830325e+001 -1.152649e+001 3.608460e+001 -1.150083e+001 3.623481e+001 -2.583994e+001 4.897138e+001
5370000000 -1.310555e+001 8.450636e+001 -1.193685e+001 -1.015926e+001 -1.192314e+001 -1.030884e+001 -2.059221e+001 5.251008e+001
5465000000 -1.326559e+001 6.364999e+001 -1.213704e+001 -5.506956e+001 -1.210186e+001 -5.491156e+001 -1.860573e+001 2.306328e+001
5560000000 -1.571042e+001 4.653155e+001 -1.197481e+001 -1.004672e+002 -1.195177e+001 -1.001046e+002 -2.010160e+001 -9.132442e+000
5655000000 -1.952348e+001 5.746723e+001 -1.165966e+001 -1.491068e+002 -1.160824e+001 -1.491082e+002 -2.650001e+001 -3.514930e+001
5750000000 -1.598335e+001 6.876619e+001 -1.189010e+001 1.600217e+002 -1.193032e+001 1.600323e+002 -2.417637e+001 3.316680e+001
5845000000 -1.421687e+001 4.406163e+001 -1.288098e+001 1.104307e+002 -1.293950e+001 1.105183e+002 -1.788964e+001 -1.331998e+000
5940000000 -1.479964e+001 1.108059e+001 -1.384555e+001 6.742154e+001 -1.384212e+001 6.776909e+001 -1.555567e+001 -3.612238e+001
6035000000 -1.732121e+001 -2.385773e+001 -1.439547e+001 2.619575e+001 -1.433983e+001 2.609349e+001 -1.435490e+001 -6.932914e+001
6130000000 -1.956384e+001 -8.011505e+001 -1.421360e+001 -1.272665e+001 -1.414715e+001 -1.246881e+001 -1.463263e+001 -1.097778e+002
6225000000 -1.987339e+001 -1.642758e+002 -1.352825e+001 -5.629044e+001 -1.352043e+001 -5.613630e+001 -1.676831e+001 -1.489863e+002
6320000000 -1.847240e+001 1.210584e+002 -1.273801e+001 -1.025994e+002 -1.273518e+001 -1.026230e+002 -2.583033e+001 1.614591e+002
6415000000 -2.145638e+001 6.192668e+001 -1.237519e+001 -1.525348e+002 -1.232209e+001 -1.523340e+002 -3.041420e+001 -2.800044e+001
6510000000 -3.799791e+001 -2.353837e+001 -1.258764e+001 1.588496e+002 -1.258191e+001 1.589129e+002 -1.837741e+001 -7.383407e+001
6605000000 -2.425450e+001 1.571767e+002 -1.258074e+001 1.125334e+002 -1.268348e+001 1.126523e+002 -1.584118e+001 -1.080086e+002
6700000000 -1.962935e+001 1.201190e+002 -1.255612e+001 6.622672e+001 -1.258470e+001 6.653951e+001 -1.583286e+001 -1.395714e+002
6795000000 -1.888256e+001 7.950768e+001 -1.259531e+001 2.021613e+001 -1.264599e+001 2.002884e+001 -1.848991e+001 -1.573841e+002
6890000000 -2.112333e+001 3.270012e+001 -1.252399e+001 -2.623453e+001 -1.254577e+001 -2.684059e+001 -2.113524e+001 -1.414709e+002
6985000000 -2.427774e+001 -4.743238e+001 -1.248561e+001 -7.332890e+001 -1.245680e+001 -7.348531e+001 -1.685858e+001 -1.345807e+002
7080000000 -2.061672e+001 -1.274921e+002 -1.238044e+001 -1.215510e+002 -1.237249e+001 -1.214234e+002 -1.371181e+001 -1.467713e+002
7175000000 -1.689268e+001 -1.728949e+002 -1.251743e+001 -1.691491e+002 -1.254941e+001 -1.690942e+002 -1.283021e+001 -1.701132e+002
7270000000 -1.494323e+001 1.602088e+002 -1.266897e+001 1.439107e+002 -1.272495e+001 1.440232e+002 -1.247163e+001 1.745104e+002
7365000000 -1.443180e+001 1.381942e+002 -1.280955e+001 9.838190e+001 -1.290898e+001 9.806319e+001 -1.252457e+001 1.593176e+002
7460000000 -1.476516e+001 1.246905e+002 -1.295101e+001 5.321961e+001 -1.295292e+001 5.317635e+001 -1.232651e+001 1.502200e+002
7555000000 -1.455891e+001 1.205221e+002 -1.271616e+001 7.867727e+000 -1.269247e+001 7.667441e+000 -1.233674e+001 1.377958e+002
7650000000 -1.375816e+001 1.113143e+002 -1.248706e+001 -3.887695e+001 -1.243101e+001 -3.899447e+001 -1.162338e+001 1.284072e+002
7745000000 -1.335794e+001 9.819868e+001 -1.219590e+001 -8.762334e+001 -1.222528e+001 -8.732451e+001 -1.215268e+001 1.129370e+002
7840000000 -1.461632e+001 8.690001e+001 -1.222147e+001 -1.357692e+002 -1.224441e+001 -1.353729e+002 -1.264975e+001 1.059306e+002
7935000000 -1.597706e+001 8.907856e+001 -1.232039e+001 1.776538e+002 -1.230212e+001 1.770922e+002 -1.307906e+001 1.025776e+002
8030000000 -1.504465e+001 9.277213e+001 -1.232406e+001 1.294871e+002 -1.223814e+001 1.290213e+002 -1.247672e+001 9.741841e+001
8125000000 -1.382262e+001 8.321111e+001 -1.225059e+001 8.016968e+001 -1.225037e+001 8.038817e+001 -1.181384e+001 8.633873e+001
8220000000 -1.523450e+001 7.094038e+001 -1.248036e+001 3.055311e+001 -1.247740e+001 3.107887e+001 -1.205778e+001 7.922613e+001
8315000000 -1.705537e+001 8.196632e+001 -1.287429e+001 -1.701899e+001 -1.293434e+001 -1.687194e+001 -1.244626e+001 7.059077e+001
8410000000 -1.430582e+001 9.228934e+001 -1.342400e+001 -6.380310e+001 -1.337269e+001 -6.323518e+001 -1.174646e+001 6.541995e+001
8505000000 -1.207840e+001 7.831989e+001 -1.355115e+001 -1.082601e+002 -1.368283e+001 -1.078649e+002 -1.102912e+001 5.723952e+001
8600000000 -1.185535e+001 5.920571e+001 -1.347695e+001 -1.528465e+002 -1.351618e+001 -1.527500e+002 -1.006588e+001 3.920011e+001
8695000000 -1.393574e+001 5.009114e+001 -1.343186e+001 1.602571e+002 -1.344806e+001 1.598604e+002 -1.140787e+001 2.474146e+001
8790000000 -1.411349e+001 5.230726e+001 -1.327273e+001 1.113950e+002 -1.320686e+001 1.109565e+002 -1.176487e+001 1.326470e+001
8885000000 -1.265633e+001 4.276994e+001 -1.344663e+001 5.939874e+001 -1.340394e+001 5.995894e+001 -1.193834e+001 5.630069e+000
8980000000 -1.444717e+001 1.900457e+001 -1.418463e+001 9.939575e+000 -1.419876e+001 1.070333e+001 -1.073529e+001 -8.779614e+000
9075000000 -1.967949e+001 -3.556271e+000 -1.486291e+001 -3.330006e+001 -1.490928e+001 -3.271994e+001 -1.221490e+001 -3.458427e+001
9170000000 -2.308486e+001 7.869699e+001 -1.479647e+001 -7.469147e+001 -1.486398e+001 -7.564910e+001 -1.445657e+001 -5.534343e+001
9265000000 -1.591602e+001 5.970118e+001 -1.415878e+001 -1.231667e+002 -1.414139e+001 -1.240105e+002 -1.767367e+001 -3.811075e+001
9360000000 -1.678455e+001 2.234888e+001 -1.442254e+001 -1.773837e+002 -1.442256e+001 -1.773626e+002 -1.389025e+001 -5.042189e+001
9455000000 -3.005270e+001 8.184669e+000 -1.518890e+001 1.321135e+002 -1.531766e+001 1.321768e+002 -1.354235e+001 -7.539705e+001
9550000000 -1.992066e+001 1.149507e+002 -1.619774e+001 8.616368e+001 -1.635471e+001 8.566899e+001 -1.426162e+001 -1.112359e+002
9645000000 -1.472661e+001 8.310485e+001 -1.668998e+001 4.536134e+001 -1.659035e+001 4.452593e+001 -1.925731e+001 -1.244942e+002
9740000000 -1.540683e+001 5.184779e+001 -1.645317e+001 -3.212067e+000 -1.633853e+001 -3.663845e+000 -2.121480e+001 -9.614860e+001
9835000000 -2.441816e+001 5.291108e+001 -1.713570e+001 -5.702404e+001 -1.697818e+001 -5.672878e+001 -1.485115e+001 -1.052118e+002
9930000000 -1.715030e+001 1.173860e+002 -1.861051e+001 -1.038922e+002 -1.860835e+001 -1.018741e+002 -1.284792e+001 -1.388557e+002
10025000000 -1.217454e+001 1.017554e+002 -1.916731e+001 -1.439178e+002 -1.912679e+001 -1.420153e+002 -1.326125e+001 -1.649893e+002
10120000000 -1.085963e+001 8.645762e+001 -1.877869e+001 1.708970e+002 -1.875464e+001 1.701999e+002 -1.427985e+001 1.747504e+002
10215000000 -9.659735e+000 8.331758e+001 -1.946828e+001 1.200012e+002 -1.959237e+001 1.181202e+002 -1.668822e+001 1.675341e+002
10310000000 -7.191427e+000 7.436192e+001 -2.191191e+001 7.044347e+001 -2.177147e+001 7.041517e+001 -1.591038e+001 1.554860e+002
10405000000 -5.912402e+000 5.696187e+001 -2.374689e+001 3.674868e+001 -2.335331e+001 3.571959e+001 -1.889536e+001 1.384128e+002
10500000000 -5.703712e+000 4.319528e+001 -2.275337e+001 -8.330064e-001 -2.275117e+001 -1.193541e-001 -2.133980e+001 1.245194e+002
10595000000 -5.247931e+000 3.536133e+001 -2.098489e+001 -5.224760e+001 -2.189704e+001 -5.342835e+001 -2.944238e+001 -1.649030e+002
10690000000 -3.897043e+000 2.429798e+001 -2.531902e+001 -1.095033e+002 -2.501313e+001 -1.096103e+002 -1.806281e+001 -1.640692e+002
10785000000 -2.967684e+000 4.025057e+000 -2.872621e+001 -1.454930e+002 -3.107087e+001 -1.438721e+002 -1.412208e+001 1.799532e+002
10880000000 -3.232194e+000 -2.036102e+001 -2.983167e+001 -1.154658e+002 -3.005401e+001 -1.225622e+002 -1.567836e+001 1.631778e+002
10975000000 -4.759184e+000 -4.005159e+001 -2.425978e+001 -1.722269e+002 -2.416929e+001 -1.603865e+002 -1.547436e+001 1.554963e+002
11070000000 -6.254903e+000 -5.641670e+001 -2.034347e+001 1.458736e+002 -2.083392e+001 1.439239e+002 -1.563612e+001 1.630729e+002
11165000000 -8.278472e+000 -7.849648e+001 -2.065633e+001 8.147203e+001 -2.036048e+001 8.470805e+001 -1.160433e+001 1.595359e+002
11260000000 -1.314773e+001 -1.041071e+002 -1.978286e+001 3.208212e+001 -2.078823e+001 3.337822e+001 -1.013594e+001 1.357845e+002
11355000000 -2.204822e+001 -1.099760e+002 -2.126846e+001 -4.982656e+000 -2.092775e+001 -1.048538e+001 -1.103470e+001 1.136301e+002
11450000000 -2.814791e+001 -5.968749e+001 -1.960999e+001 -4.713534e+001 -1.965841e+001 -5.184603e+001 -1.160134e+001 1.102419e+002
11545000000 -3.362864e+001 7.481396e+000 -1.850758e+001 -1.043685e+002 -1.896489e+001 -1.029820e+002 -1.150096e+001 9.535225e+001
11640000000 -2.064323e+001 4.391122e+001 -1.793860e+001 -1.561264e+002 -1.867551e+001 -1.523027e+002 -1.074464e+001 9.606967e+001
11735000000 -1.528691e+001 2.712267e+001 -1.836348e+001 1.532262e+002 -1.839886e+001 1.566618e+002 -1.080677e+001 8.431364e+001
11830000000 -1.403900e+001 8.006555e+000 -1.804808e+001 1.040023e+002 -1.886128e+001 1.080041e+002 -1.148066e+001 7.675124e+001
11925000000 -1.366302e+001 -2.231344e+000 -1.873414e+001 6.472256e+001 -1.985402e+001 5.888614e+001 -1.195927e+001 6.455510e+001
12020000000 -1.387540e+001 -1.007873e+001 -2.075301e+001 1.711236e+001 -2.007526e+001 1.983133e+001 -1.129474e+001 5.830256e+001
12115000000 -1.425857e+001 -1.829586e+001 -2.003377e+001 -3.081216e+001 -1.922973e+001 -2.411533e+001 -1.114179e+001 3.984129e+001
12210000000 -1.604542e+001 -1.780494e+001 -1.834164e+001 -7.235435e+001 -1.886080e+001 -7.378833e+001 -1.226676e+001 5.131139e+001
12305000000 -1.659502e+001 1.389968e+000 -1.840149e+001 -1.187059e+002 -1.896913e+001 -1.216379e+002 -1.166073e+001 3.507963e+001
12400000000 -1.307127e+001 9.323850e+000 -1.974564e+001 -1.705719e+002 -1.904870e+001 -1.733714e+002 -9.733915e+000 3.870503e+001
12495000000 -1.051085e+001 -3.836799e+000 -1.937934e+001 1.325337e+002 -1.923239e+001 1.375756e+002 -9.179837e+000 1.802240e+001
12590000000 -9.930765e+000 -1.938330e+001 -2.044898e+001 9.549288e+001 -2.015456e+001 8.877530e+001 -9.368687e+000 1.558754e-001
12685000000 -1.071993e+001 -2.595148e+001 -2.241533e+001 5.253452e+001 -2.140350e+001 4.423400e+001 -1.067558e+001 2.654804e+000
12780000000 -1.044983e+001 -2.550875e+001 -2.306307e+001 1.557592e+001 -2.211894e+001 7.788787e+000 -1.048814e+001 -3.188792e+000
12875000000 -8.867446e+000 -3.257459e+001 -2.235484e+001 -2.313962e+001 -2.161612e+001 -3.466396e+001 -8.609893e+000 -1.427387e+001
12970000000 -7.904024e+000 -4.489140e+001 -2.175696e+001 -6.878748e+001 -2.108669e+001 -7.854311e+001 -8.070481e+000 -2.263012e+001
13065000000 -8.290158e+000 -6.079082e+001 -2.156445e+001 -1.244744e+002 -2.080937e+001 -1.307179e+002 -1.002836e+001 -4.256563e+001
13160000000 -9.260573e+000 -6.698790e+001 -2.315404e+001 -1.750952e+002 -2.250447e+001 1.778432e+002 -8.920951e+000 -4.710192e+001
13255000000 -9.488791e+000 -7.120455e+001 -2.560117e+001 1.514275e+002 -2.425539e+001 1.432970e+002 -8.842214e+000 -4.087873e+001
13350000000 -8.624961e+000 -8.087136e+001 -2.417853e+001 1.230780e+002 -2.393316e+001 1.181977e+002 -8.920778e+000 -5.690164e+001
13445000000 -8.239795e+000 -9.538849e+001 -2.182871e+001 7.850030e+001 -2.097104e+001 7.149869e+001 -8.082207e+000 -7.271915e+001
13540000000 -9.163180e+000 -1.160605e+002 -2.021723e+001 2.478337e+001 -2.059897e+001 1.899014e+001 -7.742474e+000 -7.994133e+001
13635000000 -1.104401e+001 -1.291875e+002 -2.035974e+001 -2.451478e+001 -2.045141e+001 -2.787433e+001 -9.255757e+000 -8.476099e+001
13730000000 -1.411560e+001 -1.344804e+002 -2.038194e+001 -6.406149e+001 -2.116943e+001 -6.833642e+001 -8.952771e+000 -9.665575e+001
13825000000 -1.624398e+001 -1.333044e+002 -1.921676e+001 -1.083527e+002 -1.966735e+001 -1.144326e+002 -1.057192e+001 -1.063239e+002
13920000000 -1.558006e+001 -1.299616e+002 -1.806119e+001 -1.552778e+002 -1.875012e+001 -1.567462e+002 -1.056191e+001 -1.220243e+002
14015000000 -1.714010e+001 -1.411574e+002 -1.692746e+001 1.540488e+002 -1.738349e+001 1.484639e+002 -1.088884e+001 -1.301972e+002
14110000000 -1.901649e+001 -1.386750e+002 -1.666021e+001 9.984180e+001 -1.717311e+001 9.362246e+001 -1.217440e+001 -1.230126e+002
14205000000 -1.706382e+001 -1.280267e+002 -1.692920e+001 4.928316e+001 -1.790064e+001 4.000969e+001 -1.467722e+001 -1.362413e+002
14300000000 -1.514923e+001 -1.473923e+002 -1.725397e+001 -3.817362e+000 -1.792636e+001 -9.076970e+000 -1.352950e+001 -1.634637e+002
14395000000 -1.524377e+001 -1.750806e+002 -1.769614e+001 -5.632401e+001 -1.793436e+001 -6.385442e+001 -1.386791e+001 -1.726356e+002
14490000000 -1.678609e+001 1.720953e+002 -1.891260e+001 -1.079529e+002 -2.004958e+001 -1.188934e+002 -1.775204e+001 1.785505e+002
14585000000 -1.646935e+001 1.542200e+002 -2.097336e+001 -1.566395e+002 -2.179374e+001 -1.579510e+002 -2.372530e+001 1.389039e+002
14680000000 -1.582356e+001 1.257218e+002 -2.205096e+001 1.632672e+002 -2.338316e+001 1.591508e+002 -2.366188e+001 9.353072e+001
14775000000 -1.689768e+001 8.251510e+001 -2.248266e+001 1.200681e+002 -2.457057e+001 1.178511e+002 -2.180546e+001 2.772302e+001
14870000000 -2.113689e+001 3.873341e+001 -2.451349e+001 8.478413e+001 -2.605087e+001 7.938078e+001 -1.765119e+001 -9.472929e-001
14965000000 -3.102210e+001 2.389924e+001 -2.311258e+001 5.621855e+001 -2.494020e+001 5.745195e+001 -1.953287e+001 -4.551470e+001
15060000000 -2.666393e+001 1.067018e+002 -2.125257e+001 9.041303e+000 -2.215927e+001 1.900684e+001 -1.840738e+001 -7.455963e+001
15155000000 -2.233283e+001 6.608543e+001 -2.046185e+001 -3.399926e+001 -2.127547e+001 -3.500126e+001 -1.434720e+001 -6.722750e+001
15250000000 -2.444938e+001 4.021424e+001 -2.091592e+001 -8.976755e+001 -2.126476e+001 -8.808224e+001 -1.861794e+001 -6.845599e+001
