!Agilent Technologies,N5230A,MY45001629,A.07.50.67
!Agilent N5230A: A.07.50.67
!Date: Monday, June 05, 2017 16:30:54
!Correction: S11(Full 2 Port(1,2)) 
!S21(Full 2 Port(1,2)) 
!S12(Full 2 Port(1,2)) 
!S22(Full 2 Port(1,2)) 
!S2P File: Measurements: S11, S21, S12, S22:
# Hz S  dB   R 50
1000000000 -2.186908e-001 5.255634e+001 -5.116780e+001 -7.045035e+000 -5.122188e+001 -1.417673e+001 -8.641133e-001 4.356789e+001
1095000000 -2.441330e-001 3.635589e+001 -4.261919e+001 -5.739019e+001 -4.325089e+001 -5.497020e+001 -1.094601e+000 2.647227e+001
1190000000 -3.989407e-001 1.801299e+001 -3.390088e+001 -1.060422e+002 -3.408991e+001 -1.066795e+002 -1.556319e+000 8.005167e+000
1285000000 -9.450527e-001 -2.233609e+000 -2.603494e+001 1.798895e+002 -2.606232e+001 -1.795256e+002 -2.348013e+000 -9.757691e+000
1380000000 -1.446201e+000 -2.441301e+001 -2.094728e+001 1.031982e+002 -2.098964e+001 1.034450e+002 -2.554674e+000 -2.924531e+001
1475000000 -2.994138e+000 -5.663955e+001 -1.520810e+001 3.223608e+001 -1.520377e+001 3.241129e+001 -3.441126e+000 -6.161046e+001
1570000000 -8.994837e+000 -9.760509e+001 -1.073635e+001 -5.352450e+001 -1.073520e+001 -5.348903e+001 -8.669412e+000 -1.025735e+002
1665000000 -2.122755e+001 -3.672194e+001 -9.320560e+000 -1.433667e+002 -9.328538e+000 -1.433281e+002 -1.999935e+001 -8.152049e+001
1760000000 -1.245905e+001 -3.235943e+000 -1.008451e+001 1.391552e+002 -1.009816e+001 1.392969e+002 -1.682343e+001 -1.783020e+001
1855000000 -8.156085e+000 -3.003923e+001 -1.084937e+001 7.953764e+001 -1.086097e+001 7.947440e+001 -1.117542e+001 -3.339545e+001
1950000000 -7.907075e+000 -6.030416e+001 -1.038714e+001 2.325940e+001 -1.034489e+001 2.336832e+001 -9.629743e+000 -5.936066e+001
2045000000 -1.043816e+001 -7.799590e+001 -9.335044e+000 -3.706329e+001 -9.317926e+000 -3.698014e+001 -1.132434e+001 -8.051362e+001
2140000000 -1.156597e+001 -7.637060e+001 -8.772977e+000 -9.744789e+001 -8.732298e+000 -9.765594e+001 -1.243245e+001 -7.400908e+001
2235000000 -9.870983e+000 -8.457591e+001 -8.741696e+000 -1.587611e+002 -8.732245e+000 -1.589668e+002 -1.043647e+001 -8.330552e+001
2330000000 -9.973986e+000 -1.069915e+002 -9.039677e+000 1.462495e+002 -9.047470e+000 1.461595e+002 -9.674171e+000 -1.048949e+002
2425000000 -1.201335e+001 -1.220482e+002 -8.782895e+000 9.077920e+001 -8.792197e+000 9.096716e+001 -1.099740e+001 -1.192392e+002
2520000000 -1.349847e+001 -1.307660e+002 -8.744258e+000 3.603727e+001 -8.764885e+000 3.630432e+001 -1.252765e+001 -1.321100e+002
2615000000 -1.575018e+001 -1.443390e+002 -8.712471e+000 -1.841976e+001 -8.706384e+000 -1.839136e+001 -1.401072e+001 -1.443941e+002
2710000000 -2.212662e+001 -1.289404e+002 -9.011336e+000 -7.300648e+001 -8.987332e+000 -7.294132e+001 -1.904144e+001 -1.338525e+002
2805000000 -1.722476e+001 -8.563168e+001 -9.196754e+000 -1.250215e+002 -9.161130e+000 -1.251930e+002 -1.662794e+001 -1.049757e+002
2900000000 -1.273071e+001 -1.046751e+002 -9.571179e+000 -1.747490e+002 -9.552245e+000 -1.748409e+002 -1.172594e+001 -1.134834e+002
2995000000 -1.186782e+001 -1.273573e+002 -9.301862e+000 1.374168e+002 -9.294119e+000 1.373158e+002 -1.090298e+001 -1.352770e+002
3090000000 -1.375120e+001 -1.403332e+002 -8.836069e+000 8.662492e+001 -8.842669e+000 8.672220e+001 -1.233674e+001 -1.516470e+002
3185000000 -1.490230e+001 -1.252829e+002 -8.571467e+000 3.392270e+001 -8.581880e+000 3.368960e+001 -1.479798e+001 -1.384298e+002
3280000000 -1.099106e+001 -1.222637e+002 -8.663088e+000 -1.903279e+001 -8.649245e+000 -1.909803e+001 -1.073638e+001 -1.339946e+002
3375000000 -8.663147e+000 -1.440800e+002 -9.003867e+000 -7.005048e+001 -9.020099e+000 -7.011369e+001 -8.559643e+000 -1.490800e+002
3470000000 -8.489965e+000 -1.645520e+002 -9.144635e+000 -1.179134e+002 -9.163661e+000 -1.180762e+002 -8.359016e+000 -1.707463e+002
3565000000 -9.218211e+000 -1.799967e+002 -9.135345e+000 -1.670824e+002 -9.144727e+000 -1.672349e+002 -8.811830e+000 1.752195e+002
3660000000 -1.035270e+001 1.691249e+002 -8.944631e+000 1.447168e+002 -8.968393e+000 1.444555e+002 -9.629322e+000 1.661830e+002
3755000000 -1.101323e+001 1.628399e+002 -8.699087e+000 9.472207e+001 -8.698614e+000 9.462651e+001 -9.796874e+000 1.547537e+002
3850000000 -1.192579e+001 1.573103e+002 -8.558821e+000 4.415911e+001 -8.583012e+000 4.406428e+001 -1.118394e+001 1.430652e+002
3945000000 -1.272668e+001 1.543325e+002 -8.436837e+000 -6.893385e+000 -8.437949e+000 -7.167040e+000 -1.314683e+001 1.375445e+002
4040000000 -1.268426e+001 1.508732e+002 -8.534848e+000 -5.785318e+001 -8.516837e+000 -5.812129e+001 -1.339705e+001 1.370293e+002
4135000000 -1.407171e+001 1.428703e+002 -8.576327e+000 -1.107446e+002 -8.591006e+000 -1.108275e+002 -1.513563e+001 1.245746e+002
4230000000 -1.630515e+001 1.607619e+002 -9.396461e+000 -1.642625e+002 -9.439555e+000 -1.644585e+002 -1.963057e+001 1.500032e+002
4325000000 -1.239769e+001 1.698393e+002 -1.069292e+001 1.488802e+002 -1.072476e+001 1.486124e+002 -1.333506e+001 1.666660e+002
4420000000 -1.012300e+001 1.576243e+002 -1.135657e+001 1.077019e+002 -1.139910e+001 1.074783e+002 -1.130653e+001 1.473171e+002
4515000000 -8.987358e+000 1.442751e+002 -1.100301e+001 6.514716e+001 -1.102706e+001 6.511408e+001 -1.054699e+001 1.311717e+002
4610000000 -8.020110e+000 1.290990e+002 -1.047986e+001 1.872237e+001 -1.046664e+001 1.876777e+001 -1.034834e+001 1.131260e+002
4705000000 -7.962650e+000 1.096505e+002 -1.010573e+001 -3.057516e+001 -1.012165e+001 -3.067574e+001 -1.023541e+001 9.455247e+001
4800000000 -9.043968e+000 8.879662e+001 -1.001094e+001 -8.038573e+001 -1.000604e+001 -8.049661e+001 -1.201290e+001 7.639296e+001
4895000000 -1.161314e+001 7.474030e+001 -1.001848e+001 -1.302464e+002 -1.000058e+001 -1.304892e+002 -1.325558e+001 5.909719e+001
4990000000 -1.465912e+001 7.128178e+001 -1.026744e+001 1.793157e+002 -1.028326e+001 1.792656e+002 -1.505086e+001 4.288454e+001
5085000000 -1.676205e+001 7.844184e+001 -1.063943e+001 1.304103e+002 -1.065394e+001 1.302292e+002 -1.763297e+001 2.844382e+001
5180000000 -1.679626e+001 9.174901e+001 -1.114192e+001 8.298398e+001 -1.117273e+001 8.270422e+001 -2.228818e+001 1.967430e+001
5275000000 -1.516200e+001 9.681190e+001 -1.142017e+001 3.603393e+001 -1.140761e+001 3.593245e+001 -2.579880e+001 3.881075e+001
5370000000 -1.323853e+001 8.432740e+001 -1.189240e+001 -1.068966e+001 -1.189413e+001 -1.077307e+001 -2.188206e+001 5.246976e+001
5465000000 -1.335887e+001 6.445483e+001 -1.213632e+001 -5.503571e+001 -1.213929e+001 -5.511420e+001 -1.898043e+001 2.618621e+001
5560000000 -1.587208e+001 4.752018e+001 -1.203761e+001 -1.002663e+002 -1.208514e+001 -1.002640e+002 -2.002463e+001 -7.359045e+000
5655000000 -1.951388e+001 5.930457e+001 -1.173183e+001 -1.488470e+002 -1.171054e+001 -1.489763e+002 -2.539444e+001 -3.122779e+001
5750000000 -1.589015e+001 6.987695e+001 -1.196337e+001 1.604015e+002 -1.197468e+001 1.600806e+002 -2.447898e+001 2.611794e+001
5845000000 -1.402551e+001 4.447471e+001 -1.296832e+001 1.107504e+002 -1.304458e+001 1.104802e+002 -1.794902e+001 -3.209116e+000
5940000000 -1.461245e+001 1.134789e+001 -1.396223e+001 6.774748e+001 -1.397058e+001 6.786906e+001 -1.547404e+001 -3.657466e+001
6035000000 -1.700596e+001 -2.435107e+001 -1.447734e+001 2.644873e+001 -1.445609e+001 2.664289e+001 -1.422302e+001 -6.974380e+001
6130000000 -1.916707e+001 -8.066860e+001 -1.420332e+001 -1.202579e+001 -1.425405e+001 -1.187884e+001 -1.461710e+001 -1.099046e+002
6225000000 -1.932920e+001 -1.636940e+002 -1.368207e+001 -5.539406e+001 -1.366823e+001 -5.544739e+001 -1.691522e+001 -1.480362e+002
6320000000 -1.808417e+001 1.222489e+002 -1.284596e+001 -1.010151e+002 -1.286738e+001 -1.013956e+002 -2.593151e+001 1.695643e+002
6415000000 -2.083897e+001 6.361521e+001 -1.251605e+001 -1.512372e+002 -1.243262e+001 -1.512146e+002 -2.933731e+001 -2.266533e+001
6510000000 -3.538521e+001 -5.358125e+000 -1.279852e+001 1.603041e+002 -1.273597e+001 1.604667e+002 -1.815231e+001 -7.439111e+001
6605000000 -2.506427e+001 1.572887e+002 -1.276149e+001 1.142488e+002 -1.273464e+001 1.141479e+002 -1.572548e+001 -1.077548e+002
6700000000 -1.998085e+001 1.202972e+002 -1.261076e+001 6.747549e+001 -1.269738e+001 6.751021e+001 -1.603587e+001 -1.388445e+002
6795000000 -1.909769e+001 8.016952e+001 -1.262025e+001 2.151185e+001 -1.267153e+001 2.122626e+001 -1.866603e+001 -1.575721e+002
6890000000 -2.151668e+001 3.390218e+001 -1.264204e+001 -2.473269e+001 -1.266922e+001 -2.537852e+001 -2.103907e+001 -1.368796e+002
6985000000 -2.488756e+001 -4.879739e+001 -1.255072e+001 -7.140731e+001 -1.252560e+001 -7.189510e+001 -1.684697e+001 -1.343685e+002
7080000000 -2.091325e+001 -1.296578e+002 -1.244127e+001 -1.198929e+002 -1.238925e+001 -1.198698e+002 -1.363416e+001 -1.458480e+002
7175000000 -1.709764e+001 -1.742016e+002 -1.253627e+001 -1.680005e+002 -1.250085e+001 -1.675075e+002 -1.293415e+001 -1.699234e+002
7270000000 -1.514340e+001 1.596193e+002 -1.271887e+001 1.453423e+002 -1.273150e+001 1.453333e+002 -1.239837e+001 1.735469e+002
7365000000 -1.469748e+001 1.387535e+002 -1.279327e+001 9.957315e+001 -1.290767e+001 9.953376e+001 -1.281827e+001 1.594447e+002
7460000000 -1.479005e+001 1.262166e+002 -1.291038e+001 5.414956e+001 -1.295844e+001 5.380453e+001 -1.243551e+001 1.503416e+002
7555000000 -1.447560e+001 1.212492e+002 -1.283373e+001 8.850554e+000 -1.274892e+001 9.019183e+000 -1.230433e+001 1.386698e+002
7650000000 -1.369216e+001 1.115209e+002 -1.263793e+001 -3.736239e+001 -1.254924e+001 -3.748622e+001 -1.169710e+001 1.266238e+002
7745000000 -1.326149e+001 9.808118e+001 -1.229990e+001 -8.555602e+001 -1.232200e+001 -8.552059e+001 -1.203337e+001 1.116035e+002
7840000000 -1.447644e+001 8.628800e+001 -1.220289e+001 -1.341136e+002 -1.226930e+001 -1.335957e+002 -1.290691e+001 1.052279e+002
7935000000 -1.600448e+001 8.827193e+001 -1.227897e+001 1.792045e+002 -1.226572e+001 1.788218e+002 -1.321622e+001 1.027669e+002
8030000000 -1.518683e+001 9.259916e+001 -1.233104e+001 1.312556e+002 -1.220382e+001 1.307393e+002 -1.230595e+001 9.869772e+001
8125000000 -1.389858e+001 8.347089e+001 -1.224678e+001 8.228501e+001 -1.218386e+001 8.231309e+001 -1.167680e+001 8.504637e+001
8220000000 -1.526811e+001 7.131539e+001 -1.237023e+001 3.225022e+001 -1.239664e+001 3.273865e+001 -1.202825e+001 7.814388e+001
8315000000 -1.697937e+001 8.305583e+001 -1.285236e+001 -1.599891e+001 -1.288614e+001 -1.557820e+001 -1.259947e+001 7.043905e+001
8410000000 -1.424672e+001 9.247548e+001 -1.342164e+001 -6.249736e+001 -1.331309e+001 -6.210841e+001 -1.177638e+001 6.501510e+001
8505000000 -1.200723e+001 7.863686e+001 -1.352588e+001 -1.067801e+002 -1.361693e+001 -1.070878e+002 -1.099914e+001 5.767962e+001
8600000000 -1.176688e+001 5.886795e+001 -1.344000e+001 -1.514709e+002 -1.356852e+001 -1.514062e+002 -1.001988e+001 4.041846e+001
8695000000 -1.386335e+001 4.903432e+001 -1.337271e+001 1.614434e+002 -1.341629e+001 1.612191e+002 -1.117034e+001 2.422986e+001
8790000000 -1.433013e+001 5.119929e+001 -1.327139e+001 1.127400e+002 -1.313298e+001 1.125315e+002 -1.162156e+001 1.420812e+001
8885000000 -1.284339e+001 4.334177e+001 -1.336923e+001 6.127840e+001 -1.328243e+001 6.144112e+001 -1.179810e+001 7.036725e+000
8980000000 -1.436886e+001 2.052044e+001 -1.403579e+001 1.189719e+001 -1.411651e+001 1.222819e+001 -1.063551e+001 -8.805174e+000
9075000000 -1.939906e+001 -2.190276e+000 -1.480718e+001 -3.213880e+001 -1.488314e+001 -3.162761e+001 -1.222322e+001 -3.254485e+001
9170000000 -2.341431e+001 7.762544e+001 -1.477125e+001 -7.327763e+001 -1.485751e+001 -7.419879e+001 -1.437131e+001 -5.456139e+001
9265000000 -1.607955e+001 6.096135e+001 -1.420425e+001 -1.216965e+002 -1.412804e+001 -1.220109e+002 -1.732340e+001 -3.931376e+001
9360000000 -1.673445e+001 2.363839e+001 -1.435076e+001 -1.757350e+002 -1.429971e+001 -1.755347e+002 -1.415176e+001 -5.013531e+001
9455000000 -2.892990e+001 6.726748e+000 -1.518678e+001 1.344078e+002 -1.520182e+001 1.339510e+002 -1.368580e+001 -7.292902e+001
9550000000 -2.023100e+001 1.163997e+002 -1.621860e+001 8.851304e+001 -1.630135e+001 8.725327e+001 -1.425204e+001 -1.105879e+002
9645000000 -1.478070e+001 8.463318e+001 -1.673679e+001 4.720505e+001 -1.659307e+001 4.597848e+001 -1.926400e+001 -1.247620e+002
9740000000 -1.526350e+001 5.335053e+001 -1.644752e+001 -1.816325e+000 -1.626799e+001 -1.700372e+000 -2.150511e+001 -9.991064e+001
9835000000 -2.385685e+001 5.214255e+001 -1.698981e+001 -5.562883e+001 -1.693485e+001 -5.515265e+001 -1.478744e+001 -1.057456e+002
9930000000 -1.726774e+001 1.170263e+002 -1.824286e+001 -1.012071e+002 -1.839910e+001 -1.011803e+002 -1.306692e+001 -1.400798e+002
10025000000 -1.224457e+001 1.022754e+002 -1.892651e+001 -1.420138e+002 -1.920727e+001 -1.421584e+002 -1.353619e+001 -1.646825e+002
10120000000 -1.080382e+001 8.650713e+001 -1.895312e+001 1.732117e+002 -1.885896e+001 1.715785e+002 -1.411402e+001 1.739709e+002
10215000000 -9.573401e+000 8.312428e+001 -1.969947e+001 1.211841e+002 -1.954958e+001 1.201309e+002 -1.673904e+001 1.657393e+002
10310000000 -7.201384e+000 7.433463e+001 -2.182963e+001 7.138721e+001 -2.164043e+001 7.118566e+001 -1.594705e+001 1.533161e+002
10405000000 -5.901888e+000 5.683092e+001 -2.338843e+001 3.509018e+001 -2.349791e+001 3.723630e+001 -1.856667e+001 1.392047e+002
10500000000 -5.655072e+000 4.316048e+001 -2.258825e+001 -6.112595e-001 -2.277292e+001 6.653281e-001 -2.123991e+001 1.224580e+002
10595000000 -5.089317e+000 3.493783e+001 -2.222980e+001 -4.396596e+001 -2.207044e+001 -5.300200e+001 -2.671482e+001 -1.666104e+002
10690000000 -3.821568e+000 2.367800e+001 -2.447413e+001 -1.137806e+002 -2.462169e+001 -1.098579e+002 -1.843262e+001 -1.629949e+002
10785000000 -2.982179e+000 3.025947e+000 -2.937350e+001 -1.251171e+002 -3.118795e+001 -1.364357e+002 -1.476018e+001 1.799460e+002
10880000000 -3.254623e+000 -2.107479e+001 -3.126580e+001 -1.131513e+002 -2.985246e+001 -1.220245e+002 -1.500188e+001 1.628789e+002
10975000000 -4.814936e+000 -4.066938e+001 -2.291445e+001 -1.630393e+002 -2.414827e+001 -1.577139e+002 -1.462342e+001 1.555977e+002
11070000000 -6.393212e+000 -5.711890e+001 -2.093498e+001 1.493362e+002 -2.074772e+001 1.437784e+002 -1.546043e+001 1.649447e+002
11165000000 -8.340797e+000 -7.879904e+001 -1.937304e+001 8.368137e+001 -1.994639e+001 8.546243e+001 -1.172407e+001 1.608653e+002
11260000000 -1.298693e+001 -1.048868e+002 -2.007855e+001 4.115916e+001 -2.055128e+001 3.698398e+001 -1.010224e+001 1.365866e+002
11355000000 -2.191395e+001 -1.123164e+002 -2.108529e+001 -1.039101e+001 -2.086257e+001 -7.224243e+000 -1.060528e+001 1.152310e+002
11450000000 -2.888325e+001 -5.244047e+001 -2.036983e+001 -4.710184e+001 -1.966711e+001 -5.126649e+001 -1.142842e+001 1.108767e+002
11545000000 -3.201596e+001 9.330938e+000 -1.868528e+001 -9.787585e+001 -1.888606e+001 -9.856361e+001 -1.115124e+001 9.616563e+001
11640000000 -2.091148e+001 4.243148e+001 -1.817706e+001 -1.467628e+002 -1.874551e+001 -1.520044e+002 -1.059832e+001 9.589576e+001
11735000000 -1.516908e+001 2.675199e+001 -1.807768e+001 1.598395e+002 -1.855347e+001 1.599350e+002 -1.095625e+001 8.665937e+001
11830000000 -1.408663e+001 8.197883e+000 -1.874327e+001 1.148223e+002 -1.884475e+001 1.089021e+002 -1.139884e+001 7.906004e+001
11925000000 -1.385046e+001 -2.232994e+000 -2.020322e+001 6.780129e+001 -1.982835e+001 6.317146e+001 -1.226804e+001 6.839568e+001
12020000000 -1.394275e+001 -9.837721e+000 -1.985187e+001 1.141284e+001 -1.981021e+001 1.978835e+001 -1.157880e+001 6.140379e+001
12115000000 -1.428578e+001 -1.786966e+001 -1.862660e+001 -2.409210e+001 -1.924732e+001 -2.294687e+001 -1.142674e+001 4.001945e+001
12210000000 -1.583810e+001 -1.741468e+001 -1.902313e+001 -6.712828e+001 -1.888474e+001 -7.112751e+001 -1.255396e+001 5.331758e+001
12305000000 -1.658774e+001 5.974026e-001 -1.952289e+001 -1.185129e+002 -1.897644e+001 -1.204481e+002 -1.199226e+001 3.651690e+001
12400000000 -1.326632e+001 8.217781e+000 -1.889327e+001 -1.748577e+002 -1.895877e+001 -1.735473e+002 -1.003427e+001 3.947878e+001
12495000000 -1.059194e+001 -3.304143e+000 -1.848137e+001 1.440827e+002 -1.926404e+001 1.395505e+002 -9.613975e+000 1.740458e+001
12590000000 -9.950210e+000 -1.885021e+001 -1.927367e+001 9.735699e+001 -1.983529e+001 9.034820e+001 -9.041967e+000 1.027271e+000
12685000000 -1.075158e+001 -2.629381e+001 -2.101881e+001 5.361370e+001 -2.145964e+001 4.564935e+001 -1.079893e+001 9.481069e-002
12780000000 -1.054992e+001 -2.486708e+001 -2.160975e+001 1.840404e+001 -2.210538e+001 9.451116e+000 -1.024372e+001 -3.067163e+000
12875000000 -8.933868e+000 -3.148189e+001 -2.068150e+001 -2.383037e+001 -2.166110e+001 -3.283565e+001 -8.749331e+000 -1.532975e+001
12970000000 -7.977197e+000 -4.443397e+001 -2.063877e+001 -6.781675e+001 -2.118031e+001 -7.870885e+001 -8.241592e+000 -2.364124e+001
13065000000 -8.275385e+000 -6.053098e+001 -2.048653e+001 -1.214255e+002 -2.075492e+001 -1.319864e+002 -9.832358e+000 -4.561869e+001
13160000000 -9.192535e+000 -6.690055e+001 -2.161886e+001 -1.757959e+002 -2.246179e+001 -1.795766e+002 -8.778996e+000 -4.452169e+001
13255000000 -9.558785e+000 -7.133385e+001 -2.400727e+001 1.569935e+002 -2.458376e+001 1.477295e+002 -9.281770e+000 -4.323131e+001
13350000000 -8.635704e+000 -8.089153e+001 -2.263835e+001 1.286008e+002 -2.418096e+001 1.144073e+002 -8.870373e+000 -5.952172e+001
13445000000 -8.194901e+000 -9.438879e+001 -2.098668e+001 8.061235e+001 -2.146413e+001 7.296107e+001 -7.894362e+000 -7.349092e+001
13540000000 -9.115810e+000 -1.152385e+002 -2.015910e+001 2.862211e+001 -1.998875e+001 2.189114e+001 -7.802442e+000 -7.847450e+001
13635000000 -1.108784e+001 -1.287956e+002 -2.031797e+001 -1.972606e+001 -2.092857e+001 -2.454188e+001 -9.257021e+000 -8.705663e+001
13730000000 -1.390606e+001 -1.335580e+002 -2.002954e+001 -6.585489e+001 -2.078104e+001 -6.916059e+001 -8.464730e+000 -9.747411e+001
13825000000 -1.622913e+001 -1.341023e+002 -1.940918e+001 -1.082958e+002 -1.993899e+001 -1.114141e+002 -1.025306e+001 -1.057355e+002
13920000000 -1.555534e+001 -1.303521e+002 -1.765242e+001 -1.548374e+002 -1.860786e+001 -1.578205e+002 -1.096999e+001 -1.198335e+002
14015000000 -1.684691e+001 -1.419086e+002 -1.693843e+001 1.516798e+002 -1.797331e+001 1.508943e+002 -1.064105e+001 -1.298775e+002
14110000000 -1.909853e+001 -1.422204e+002 -1.658057e+001 9.914798e+001 -1.757158e+001 9.720625e+001 -1.172878e+001 -1.230791e+002
14205000000 -1.712841e+001 -1.279922e+002 -1.659924e+001 4.501078e+001 -1.744312e+001 4.381681e+001 -1.467487e+001 -1.313111e+002
14300000000 -1.514837e+001 -1.468168e+002 -1.731251e+001 -9.399285e+000 -1.788415e+001 -7.227314e+000 -1.396822e+001 -1.629970e+002
14395000000 -1.499015e+001 -1.730912e+002 -1.733038e+001 -6.342756e+001 -1.863071e+001 -6.158398e+001 -1.357849e+001 -1.684989e+002
14490000000 -1.661899e+001 1.705225e+002 -1.831921e+001 -1.162807e+002 -1.972679e+001 -1.150541e+002 -1.787682e+001 -1.760566e+002
14585000000 -1.644747e+001 1.528741e+002 -2.040756e+001 -1.647687e+002 -2.254447e+001 -1.581787e+002 -2.760520e+001 1.292299e+002
14680000000 -1.570161e+001 1.286956e+002 -2.152796e+001 1.549186e+002 -2.329679e+001 1.597641e+002 -2.318091e+001 8.897926e+001
14775000000 -1.664575e+001 8.307197e+001 -2.226120e+001 1.140807e+002 -2.483572e+001 1.218202e+002 -2.368392e+001 3.299877e+001
14870000000 -2.064555e+001 3.737011e+001 -2.413255e+001 7.438023e+001 -2.655076e+001 8.725480e+001 -1.850878e+001 -1.431780e+001
14965000000 -3.141681e+001 2.142060e+001 -2.387975e+001 4.911163e+001 -2.443786e+001 6.421622e+001 -1.708340e+001 -4.293355e+001
15060000000 -2.691418e+001 1.090608e+002 -2.215651e+001 7.222486e+000 -2.222802e+001 1.692936e+001 -1.788964e+001 -6.557256e+001
15155000000 -2.197168e+001 6.932492e+001 -2.048503e+001 -4.147314e+001 -2.074048e+001 -3.412155e+001 -1.571981e+001 -6.102248e+001
15250000000 -2.356447e+001 4.380468e+001 -2.044777e+001 -8.876497e+001 -2.139569e+001 -8.441947e+001 -1.733953e+001 -7.514763e+001
