!Agilent Technologies,N5230A,MY45001629,A.07.50.67
!Agilent N5230A: A.07.50.67
!Date: Monday, June 05, 2017 16:30:32
!Correction: S11(Full 2 Port(1,2)) 
!S21(Full 2 Port(1,2)) 
!S12(Full 2 Port(1,2)) 
!S22(Full 2 Port(1,2)) 
!S2P File: Measurements: S11, S21, S12, S22:
# Hz S  dB   R 50
1000000000 -2.223768e-001 5.265113e+001 -5.362321e+001 -2.387911e+001 -5.174166e+001 -1.301474e+001 -8.612079e-001 4.362330e+001
1095000000 -2.416254e-001 3.649454e+001 -4.384205e+001 -5.490732e+001 -4.320182e+001 -5.377556e+001 -1.097772e+000 2.648697e+001
1190000000 -3.954768e-001 1.812136e+001 -3.425850e+001 -1.054669e+002 -3.409841e+001 -1.061438e+002 -1.572254e+000 7.975421e+000
1285000000 -9.474946e-001 -2.120552e+000 -2.609737e+001 -1.792212e+002 -2.607573e+001 -1.796760e+002 -2.347250e+000 -9.757137e+000
1380000000 -1.452298e+000 -2.426038e+001 -2.097840e+001 1.037071e+002 -2.096797e+001 1.033138e+002 -2.552782e+000 -2.926246e+001
1475000000 -2.976464e+000 -5.656034e+001 -1.521777e+001 3.232592e+001 -1.519605e+001 3.215113e+001 -3.415952e+000 -6.164911e+001
1570000000 -8.952638e+000 -9.746249e+001 -1.070908e+001 -5.354265e+001 -1.071077e+001 -5.353982e+001 -8.625975e+000 -1.026145e+002
1665000000 -2.141437e+001 -3.708100e+001 -9.283151e+000 -1.436042e+002 -9.297817e+000 -1.436682e+002 -2.002859e+001 -8.180052e+001
1760000000 -1.247645e+001 -2.479081e+000 -1.007669e+001 1.390432e+002 -1.009195e+001 1.389858e+002 -1.665874e+001 -1.660010e+001
1855000000 -8.104227e+000 -2.962463e+001 -1.082805e+001 7.908360e+001 -1.084286e+001 7.912278e+001 -1.109575e+001 -3.288457e+001
1950000000 -7.850468e+000 -6.006195e+001 -1.033081e+001 2.288142e+001 -1.032422e+001 2.295957e+001 -9.582029e+000 -5.915929e+001
2045000000 -1.034825e+001 -7.781672e+001 -9.306775e+000 -3.734209e+001 -9.279997e+000 -3.729313e+001 -1.133855e+001 -8.057699e+001
2140000000 -1.149207e+001 -7.653097e+001 -8.700281e+000 -9.767943e+001 -8.674670e+000 -9.776532e+001 -1.244415e+001 -7.467912e+001
2235000000 -9.877618e+000 -8.511070e+001 -8.652028e+000 -1.589946e+002 -8.661427e+000 -1.592733e+002 -1.053338e+001 -8.429447e+001
2330000000 -1.009902e+001 -1.074489e+002 -8.949835e+000 1.456160e+002 -8.952313e+000 1.455031e+002 -9.945132e+000 -1.053252e+002
2425000000 -1.224922e+001 -1.218173e+002 -8.659000e+000 8.979421e+001 -8.701512e+000 9.001585e+001 -1.112466e+001 -1.183277e+002
2520000000 -1.359324e+001 -1.288199e+002 -8.713302e+000 3.529405e+001 -8.720906e+000 3.531279e+001 -1.248169e+001 -1.305402e+002
2615000000 -1.564861e+001 -1.417479e+002 -8.685592e+000 -1.945358e+001 -8.662355e+000 -1.937957e+001 -1.357295e+001 -1.432810e+002
2710000000 -2.129444e+001 -1.281278e+002 -8.949351e+000 -7.387769e+001 -8.932985e+000 -7.385807e+001 -1.854955e+001 -1.347997e+002
2805000000 -1.713572e+001 -8.883929e+001 -9.110684e+000 -1.260536e+002 -9.089240e+000 -1.262621e+002 -1.660843e+001 -1.080589e+002
2900000000 -1.288277e+001 -1.067693e+002 -9.508545e+000 -1.764088e+002 -9.481984e+000 -1.764050e+002 -1.206953e+001 -1.124642e+002
2995000000 -1.226196e+001 -1.286758e+002 -9.252392e+000 1.357565e+002 -9.249587e+000 1.356803e+002 -1.104684e+001 -1.341269e+002
3090000000 -1.438449e+001 -1.388661e+002 -8.810217e+000 8.497105e+001 -8.819020e+000 8.483897e+001 -1.265798e+001 -1.501475e+002
3185000000 -1.483370e+001 -1.200457e+002 -8.603849e+000 3.184179e+001 -8.615994e+000 3.166561e+001 -1.456025e+001 -1.345757e+002
3280000000 -1.055329e+001 -1.207473e+002 -8.757028e+000 -2.115695e+001 -8.765800e+000 -2.123110e+001 -1.037490e+001 -1.343301e+002
3375000000 -8.396071e+000 -1.439770e+002 -9.105289e+000 -7.164666e+001 -9.129316e+000 -7.170195e+001 -8.498025e+000 -1.509490e+002
3470000000 -8.261636e+000 -1.648738e+002 -9.228871e+000 -1.195051e+002 -9.248629e+000 -1.196155e+002 -8.416821e+000 -1.724217e+002
3565000000 -8.993226e+000 1.785922e+002 -9.193876e+000 -1.690480e+002 -9.192614e+000 -1.691720e+002 -8.952745e+000 1.745372e+002
3660000000 -1.028943e+001 1.662575e+002 -8.975246e+000 1.425415e+002 -9.004461e+000 1.424970e+002 -9.905559e+000 1.657031e+002
3755000000 -1.147453e+001 1.594456e+002 -8.747934e+000 9.209958e+001 -8.754725e+000 9.180789e+001 -1.018648e+001 1.551048e+002
3850000000 -1.298019e+001 1.586878e+002 -8.710722e+000 4.048912e+001 -8.709280e+000 4.027652e+001 -1.167782e+001 1.465455e+002
3945000000 -1.304132e+001 1.624246e+002 -8.761963e+000 -1.121869e+001 -8.754297e+000 -1.148165e+001 -1.265099e+001 1.429684e+002
4040000000 -1.196798e+001 1.560317e+002 -9.008514e+000 -6.135818e+001 -9.022779e+000 -6.164261e+001 -1.213780e+001 1.365091e+002
4135000000 -1.308928e+001 1.438546e+002 -9.106361e+000 -1.134834e+002 -9.100869e+000 -1.138962e+002 -1.438162e+001 1.160311e+002
4230000000 -1.557739e+001 1.542543e+002 -9.998335e+000 -1.677103e+002 -1.000556e+001 -1.676922e+002 -2.277885e+001 1.387357e+002
4325000000 -1.273332e+001 1.640993e+002 -1.149815e+001 1.455446e+002 -1.153281e+001 1.451402e+002 -1.436190e+001 1.739615e+002
4420000000 -1.099337e+001 1.554750e+002 -1.239912e+001 1.049283e+002 -1.241834e+001 1.046239e+002 -1.127569e+001 1.529423e+002
4515000000 -9.811451e+000 1.473025e+002 -1.225129e+001 6.451633e+001 -1.226951e+001 6.455075e+001 -1.006336e+001 1.363172e+002
4610000000 -8.264117e+000 1.344601e+002 -1.156166e+001 2.023932e+001 -1.156936e+001 2.013413e+001 -9.520035e+000 1.152943e+002
4705000000 -7.741376e+000 1.143160e+002 -1.109339e+001 -2.802143e+001 -1.114004e+001 -2.814678e+001 -9.397780e+000 9.236252e+001
4800000000 -8.581986e+000 9.209966e+001 -1.087050e+001 -7.728718e+001 -1.084270e+001 -7.734445e+001 -1.146374e+001 6.928985e+001
4895000000 -1.087251e+001 7.637016e+001 -1.071750e+001 -1.273021e+002 -1.074384e+001 -1.276019e+002 -1.360815e+001 5.023415e+001
4990000000 -1.352467e+001 6.883368e+001 -1.102690e+001 -1.773871e+002 -1.106594e+001 -1.774467e+002 -1.641857e+001 3.821036e+001
5085000000 -1.632311e+001 6.662346e+001 -1.139126e+001 1.342546e+002 -1.140589e+001 1.339792e+002 -1.954245e+001 3.202566e+001
5180000000 -1.905779e+001 8.589831e+001 -1.186693e+001 8.790913e+001 -1.187827e+001 8.779787e+001 -2.380070e+001 3.587270e+001
5275000000 -1.629174e+001 1.068488e+002 -1.200080e+001 4.131702e+001 -1.194900e+001 4.133032e+001 -2.399959e+001 5.600130e+001
5370000000 -1.309506e+001 9.303934e+001 -1.226361e+001 -4.461335e+000 -1.228299e+001 -4.473725e+000 -1.914264e+001 4.915221e+001
5465000000 -1.266363e+001 7.018385e+001 -1.229169e+001 -4.915752e+001 -1.229846e+001 -4.887536e+001 -1.767459e+001 1.850555e+001
5560000000 -1.472526e+001 4.967487e+001 -1.196426e+001 -9.525577e+001 -1.197627e+001 -9.499876e+001 -1.978259e+001 -1.999918e+001
5655000000 -1.839009e+001 5.373995e+001 -1.165050e+001 -1.452077e+002 -1.163256e+001 -1.451004e+002 -2.752945e+001 -4.507250e+001
5750000000 -1.587778e+001 6.431465e+001 -1.196033e+001 1.632826e+002 -1.198608e+001 1.630452e+002 -2.498566e+001 3.466094e+001
5845000000 -1.435002e+001 3.959264e+001 -1.303513e+001 1.134597e+002 -1.311084e+001 1.136592e+002 -1.831170e+001 -3.345256e-002
5940000000 -1.534986e+001 6.581440e+000 -1.413999e+001 7.121146e+001 -1.415659e+001 7.147659e+001 -1.596947e+001 -3.337402e+001
6035000000 -1.840587e+001 -2.763794e+001 -1.464063e+001 3.084462e+001 -1.458797e+001 3.107382e+001 -1.464764e+001 -6.948807e+001
6130000000 -2.066072e+001 -8.459726e+001 -1.429676e+001 -7.116190e+000 -1.429150e+001 -7.089772e+000 -1.501550e+001 -1.082359e+002
6225000000 -2.025547e+001 -1.705034e+002 -1.355596e+001 -5.119563e+001 -1.351788e+001 -5.089531e+001 -1.758582e+001 -1.417648e+002
6320000000 -1.839982e+001 1.173654e+002 -1.268005e+001 -9.716037e+001 -1.263623e+001 -9.753671e+001 -2.793130e+001 -1.728394e+002
6415000000 -2.091465e+001 5.852530e+001 -1.225190e+001 -1.474127e+002 -1.223420e+001 -1.475039e+002 -3.033255e+001 -7.009058e+001
6510000000 -3.340069e+001 -2.580276e+001 -1.247264e+001 1.634878e+002 -1.246453e+001 1.634115e+002 -1.913124e+001 -8.324754e+001
6605000000 -2.481539e+001 1.654491e+002 -1.247517e+001 1.165168e+002 -1.245910e+001 1.166645e+002 -1.699059e+001 -1.106028e+002
6700000000 -1.981367e+001 1.255609e+002 -1.235830e+001 6.998956e+001 -1.241682e+001 7.002896e+001 -1.716276e+001 -1.384618e+002
6795000000 -1.909229e+001 8.424335e+001 -1.236967e+001 2.344707e+001 -1.245268e+001 2.316505e+001 -1.953907e+001 -1.486737e+002
6890000000 -2.158301e+001 3.898305e+001 -1.241947e+001 -2.319833e+001 -1.242407e+001 -2.345635e+001 -2.027313e+001 -1.322928e+002
6985000000 -2.607666e+001 -4.323463e+001 -1.235074e+001 -6.954654e+001 -1.229232e+001 -6.987456e+001 -1.619240e+001 -1.341942e+002
7080000000 -2.207734e+001 -1.290578e+002 -1.223412e+001 -1.180469e+002 -1.216759e+001 -1.179954e+002 -1.358003e+001 -1.471646e+002
7175000000 -1.790941e+001 -1.715269e+002 -1.226836e+001 -1.656202e+002 -1.227937e+001 -1.658093e+002 -1.276938e+001 -1.713351e+002
7270000000 -1.561923e+001 1.646536e+002 -1.245224e+001 1.473370e+002 -1.252082e+001 1.475321e+002 -1.228646e+001 1.731843e+002
7365000000 -1.461440e+001 1.444797e+002 -1.258955e+001 1.017373e+002 -1.262283e+001 1.015077e+002 -1.268840e+001 1.576815e+002
7460000000 -1.426278e+001 1.299265e+002 -1.260920e+001 5.617695e+001 -1.259445e+001 5.576049e+001 -1.257803e+001 1.487259e+002
7555000000 -1.399706e+001 1.212176e+002 -1.247355e+001 1.041709e+001 -1.240762e+001 1.033065e+001 -1.269483e+001 1.374610e+002
7650000000 -1.346096e+001 1.098097e+002 -1.215594e+001 -3.659580e+001 -1.216237e+001 -3.634701e+001 -1.204390e+001 1.289303e+002
7745000000 -1.336523e+001 9.744613e+001 -1.192140e+001 -8.508204e+001 -1.194989e+001 -8.481718e+001 -1.234580e+001 1.161476e+002
7840000000 -1.464344e+001 8.633231e+001 -1.188991e+001 -1.333407e+002 -1.192475e+001 -1.330387e+002 -1.230935e+001 1.090664e+002
7935000000 -1.620222e+001 8.821587e+001 -1.203069e+001 1.794182e+002 -1.199404e+001 1.790835e+002 -1.259713e+001 1.022670e+002
8030000000 -1.532105e+001 9.369238e+001 -1.206250e+001 1.313113e+002 -1.194074e+001 1.307397e+002 -1.222665e+001 9.466962e+001
8125000000 -1.409961e+001 8.502560e+001 -1.202903e+001 8.186942e+001 -1.197580e+001 8.219500e+001 -1.197893e+001 8.424787e+001
8220000000 -1.546414e+001 7.379971e+001 -1.224533e+001 3.224226e+001 -1.215380e+001 3.251032e+001 -1.243252e+001 7.871444e+001
8315000000 -1.669134e+001 8.569855e+001 -1.268745e+001 -1.526985e+001 -1.272431e+001 -1.552876e+001 -1.270542e+001 7.229312e+001
8410000000 -1.398601e+001 9.298351e+001 -1.316603e+001 -6.166402e+001 -1.318708e+001 -6.162218e+001 -1.175611e+001 6.703031e+001
8505000000 -1.189940e+001 7.839262e+001 -1.335978e+001 -1.063086e+002 -1.349005e+001 -1.064130e+002 -1.099219e+001 5.881373e+001
8600000000 -1.180217e+001 5.792067e+001 -1.331288e+001 -1.508604e+002 -1.339737e+001 -1.508631e+002 -9.974018e+000 4.012639e+001
8695000000 -1.402155e+001 4.767867e+001 -1.320077e+001 1.626831e+002 -1.311794e+001 1.620603e+002 -1.107686e+001 2.562571e+001
8790000000 -1.473087e+001 5.295158e+001 -1.291991e+001 1.130074e+002 -1.285768e+001 1.125708e+002 -1.153198e+001 1.318614e+001
8885000000 -1.314935e+001 4.612601e+001 -1.303372e+001 6.076930e+001 -1.303163e+001 6.149989e+001 -1.168583e+001 5.371583e+000
8980000000 -1.425276e+001 2.383710e+001 -1.383757e+001 1.115578e+001 -1.389750e+001 1.131449e+001 -1.073665e+001 -9.653622e+000
9075000000 -1.873844e+001 2.122140e+000 -1.464463e+001 -3.214611e+001 -1.471903e+001 -3.250912e+001 -1.222593e+001 -3.480963e+001
9170000000 -2.348108e+001 7.254848e+001 -1.461493e+001 -7.380860e+001 -1.469056e+001 -7.492187e+001 -1.447496e+001 -5.435551e+001
9265000000 -1.624591e+001 6.170187e+001 -1.403006e+001 -1.226092e+002 -1.394251e+001 -1.231912e+002 -1.822882e+001 -4.079558e+001
9360000000 -1.692049e+001 2.381615e+001 -1.421537e+001 -1.768017e+002 -1.418124e+001 -1.765454e+002 -1.427715e+001 -4.801259e+001
9455000000 -3.013147e+001 7.047723e+000 -1.501720e+001 1.336488e+002 -1.515620e+001 1.336968e+002 -1.392693e+001 -7.363120e+001
9550000000 -2.012520e+001 1.181233e+002 -1.614039e+001 8.862775e+001 -1.619443e+001 8.724723e+001 -1.399776e+001 -1.063415e+002
9645000000 -1.476216e+001 8.558171e+001 -1.651282e+001 4.772312e+001 -1.635305e+001 4.647074e+001 -1.867931e+001 -1.227622e+002
9740000000 -1.539661e+001 5.511086e+001 -1.601954e+001 -2.554490e+000 -1.590406e+001 -2.151900e+000 -2.017293e+001 -1.092153e+002
9835000000 -2.349385e+001 5.382811e+001 -1.650683e+001 -5.730124e+001 -1.656481e+001 -5.647062e+001 -1.520443e+001 -1.070340e+002
9930000000 -1.744466e+001 1.156371e+002 -1.802156e+001 -1.041906e+002 -1.815211e+001 -1.036237e+002 -1.316260e+001 -1.418450e+002
10025000000 -1.246044e+001 1.033428e+002 -1.899701e+001 -1.433938e+002 -1.908057e+001 -1.440340e+002 -1.350438e+001 -1.633332e+002
10120000000 -1.084820e+001 8.843233e+001 -1.893488e+001 1.718200e+002 -1.889252e+001 1.695647e+002 -1.446900e+001 1.730168e+002
10215000000 -9.529284e+000 8.468182e+001 -1.979259e+001 1.197925e+002 -1.955742e+001 1.185594e+002 -1.636085e+001 1.664440e+002
10310000000 -7.197294e+000 7.543552e+001 -2.173874e+001 6.944881e+001 -2.165172e+001 7.112519e+001 -1.636971e+001 1.561426e+002
10405000000 -5.877724e+000 5.792265e+001 -2.330157e+001 3.379230e+001 -2.318464e+001 3.604679e+001 -1.836798e+001 1.386140e+002
10500000000 -5.650132e+000 4.436335e+001 -2.219967e+001 -1.148420e+000 -2.264852e+001 -1.731064e+000 -2.115508e+001 1.296916e+002
10595000000 -5.096144e+000 3.604300e+001 -2.267184e+001 -5.305086e+001 -2.178173e+001 -5.589228e+001 -2.789301e+001 1.743498e+002
10690000000 -3.827441e+000 2.436413e+001 -2.353363e+001 -1.119203e+002 -2.528962e+001 -1.100797e+002 -1.880923e+001 -1.558775e+002
10785000000 -2.929049e+000 4.198895e+000 -3.169325e+001 -1.336726e+002 -3.190543e+001 -1.412662e+002 -1.452945e+001 1.795405e+002
10880000000 -3.242835e+000 -2.026535e+001 -3.106282e+001 -1.416703e+002 -2.928102e+001 -1.288784e+002 -1.551976e+001 1.569148e+002
10975000000 -4.854825e+000 -3.992555e+001 -2.332915e+001 -1.623378e+002 -2.469242e+001 -1.626437e+002 -1.562605e+001 1.596901e+002
11070000000 -6.398580e+000 -5.564774e+001 -2.209147e+001 1.420587e+002 -2.136463e+001 1.433642e+002 -1.504467e+001 1.664261e+002
11165000000 -8.454874e+000 -7.746066e+001 -1.957378e+001 8.311440e+001 -2.012146e+001 8.472997e+001 -1.187471e+001 1.578674e+002
11260000000 -1.312571e+001 -1.035945e+002 -2.097416e+001 3.563220e+001 -2.076211e+001 3.387047e+001 -1.035720e+001 1.370561e+002
11355000000 -2.248051e+001 -1.109649e+002 -2.084437e+001 -1.416251e+001 -2.072560e+001 -7.217062e+000 -1.029795e+001 1.143117e+002
11450000000 -2.892391e+001 -4.897836e+001 -2.045976e+001 -5.275043e+001 -1.982804e+001 -5.140586e+001 -1.117849e+001 1.104450e+002
11545000000 -3.239059e+001 8.919674e+000 -1.930333e+001 -9.508791e+001 -1.929057e+001 -1.002697e+002 -1.080801e+001 9.950474e+001
11640000000 -2.098567e+001 4.449580e+001 -1.912922e+001 -1.475916e+002 -1.892680e+001 -1.506745e+002 -1.064660e+001 9.839622e+001
11735000000 -1.551594e+001 2.860676e+001 -1.918499e+001 1.643249e+002 -1.879298e+001 1.601353e+002 -1.161816e+001 8.681290e+001
11830000000 -1.405483e+001 1.059055e+001 -1.948382e+001 1.134438e+002 -1.933925e+001 1.062320e+002 -1.166714e+001 7.342741e+001
11925000000 -1.380346e+001 -1.373034e+000 -2.033290e+001 5.728628e+001 -1.979706e+001 6.330939e+001 -1.204986e+001 7.157370e+001
12020000000 -1.388231e+001 -8.220226e+000 -1.899840e+001 1.366658e+001 -1.964849e+001 1.812421e+001 -1.165022e+001 5.259465e+001
12115000000 -1.443693e+001 -1.588747e+001 -1.934573e+001 -1.847716e+001 -1.922546e+001 -2.497095e+001 -1.140495e+001 4.465189e+001
12210000000 -1.576337e+001 -1.657681e+001 -1.953811e+001 -7.023750e+001 -1.906829e+001 -7.249325e+001 -1.283315e+001 4.230684e+001
12305000000 -1.657743e+001 1.473712e+000 -1.939898e+001 -1.251860e+002 -1.893871e+001 -1.218069e+002 -1.111690e+001 3.737216e+001
12400000000 -1.327881e+001 9.925075e+000 -1.844924e+001 -1.757437e+002 -1.896342e+001 -1.741364e+002 -1.062904e+001 3.283227e+001
12495000000 -1.063514e+001 -1.821223e+000 -1.899723e+001 1.439210e+002 -1.978846e+001 1.384785e+002 -9.055092e+000 2.118775e+001
12590000000 -1.005485e+001 -1.682716e+001 -2.059468e+001 9.427300e+001 -2.006065e+001 8.945744e+001 -9.535609e+000 3.046435e+000
12685000000 -1.075290e+001 -2.445688e+001 -2.281801e+001 4.783239e+001 -2.236619e+001 4.275129e+001 -1.173785e+001 2.713743e-001
12780000000 -1.051424e+001 -2.279230e+001 -2.252735e+001 1.259489e+001 -2.204772e+001 9.154812e+000 -9.933402e+000 -6.763113e+000
12875000000 -8.737904e+000 -3.105432e+001 -2.174065e+001 -2.892832e+001 -2.209642e+001 -3.065329e+001 -8.431887e+000 -1.358057e+001
12970000000 -7.814073e+000 -4.329796e+001 -2.153388e+001 -6.885512e+001 -2.172186e+001 -7.647533e+001 -8.089743e+000 -1.931522e+001
13065000000 -8.170792e+000 -5.981623e+001 -2.129173e+001 -1.236605e+002 -2.136101e+001 -1.287966e+002 -1.013029e+001 -4.237413e+001
13160000000 -9.320584e+000 -6.613869e+001 -2.268069e+001 -1.729927e+002 -2.338290e+001 -1.759005e+002 -8.957724e+000 -4.907846e+001
13255000000 -9.579767e+000 -7.010356e+001 -2.428354e+001 1.629252e+002 -2.488705e+001 1.528291e+002 -8.866570e+000 -4.337871e+001
13350000000 -8.577106e+000 -7.883077e+001 -2.341133e+001 1.286701e+002 -2.447118e+001 1.207772e+002 -8.993356e+000 -5.646184e+001
13445000000 -8.213996e+000 -9.407366e+001 -2.128736e+001 8.607755e+001 -2.135338e+001 7.542194e+001 -8.090663e+000 -7.370720e+001
13540000000 -9.213233e+000 -1.140113e+002 -2.023565e+001 3.363044e+001 -2.051652e+001 2.384660e+001 -7.625969e+000 -7.915645e+001
13635000000 -1.113585e+001 -1.284980e+002 -2.068371e+001 -1.428960e+001 -2.093461e+001 -2.430851e+001 -8.897171e+000 -8.280670e+001
13730000000 -1.394444e+001 -1.308839e+002 -2.007879e+001 -5.701160e+001 -2.092411e+001 -6.509917e+001 -8.770915e+000 -9.680443e+001
13825000000 -1.606031e+001 -1.324196e+002 -1.938015e+001 -9.965682e+001 -2.026335e+001 -1.085293e+002 -1.016693e+001 -1.068230e+002
13920000000 -1.536913e+001 -1.287811e+002 -1.858005e+001 -1.490151e+002 -1.848540e+001 -1.538065e+002 -1.045816e+001 -1.203351e+002
14015000000 -1.679893e+001 -1.397919e+002 -1.763009e+001 1.566306e+002 -1.763482e+001 1.537782e+002 -1.104261e+001 -1.306068e+002
14110000000 -1.893470e+001 -1.387112e+002 -1.795672e+001 1.038883e+002 -1.757558e+001 9.683834e+001 -1.204322e+001 -1.258322e+002
14205000000 -1.734411e+001 -1.285863e+002 -1.806279e+001 4.906633e+001 -1.792143e+001 4.367736e+001 -1.415339e+001 -1.354300e+002
14300000000 -1.531653e+001 -1.463743e+002 -1.841556e+001 -3.646084e+000 -1.804306e+001 -7.300906e+000 -1.401624e+001 -1.592849e+002
14395000000 -1.556939e+001 -1.710442e+002 -1.845764e+001 -5.836594e+001 -1.870068e+001 -6.192964e+001 -1.421955e+001 -1.699152e+002
14490000000 -1.654243e+001 1.752361e+002 -1.999400e+001 -1.090385e+002 -2.036100e+001 -1.145190e+002 -1.732851e+001 -1.767675e+002
14585000000 -1.639575e+001 1.551130e+002 -2.133890e+001 -1.576117e+002 -2.236390e+001 -1.604013e+002 -2.293690e+001 1.521865e+002
14680000000 -1.581339e+001 1.278977e+002 -2.253977e+001 1.585308e+002 -2.375958e+001 1.615242e+002 -2.544686e+001 8.743276e+001
14775000000 -1.672549e+001 8.471503e+001 -2.340577e+001 1.175537e+002 -2.462310e+001 1.209317e+002 -2.038980e+001 3.145646e+001
14870000000 -2.068120e+001 4.239906e+001 -2.438008e+001 8.331928e+001 -2.580551e+001 9.508341e+001 -1.896811e+001 -4.478991e+000
14965000000 -3.404432e+001 2.036894e+001 -2.355245e+001 5.999403e+001 -2.458531e+001 6.647227e+001 -1.784572e+001 -5.010413e+001
15060000000 -2.650278e+001 1.071348e+002 -2.086727e+001 1.306914e+001 -2.247184e+001 2.023853e+001 -1.637327e+001 -7.593015e+001
15155000000 -2.196938e+001 6.486121e+001 -2.010694e+001 -3.710767e+001 -2.117318e+001 -3.244282e+001 -1.481220e+001 -6.350629e+001
15250000000 -2.427271e+001 3.399881e+001 -2.047808e+001 -8.049210e+001 -2.123978e+001 -7.580969e+001 -1.773305e+001 -6.717238e+001
