!Agilent Technologies,N5230A,MY45001629,A.07.50.67
!Agilent N5230A: A.07.50.67
!Date: Monday, June 05, 2017 16:33:42
!Correction: S11(Full 2 Port(1,2)) 
!S21(Full 2 Port(1,2)) 
!S12(Full 2 Port(1,2)) 
!S22(Full 2 Port(1,2)) 
!S2P File: Measurements: S11, S21, S12, S22:
# Hz S  dB   R 50
1000000000 -2.188573e-001 5.256036e+001 -5.198603e+001 -8.682075e+000 -5.143712e+001 -1.293584e+001 -8.529229e-001 4.355004e+001
1095000000 -2.418630e-001 3.636650e+001 -4.303930e+001 -5.088710e+001 -4.315827e+001 -5.296379e+001 -1.091533e+000 2.645503e+001
1190000000 -3.943838e-001 1.798997e+001 -3.395653e+001 -1.055871e+002 -3.392632e+001 -1.067393e+002 -1.561118e+000 7.988043e+000
1285000000 -9.489066e-001 -2.183488e+000 -2.590650e+001 1.793249e+002 -2.598054e+001 1.789808e+002 -2.357958e+000 -9.720073e+000
1380000000 -1.441212e+000 -2.443490e+001 -2.100657e+001 1.027553e+002 -2.102817e+001 1.025593e+002 -2.551835e+000 -2.930928e+001
1475000000 -2.979769e+000 -5.668764e+001 -1.521276e+001 3.176675e+001 -1.521848e+001 3.190761e+001 -3.397240e+000 -6.165525e+001
1570000000 -8.917624e+000 -9.797178e+001 -1.067763e+001 -5.407824e+001 -1.065606e+001 -5.424073e+001 -8.582414e+000 -1.024814e+002
1665000000 -2.159918e+001 -3.714314e+001 -9.273366e+000 -1.441571e+002 -9.262350e+000 -1.442523e+002 -1.991927e+001 -8.266403e+001
1760000000 -1.242145e+001 -1.983779e+000 -1.005294e+001 1.384202e+002 -1.006021e+001 1.383112e+002 -1.676584e+001 -1.585072e+001
1855000000 -8.088573e+000 -2.956535e+001 -1.081910e+001 7.892062e+001 -1.080173e+001 7.872779e+001 -1.105006e+001 -3.317164e+001
1950000000 -7.837345e+000 -6.010433e+001 -1.028129e+001 2.275320e+001 -1.030040e+001 2.271287e+001 -9.561677e+000 -5.945863e+001
2045000000 -1.032414e+001 -7.783426e+001 -9.250532e+000 -3.771378e+001 -9.237710e+000 -3.771056e+001 -1.131194e+001 -7.971947e+001
2140000000 -1.144041e+001 -7.709502e+001 -8.677166e+000 -9.844949e+001 -8.658037e+000 -9.841115e+001 -1.224609e+001 -7.376268e+001
2235000000 -9.872637e+000 -8.585430e+001 -8.630083e+000 -1.597101e+002 -8.629867e+000 -1.597162e+002 -1.046353e+001 -8.411626e+001
2330000000 -1.014596e+001 -1.082792e+002 -8.914373e+000 1.453575e+002 -8.890388e+000 1.453081e+002 -9.878707e+000 -1.052959e+002
2425000000 -1.237070e+001 -1.222241e+002 -8.663706e+000 8.929189e+001 -8.646362e+000 8.938384e+001 -1.131763e+001 -1.182511e+002
2520000000 -1.378014e+001 -1.280996e+002 -8.635984e+000 3.457755e+001 -8.641901e+000 3.440861e+001 -1.261660e+001 -1.296325e+002
2615000000 -1.568194e+001 -1.403296e+002 -8.609144e+000 -1.999041e+001 -8.591037e+000 -2.020950e+001 -1.374078e+001 -1.429809e+002
2710000000 -2.088859e+001 -1.259324e+002 -8.851713e+000 -7.466696e+001 -8.851186e+000 -7.467966e+001 -1.842770e+001 -1.371346e+002
2805000000 -1.684613e+001 -9.108321e+001 -8.973365e+000 -1.272165e+002 -8.985523e+000 -1.272363e+002 -1.683785e+001 -1.078011e+002
2900000000 -1.281112e+001 -1.088933e+002 -9.325067e+000 -1.772697e+002 -9.341957e+000 -1.773452e+002 -1.204324e+001 -1.144418e+002
2995000000 -1.243028e+001 -1.311906e+002 -9.123162e+000 1.342198e+002 -9.107331e+000 1.342945e+002 -1.125784e+001 -1.360430e+002
3090000000 -1.495868e+001 -1.397883e+002 -8.707537e+000 8.301082e+001 -8.688864e+000 8.299845e+001 -1.295597e+001 -1.495308e+002
3185000000 -1.500047e+001 -1.160765e+002 -8.500508e+000 2.933102e+001 -8.507862e+000 2.935342e+001 -1.431871e+001 -1.319464e+002
3280000000 -1.028796e+001 -1.200120e+002 -8.735813e+000 -2.381640e+001 -8.731057e+000 -2.355484e+001 -1.015094e+001 -1.348538e+002
3375000000 -8.168118e+000 -1.439937e+002 -9.149978e+000 -7.425140e+001 -9.192430e+000 -7.407532e+001 -8.363008e+000 -1.525032e+002
3470000000 -8.061605e+000 -1.655662e+002 -9.307004e+000 -1.216560e+002 -9.295413e+000 -1.214973e+002 -8.425033e+000 -1.735080e+002
3565000000 -8.827568e+000 1.775140e+002 -9.227907e+000 -1.710410e+002 -9.224053e+000 -1.709332e+002 -9.205807e+000 1.737334e+002
3660000000 -1.014433e+001 1.641482e+002 -8.971179e+000 1.402187e+002 -8.984242e+000 1.404082e+002 -1.004911e+001 1.656840e+002
3755000000 -1.159771e+001 1.565258e+002 -8.765764e+000 8.946814e+001 -8.745726e+000 8.947124e+001 -1.026136e+001 1.554448e+002
3850000000 -1.358179e+001 1.570710e+002 -8.710277e+000 3.782786e+001 -8.695061e+000 3.803478e+001 -1.157038e+001 1.477348e+002
3945000000 -1.350362e+001 1.654065e+002 -8.760893e+000 -1.379438e+001 -8.754714e+000 -1.362450e+001 -1.249943e+001 1.436394e+002
4040000000 -1.184276e+001 1.596401e+002 -8.984927e+000 -6.408953e+001 -8.966838e+000 -6.414480e+001 -1.224914e+001 1.366876e+002
4135000000 -1.260661e+001 1.450315e+002 -9.148255e+000 -1.166708e+002 -9.116042e+000 -1.166008e+002 -1.401296e+001 1.159063e+002
4230000000 -1.504261e+001 1.523824e+002 -1.001754e+001 -1.708772e+002 -9.987521e+000 -1.707305e+002 -2.161605e+001 1.338089e+002
4325000000 -1.252309e+001 1.609800e+002 -1.147432e+001 1.418044e+002 -1.145875e+001 1.417059e+002 -1.481017e+001 1.705172e+002
4420000000 -1.097171e+001 1.513481e+002 -1.239565e+001 9.996843e+001 -1.237508e+001 9.990881e+001 -1.176911e+001 1.535420e+002
4515000000 -1.032852e+001 1.439619e+002 -1.246461e+001 5.842558e+001 -1.241784e+001 5.865897e+001 -1.029967e+001 1.379844e+002
4610000000 -8.862001e+000 1.343975e+002 -1.206438e+001 1.476010e+001 -1.200319e+001 1.488032e+001 -9.487881e+000 1.168316e+002
4705000000 -8.160134e+000 1.168609e+002 -1.174422e+001 -3.249279e+001 -1.172581e+001 -3.272859e+001 -9.045002e+000 9.462514e+001
4800000000 -8.592176e+000 9.565089e+001 -1.153388e+001 -8.025607e+001 -1.147228e+001 -8.024328e+001 -1.064968e+001 7.022700e+001
4895000000 -1.049047e+001 7.949464e+001 -1.129312e+001 -1.298356e+002 -1.129429e+001 -1.299117e+002 -1.290878e+001 4.649771e+001
4990000000 -1.276669e+001 6.929935e+001 -1.157022e+001 -1.799111e+002 -1.153088e+001 -1.799466e+002 -1.649053e+001 3.178238e+001
5085000000 -1.538788e+001 6.332492e+001 -1.199537e+001 1.318259e+002 -1.192402e+001 1.316530e+002 -1.997547e+001 2.893756e+001
5180000000 -1.916157e+001 7.219837e+001 -1.244190e+001 8.581491e+001 -1.241685e+001 8.557893e+001 -2.523439e+001 3.831095e+001
5275000000 -1.773216e+001 1.049556e+002 -1.253709e+001 3.963063e+001 -1.251573e+001 3.918074e+001 -2.343903e+001 6.766026e+001
5370000000 -1.388721e+001 9.654195e+001 -1.297664e+001 -5.784579e+000 -1.301996e+001 -6.331458e+000 -1.838266e+001 5.639597e+001
5465000000 -1.299399e+001 7.496071e+001 -1.304517e+001 -4.920360e+001 -1.304054e+001 -4.969802e+001 -1.709154e+001 2.349819e+001
5560000000 -1.451544e+001 5.575162e+001 -1.275666e+001 -9.452779e+001 -1.273712e+001 -9.455999e+001 -1.827000e+001 -1.348927e+001
5655000000 -1.717321e+001 5.643540e+001 -1.216555e+001 -1.441416e+002 -1.219294e+001 -1.437955e+002 -2.401210e+001 -5.271961e+001
5750000000 -1.519825e+001 5.998303e+001 -1.245147e+001 1.643175e+002 -1.242816e+001 1.643633e+002 -2.828921e+001 3.761428e+001
5845000000 -1.396575e+001 3.585779e+001 -1.352882e+001 1.146439e+002 -1.344477e+001 1.145387e+002 -1.911992e+001 7.632567e-001
5940000000 -1.494230e+001 1.854253e+000 -1.435626e+001 7.249689e+001 -1.439435e+001 7.196172e+001 -1.636856e+001 -3.337650e+001
6035000000 -1.790487e+001 -3.510504e+001 -1.488281e+001 3.187697e+001 -1.489026e+001 3.117298e+001 -1.488008e+001 -6.747797e+001
6130000000 -1.985699e+001 -9.533903e+001 -1.456715e+001 -6.214337e+000 -1.456534e+001 -6.786936e+000 -1.535045e+001 -1.074408e+002
6225000000 -1.905493e+001 -1.775743e+002 -1.375203e+001 -5.017165e+001 -1.380061e+001 -5.039267e+001 -1.793596e+001 -1.444665e+002
6320000000 -1.747602e+001 1.135870e+002 -1.295267e+001 -9.709140e+001 -1.295139e+001 -9.751376e+001 -2.812000e+001 -1.775058e+002
6415000000 -1.972977e+001 5.537072e+001 -1.259214e+001 -1.471718e+002 -1.254367e+001 -1.470152e+002 -2.770351e+001 -6.097165e+001
6510000000 -2.984278e+001 -2.043511e+001 -1.280375e+001 1.639525e+002 -1.274942e+001 1.641686e+002 -1.883423e+001 -8.884770e+001
6605000000 -2.613092e+001 1.702510e+002 -1.274754e+001 1.173156e+002 -1.271806e+001 1.176675e+002 -1.653092e+001 -1.172601e+002
6700000000 -2.047568e+001 1.267570e+002 -1.252330e+001 7.061648e+001 -1.261585e+001 7.070823e+001 -1.743980e+001 -1.450665e+002
6795000000 -1.967676e+001 8.516112e+001 -1.256261e+001 2.399310e+001 -1.262796e+001 2.408465e+001 -2.033181e+001 -1.572661e+002
6890000000 -2.246000e+001 3.955897e+001 -1.258443e+001 -2.272120e+001 -1.259537e+001 -2.283607e+001 -2.101761e+001 -1.264326e+002
6985000000 -2.753366e+001 -4.914921e+001 -1.251618e+001 -6.895047e+001 -1.253663e+001 -6.943278e+001 -1.620837e+001 -1.310604e+002
7080000000 -2.240466e+001 -1.376217e+002 -1.240977e+001 -1.175144e+002 -1.236467e+001 -1.175588e+002 -1.291792e+001 -1.472190e+002
7175000000 -1.822909e+001 -1.790259e+002 -1.252405e+001 -1.651384e+002 -1.249568e+001 -1.647229e+002 -1.244153e+001 -1.723663e+002
7270000000 -1.640826e+001 1.598519e+002 -1.261753e+001 1.486097e+002 -1.262057e+001 1.485904e+002 -1.212912e+001 1.707438e+002
7365000000 -1.553118e+001 1.434404e+002 -1.258800e+001 1.026766e+002 -1.265866e+001 1.024778e+002 -1.259866e+001 1.572944e+002
7460000000 -1.497369e+001 1.333646e+002 -1.259364e+001 5.648581e+001 -1.263604e+001 5.619186e+001 -1.261407e+001 1.481724e+002
7555000000 -1.382825e+001 1.256318e+002 -1.246957e+001 9.964213e+000 -1.244308e+001 9.996502e+000 -1.245881e+001 1.387363e+002
7650000000 -1.294890e+001 1.116815e+002 -1.232461e+001 -3.697878e+001 -1.224028e+001 -3.701967e+001 -1.200939e+001 1.284498e+002
7745000000 -1.279238e+001 9.617568e+001 -1.215841e+001 -8.509995e+001 -1.208248e+001 -8.503008e+001 -1.226744e+001 1.140210e+002
7840000000 -1.418274e+001 8.332460e+001 -1.207243e+001 -1.334040e+002 -1.215077e+001 -1.329522e+002 -1.281063e+001 1.109955e+002
7935000000 -1.603707e+001 8.388918e+001 -1.214619e+001 -1.798280e+002 -1.216645e+001 1.795229e+002 -1.267851e+001 1.044753e+002
8030000000 -1.567401e+001 8.949323e+001 -1.213294e+001 1.321177e+002 -1.205718e+001 1.317587e+002 -1.200078e+001 9.880289e+001
8125000000 -1.451428e+001 8.289220e+001 -1.213559e+001 8.329423e+001 -1.209606e+001 8.310656e+001 -1.175760e+001 8.438607e+001
8220000000 -1.603863e+001 7.477353e+001 -1.224531e+001 3.341216e+001 -1.227144e+001 3.378673e+001 -1.206777e+001 7.708710e+001
8315000000 -1.659835e+001 8.925364e+001 -1.266944e+001 -1.492659e+001 -1.271295e+001 -1.463052e+001 -1.307677e+001 6.968261e+001
8410000000 -1.365183e+001 9.293382e+001 -1.324356e+001 -6.120310e+001 -1.312075e+001 -6.109430e+001 -1.243823e+001 6.620193e+001
8505000000 -1.160756e+001 7.710341e+001 -1.338356e+001 -1.061779e+002 -1.341735e+001 -1.059183e+002 -1.145396e+001 5.804666e+001
8600000000 -1.161378e+001 5.698861e+001 -1.322192e+001 -1.510256e+002 -1.327537e+001 -1.505896e+002 -1.027663e+001 4.246603e+001
8695000000 -1.379044e+001 4.633290e+001 -1.312053e+001 1.624656e+002 -1.313521e+001 1.621728e+002 -1.148008e+001 2.691501e+001
8790000000 -1.455545e+001 4.840202e+001 -1.299048e+001 1.135991e+002 -1.291122e+001 1.130968e+002 -1.126108e+001 1.471636e+001
8885000000 -1.334361e+001 4.175073e+001 -1.316354e+001 6.167815e+001 -1.296926e+001 6.250121e+001 -1.172657e+001 4.967514e+000
8980000000 -1.527922e+001 2.130782e+001 -1.376497e+001 1.226415e+001 -1.380255e+001 1.258416e+001 -1.058722e+001 -1.276772e+001
9075000000 -2.044175e+001 6.655382e+000 -1.433571e+001 -3.204288e+001 -1.446167e+001 -3.197206e+001 -1.219605e+001 -3.611524e+001
9170000000 -2.144110e+001 7.272186e+001 -1.440402e+001 -7.481858e+001 -1.446786e+001 -7.510308e+001 -1.466666e+001 -5.863599e+001
9265000000 -1.568968e+001 5.713852e+001 -1.389315e+001 -1.228042e+002 -1.387942e+001 -1.235410e+002 -1.781747e+001 -4.286462e+001
9360000000 -1.673635e+001 2.038180e+001 -1.420308e+001 -1.760877e+002 -1.411116e+001 -1.761136e+002 -1.452198e+001 -5.049729e+001
9455000000 -2.956370e+001 -2.841956e+000 -1.494069e+001 1.336994e+002 -1.500684e+001 1.340036e+002 -1.373067e+001 -7.493305e+001
9550000000 -2.027816e+001 1.169895e+002 -1.580489e+001 8.851086e+001 -1.594813e+001 8.816875e+001 -1.428154e+001 -1.072299e+002
9645000000 -1.501196e+001 8.358675e+001 -1.603621e+001 4.669674e+001 -1.605653e+001 4.619194e+001 -1.825877e+001 -1.189089e+002
9740000000 -1.581433e+001 5.483685e+001 -1.578405e+001 -2.699093e+000 -1.575434e+001 -3.068362e+000 -1.934175e+001 -9.861208e+001
9835000000 -2.321210e+001 6.525194e+001 -1.661428e+001 -5.715127e+001 -1.639692e+001 -5.708624e+001 -1.480144e+001 -1.088240e+002
9930000000 -1.698700e+001 1.108018e+002 -1.799133e+001 -1.043449e+002 -1.789417e+001 -1.034031e+002 -1.280289e+001 -1.396214e+002
10025000000 -1.256007e+001 9.948395e+001 -1.858332e+001 -1.456286e+002 -1.866273e+001 -1.448877e+002 -1.362658e+001 -1.648336e+002
10120000000 -1.110959e+001 8.639445e+001 -1.843232e+001 1.680485e+002 -1.853287e+001 1.683487e+002 -1.430432e+001 1.752397e+002
10215000000 -9.660217e+000 8.391043e+001 -1.938622e+001 1.184351e+002 -1.931146e+001 1.175948e+002 -1.701467e+001 1.705338e+002
10310000000 -7.247212e+000 7.503819e+001 -2.171865e+001 7.051556e+001 -2.151011e+001 6.996249e+001 -1.641231e+001 1.537078e+002
10405000000 -5.923202e+000 5.715386e+001 -2.317260e+001 3.398447e+001 -2.296430e+001 3.511642e+001 -1.936020e+001 1.413657e+002
10500000000 -5.712760e+000 4.351367e+001 -2.232701e+001 -4.805115e+000 -2.215877e+001 -2.731216e+000 -2.216070e+001 1.265265e+002
10595000000 -5.123489e+000 3.560776e+001 -2.317791e+001 -5.723713e+001 -2.168826e+001 -5.716935e+001 -2.587643e+001 -1.669651e+002
10690000000 -3.811212e+000 2.375463e+001 -2.357737e+001 -1.148748e+002 -2.438977e+001 -1.113620e+002 -1.924214e+001 -1.675354e+002
10785000000 -2.916346e+000 3.665802e+000 -3.238540e+001 -1.426271e+002 -3.077331e+001 -1.463915e+002 -1.520641e+001 -1.768288e+002
10880000000 -3.207420e+000 -2.039932e+001 -3.137382e+001 -1.457429e+002 -2.945643e+001 -1.306788e+002 -1.531799e+001 1.645645e+002
10975000000 -4.698282e+000 -4.017172e+001 -2.357091e+001 -1.630572e+002 -2.447311e+001 -1.650829e+002 -1.606975e+001 1.542641e+002
11070000000 -6.266746e+000 -5.690169e+001 -2.203330e+001 1.396965e+002 -2.118741e+001 1.385146e+002 -1.615094e+001 1.692460e+002
11165000000 -8.365907e+000 -7.910667e+001 -2.006561e+001 8.338550e+001 -2.061223e+001 8.155501e+001 -1.151200e+001 1.581161e+002
11260000000 -1.310348e+001 -1.045788e+002 -2.153121e+001 3.623310e+001 -2.059399e+001 3.252930e+001 -1.042047e+001 1.341871e+002
11355000000 -2.224609e+001 -1.106317e+002 -2.071793e+001 -1.292364e+001 -2.060512e+001 -8.315740e+000 -1.113604e+001 1.182322e+002
11450000000 -2.881058e+001 -5.069029e+001 -1.985453e+001 -5.885987e+001 -1.922656e+001 -5.454021e+001 -1.177026e+001 1.096691e+002
11545000000 -3.267694e+001 7.671274e+000 -1.909487e+001 -1.002441e+002 -1.890001e+001 -1.054274e+002 -1.173097e+001 9.828445e+001
11640000000 -2.088397e+001 4.170192e+001 -1.906947e+001 -1.486408e+002 -1.857889e+001 -1.539802e+002 -1.086554e+001 9.597225e+001
11735000000 -1.540950e+001 2.569705e+001 -1.804106e+001 1.578080e+002 -1.851550e+001 1.541495e+002 -1.100432e+001 7.739153e+001
11830000000 -1.399925e+001 8.487786e+000 -1.928846e+001 1.109066e+002 -1.900716e+001 1.054597e+002 -1.113262e+001 7.565658e+001
11925000000 -1.371775e+001 -3.003766e+000 -2.014664e+001 6.616996e+001 -1.968909e+001 6.025953e+001 -1.242207e+001 6.292507e+001
12020000000 -1.408569e+001 -9.986842e+000 -1.939161e+001 1.091449e+001 -1.950383e+001 1.543284e+001 -1.070396e+001 5.804701e+001
12115000000 -1.448323e+001 -1.761525e+001 -1.822457e+001 -3.142061e+001 -1.891510e+001 -3.012567e+001 -1.107960e+001 3.891586e+001
12210000000 -1.606684e+001 -1.517774e+001 -1.837177e+001 -7.193310e+001 -1.896043e+001 -7.559116e+001 -1.161684e+001 4.927370e+001
12305000000 -1.611542e+001 2.212081e+000 -1.907355e+001 -1.243086e+002 -1.897729e+001 -1.264638e+002 -1.157229e+001 3.410824e+001
12400000000 -1.309782e+001 6.952682e+000 -1.933858e+001 1.776384e+002 -1.876528e+001 -1.768120e+002 -9.159843e+000 3.606544e+001
12495000000 -1.056624e+001 -4.897986e+000 -1.921680e+001 1.285438e+002 -1.950224e+001 1.343863e+002 -9.457053e+000 1.510286e+001
12590000000 -1.015767e+001 -1.970997e+001 -2.124697e+001 8.224017e+001 -2.047622e+001 8.448187e+001 -9.150717e+000 1.424304e+000
12685000000 -1.083361e+001 -2.613280e+001 -2.237266e+001 3.855185e+001 -2.201824e+001 4.314090e+001 -1.087030e+001 1.700403e+000
12780000000 -1.053167e+001 -2.410174e+001 -2.284222e+001 2.368828e+000 -2.229947e+001 4.670460e+000 -9.982370e+000 -5.824475e+000
12875000000 -8.663901e+000 -3.084800e+001 -2.228565e+001 -3.681923e+001 -2.184354e+001 -3.621898e+001 -8.942436e+000 -1.507097e+001
12970000000 -7.780472e+000 -4.429405e+001 -2.176705e+001 -7.924483e+001 -2.097599e+001 -8.169593e+001 -8.013165e+000 -1.921681e+001
13065000000 -8.228990e+000 -6.102872e+001 -2.154941e+001 -1.364293e+002 -2.131282e+001 -1.356237e+002 -9.718574e+000 -4.173318e+001
13160000000 -9.220633e+000 -6.712864e+001 -2.333484e+001 -1.799796e+002 -2.270719e+001 1.728466e+002 -8.876568e+000 -4.379451e+001
13255000000 -9.489754e+000 -7.225040e+001 -2.617582e+001 1.493546e+002 -2.479579e+001 1.373710e+002 -9.032431e+000 -4.231349e+001
13350000000 -8.408270e+000 -8.137603e+001 -2.504933e+001 1.223785e+002 -2.434416e+001 1.125773e+002 -9.119715e+000 -5.804007e+001
13445000000 -8.137394e+000 -9.555360e+001 -2.231696e+001 8.188314e+001 -2.165439e+001 7.185297e+001 -8.228004e+000 -7.232366e+001
13540000000 -9.345406e+000 -1.157328e+002 -2.130433e+001 2.507482e+001 -2.059921e+001 1.950760e+001 -7.837690e+000 -7.951827e+001
13635000000 -1.115367e+001 -1.291167e+002 -2.175944e+001 -1.703956e+001 -2.094464e+001 -2.776046e+001 -9.272585e+000 -8.257439e+001
13730000000 -1.425140e+001 -1.341165e+002 -2.114141e+001 -5.692597e+001 -2.112371e+001 -6.931593e+001 -9.282323e+000 -9.671240e+001
13825000000 -1.617546e+001 -1.333896e+002 -2.046163e+001 -1.060249e+002 -1.977697e+001 -1.143916e+002 -1.046187e+001 -1.075738e+002
13920000000 -1.555049e+001 -1.293940e+002 -1.925686e+001 -1.518682e+002 -1.864056e+001 -1.641957e+002 -1.042497e+001 -1.203117e+002
14015000000 -1.687791e+001 -1.404246e+002 -1.850224e+001 1.512620e+002 -1.810564e+001 1.470181e+002 -1.091812e+001 -1.296130e+002
14110000000 -1.866355e+001 -1.387879e+002 -1.845336e+001 9.502339e+001 -1.743395e+001 9.190959e+001 -1.269062e+001 -1.259484e+002
14205000000 -1.718485e+001 -1.323188e+002 -1.840345e+001 4.519444e+001 -1.781018e+001 4.151098e+001 -1.453747e+001 -1.434896e+002
14300000000 -1.549909e+001 -1.467477e+002 -1.841260e+001 -6.096919e+000 -1.830496e+001 -1.154095e+001 -1.406339e+001 -1.656299e+002
14395000000 -1.527288e+001 -1.746344e+002 -1.844196e+001 -5.835418e+001 -1.858322e+001 -6.653295e+001 -1.431780e+001 -1.722306e+002
14490000000 -1.671855e+001 1.706287e+002 -1.946074e+001 -1.111788e+002 -1.976837e+001 -1.232054e+002 -1.865574e+001 -1.766001e+002
14585000000 -1.685915e+001 1.521425e+002 -2.094728e+001 -1.591040e+002 -2.281875e+001 -1.656059e+002 -2.387473e+001 1.425520e+002
14680000000 -1.598163e+001 1.269978e+002 -2.233117e+001 1.521395e+002 -2.366929e+001 1.474201e+002 -2.404087e+001 1.032596e+002
14775000000 -1.726505e+001 8.377042e+001 -2.284211e+001 1.144418e+002 -2.485866e+001 1.100828e+002 -2.270146e+001 4.090562e+001
14870000000 -2.157671e+001 4.224296e+001 -2.518526e+001 8.237264e+001 -2.661191e+001 8.170696e+001 -1.815028e+001 1.938757e+000
14965000000 -3.295585e+001 4.103286e+001 -2.401496e+001 5.290306e+001 -2.601685e+001 5.800912e+001 -1.971483e+001 -4.012800e+001
15060000000 -2.611677e+001 1.004357e+002 -2.187709e+001 9.250546e+000 -2.288453e+001 1.469917e+001 -1.818297e+001 -6.940385e+001
15155000000 -2.165022e+001 6.288559e+001 -2.121163e+001 -3.980206e+001 -2.130361e+001 -3.547831e+001 -1.477159e+001 -6.386555e+001
15250000000 -2.391779e+001 3.766515e+001 -2.083910e+001 -9.215387e+001 -2.187526e+001 -8.538314e+001 -1.832504e+001 -8.385450e+001
