!Agilent Technologies,N5230A,MY45001629,A.07.50.67
!Agilent N5230A: A.07.50.67
!Date: Monday, June 05, 2017 16:29:06
!Correction: S11(Full 2 Port(1,2)) 
!S21(Full 2 Port(1,2)) 
!S12(Full 2 Port(1,2)) 
!S22(Full 2 Port(1,2)) 
!S2P File: Measurements: S11, S21, S12, S22:
# Hz S  dB   R 50
1000000000 -2.166540e-001 5.264154e+001 -5.105236e+001 -2.251327e+001 -5.118926e+001 -1.071790e+001 -8.655090e-001 4.362645e+001
1095000000 -2.449268e-001 3.646657e+001 -4.372344e+001 -5.648014e+001 -4.340224e+001 -5.563064e+001 -1.108996e+000 2.644467e+001
1190000000 -3.999247e-001 1.812879e+001 -3.412117e+001 -1.075265e+002 -3.399943e+001 -1.070710e+002 -1.566363e+000 7.986376e+000
1285000000 -9.589180e-001 -2.062027e+000 -2.592884e+001 -1.799384e+002 -2.585956e+001 -1.799719e+002 -2.349075e+000 -9.793291e+000
1380000000 -1.451722e+000 -2.411770e+001 -2.094799e+001 1.031832e+002 -2.088169e+001 1.032801e+002 -2.547089e+000 -2.936139e+001
1475000000 -2.954180e+000 -5.639790e+001 -1.514683e+001 3.188272e+001 -1.512851e+001 3.181511e+001 -3.415339e+000 -6.150556e+001
1570000000 -8.908579e+000 -9.730920e+001 -1.069949e+001 -5.425879e+001 -1.067090e+001 -5.417767e+001 -8.582288e+000 -1.025266e+002
1665000000 -2.151387e+001 -4.036925e+001 -9.215479e+000 -1.439498e+002 -9.222564e+000 -1.438773e+002 -1.989679e+001 -8.396180e+001
1760000000 -1.259198e+001 -1.190427e+000 -9.960548e+000 1.382934e+002 -9.949968e+000 1.383353e+002 -1.698888e+001 -1.562754e+001
1855000000 -8.124589e+000 -2.892090e+001 -1.079268e+001 7.870676e+001 -1.077821e+001 7.870869e+001 -1.099118e+001 -3.303342e+001
1950000000 -7.837691e+000 -5.952190e+001 -1.027998e+001 2.255326e+001 -1.025443e+001 2.236853e+001 -9.503579e+000 -5.928239e+001
2045000000 -1.023676e+001 -7.716147e+001 -9.196376e+000 -3.753790e+001 -9.192815e+000 -3.767245e+001 -1.115846e+001 -8.011770e+001
2140000000 -1.125207e+001 -7.698251e+001 -8.565501e+000 -9.794411e+001 -8.554964e+000 -9.805471e+001 -1.227249e+001 -7.570583e+001
2235000000 -9.749115e+000 -8.670721e+001 -8.488275e+000 -1.592013e+002 -8.504441e+000 -1.595198e+002 -1.052595e+001 -8.474109e+001
2330000000 -1.008848e+001 -1.099203e+002 -8.731694e+000 1.454649e+002 -8.738274e+000 1.454115e+002 -9.977043e+000 -1.057503e+002
2425000000 -1.267050e+001 -1.243031e+002 -8.445174e+000 8.924892e+001 -8.449495e+000 8.942210e+001 -1.136581e+001 -1.178347e+002
2520000000 -1.436272e+001 -1.279081e+002 -8.412806e+000 3.450890e+001 -8.397112e+000 3.455642e+001 -1.273289e+001 -1.281741e+002
2615000000 -1.629002e+001 -1.365679e+002 -8.394484e+000 -2.011131e+001 -8.354248e+000 -2.011767e+001 -1.350206e+001 -1.412985e+002
2710000000 -2.038936e+001 -1.167981e+002 -8.605072e+000 -7.467191e+001 -8.586535e+000 -7.489691e+001 -1.789031e+001 -1.339956e+002
2805000000 -1.587739e+001 -9.196707e+001 -8.728350e+000 -1.268505e+002 -8.713223e+000 -1.270661e+002 -1.640234e+001 -1.122100e+002
2900000000 -1.230027e+001 -1.121490e+002 -9.015464e+000 -1.772395e+002 -8.994165e+000 -1.773439e+002 -1.218788e+001 -1.159078e+002
2995000000 -1.221013e+001 -1.364942e+002 -8.659451e+000 1.342248e+002 -8.675821e+000 1.340979e+002 -1.145672e+001 -1.374920e+002
3090000000 -1.581819e+001 -1.477737e+002 -8.179871e+000 8.214149e+001 -8.191499e+000 8.219225e+001 -1.348820e+001 -1.496513e+002
3185000000 -1.621045e+001 -1.095477e+002 -7.999456e+000 2.795051e+001 -7.979412e+000 2.776772e+001 -1.451747e+001 -1.255773e+002
3280000000 -1.021065e+001 -1.146455e+002 -8.314192e+000 -2.567535e+001 -8.290579e+000 -2.583958e+001 -9.487022e+000 -1.330883e+002
3375000000 -7.946472e+000 -1.408593e+002 -8.795019e+000 -7.634875e+001 -8.782380e+000 -7.638491e+001 -7.806325e+000 -1.532098e+002
3470000000 -7.744671e+000 -1.631805e+002 -8.959892e+000 -1.240691e+002 -8.950193e+000 -1.241976e+002 -8.196763e+000 -1.763691e+002
3565000000 -8.376575e+000 1.793426e+002 -8.860221e+000 -1.731915e+002 -8.884576e+000 -1.734581e+002 -9.332490e+000 1.698403e+002
3660000000 -9.461352e+000 1.644302e+002 -8.675160e+000 1.382479e+002 -8.658297e+000 1.382004e+002 -1.065001e+001 1.635055e+002
3755000000 -1.074419e+001 1.523850e+002 -8.375639e+000 8.754472e+001 -8.355984e+000 8.740781e+001 -1.073241e+001 1.578717e+002
3850000000 -1.353243e+001 1.460736e+002 -8.181643e+000 3.597605e+001 -8.178788e+000 3.572511e+001 -1.189038e+001 1.505735e+002
3945000000 -1.554483e+001 1.601664e+002 -8.185063e+000 -1.645159e+001 -8.161342e+000 -1.668765e+001 -1.243204e+001 1.477904e+002
4040000000 -1.340750e+001 1.671310e+002 -8.469173e+000 -6.836486e+001 -8.439466e+000 -6.862067e+001 -1.150757e+001 1.387486e+002
4135000000 -1.293766e+001 1.592493e+002 -8.671206e+000 -1.211753e+002 -8.658515e+000 -1.213004e+002 -1.310563e+001 1.159710e+002
4230000000 -1.321719e+001 1.612247e+002 -9.559725e+000 -1.750406e+002 -9.551305e+000 -1.752200e+002 -2.088418e+001 1.186923e+002
4325000000 -1.117943e+001 1.596333e+002 -1.094019e+001 1.373626e+002 -1.093955e+001 1.370525e+002 -1.595969e+001 1.696829e+002
4420000000 -9.954745e+000 1.472179e+002 -1.177641e+001 9.405806e+001 -1.178715e+001 9.387859e+001 -1.255199e+001 1.563830e+002
4515000000 -9.766767e+000 1.347844e+002 -1.184821e+001 5.158185e+001 -1.187437e+001 5.122739e+001 -1.062111e+001 1.422852e+002
4610000000 -9.707860e+000 1.242560e+002 -1.166348e+001 5.370978e+000 -1.165465e+001 5.158267e+000 -9.538511e+000 1.219934e+002
4705000000 -9.990263e+000 1.146497e+002 -1.162298e+001 -4.272914e+001 -1.164958e+001 -4.306254e+001 -8.710218e+000 9.902960e+001
4800000000 -1.019563e+001 1.021189e+002 -1.165962e+001 -9.047104e+001 -1.165079e+001 -9.086021e+001 -9.944828e+000 7.334556e+001
4895000000 -1.092229e+001 9.216801e+001 -1.173906e+001 -1.395288e+002 -1.174375e+001 -1.399947e+002 -1.154776e+001 4.664294e+001
4990000000 -1.205774e+001 8.147887e+001 -1.219657e+001 1.718485e+002 -1.220430e+001 1.716005e+002 -1.496126e+001 2.186800e+001
5085000000 -1.352647e+001 7.110828e+001 -1.259794e+001 1.245709e+002 -1.264987e+001 1.243521e+002 -2.093855e+001 3.195350e+000
5180000000 -1.583035e+001 6.919860e+001 -1.312029e+001 7.918526e+001 -1.314304e+001 7.871812e+001 -3.184445e+001 5.119207e+001
5275000000 -1.753202e+001 7.984679e+001 -1.323576e+001 3.372179e+001 -1.324147e+001 3.372316e+001 -2.359575e+001 8.210731e+001
5370000000 -1.612926e+001 8.496841e+001 -1.357189e+001 -1.255371e+001 -1.361493e+001 -1.256925e+001 -1.835267e+001 6.533456e+001
5465000000 -1.539651e+001 7.574673e+001 -1.375160e+001 -5.628185e+001 -1.377932e+001 -5.605136e+001 -1.645928e+001 3.111708e+001
5560000000 -1.633573e+001 6.791551e+001 -1.360818e+001 -1.008248e+002 -1.364288e+001 -1.008615e+002 -1.705454e+001 -7.298651e+000
5655000000 -1.677203e+001 7.235713e+001 -1.323714e+001 -1.485928e+002 -1.321576e+001 -1.484390e+002 -2.118919e+001 -3.988211e+001
5750000000 -1.413390e+001 6.637439e+001 -1.335350e+001 1.613095e+002 -1.333545e+001 1.611990e+002 -2.702838e+001 -1.507454e+001
5845000000 -1.314808e+001 4.007382e+001 -1.414088e+001 1.111312e+002 -1.420096e+001 1.107691e+002 -2.111431e+001 -1.236438e+001
5940000000 -1.402389e+001 6.881341e+000 -1.512429e+001 6.798817e+001 -1.518137e+001 6.781454e+001 -1.789683e+001 -3.664322e+001
6035000000 -1.654683e+001 -2.782269e+001 -1.575770e+001 2.642055e+001 -1.578131e+001 2.675332e+001 -1.610215e+001 -6.535066e+001
6130000000 -1.828796e+001 -7.995341e+001 -1.564498e+001 -1.185231e+001 -1.565500e+001 -1.153001e+001 -1.629479e+001 -1.035748e+002
6225000000 -1.850598e+001 -1.533779e+002 -1.507243e+001 -5.399862e+001 -1.511123e+001 -5.367517e+001 -1.860622e+001 -1.383795e+002
6320000000 -1.744992e+001 1.390460e+002 -1.418251e+001 -9.801509e+001 -1.422536e+001 -9.794934e+001 -2.823758e+001 -1.585716e+002
6415000000 -1.892606e+001 8.744135e+001 -1.346714e+001 -1.463511e+002 -1.357325e+001 -1.462389e+002 -2.716182e+001 -6.751108e+001
6510000000 -2.596691e+001 5.307260e+001 -1.343922e+001 1.650495e+002 -1.350060e+001 1.647545e+002 -1.842061e+001 -8.587836e+001
6605000000 -2.872183e+001 1.183653e+002 -1.341660e+001 1.186640e+002 -1.337595e+001 1.178955e+002 -1.588990e+001 -1.161863e+002
6700000000 -2.283968e+001 1.120679e+002 -1.320994e+001 7.081229e+001 -1.323111e+001 7.043842e+001 -1.658284e+001 -1.449110e+002
6795000000 -2.143673e+001 7.750651e+001 -1.317460e+001 2.351612e+001 -1.315391e+001 2.352406e+001 -1.982739e+001 -1.651965e+002
6890000000 -2.388027e+001 3.089323e+001 -1.321513e+001 -2.381701e+001 -1.318493e+001 -2.357641e+001 -2.254918e+001 -1.323794e+002
6985000000 -2.654926e+001 -6.707072e+001 -1.299685e+001 -7.001598e+001 -1.303283e+001 -6.999376e+001 -1.720383e+001 -1.259311e+002
7080000000 -2.085030e+001 -1.402041e+002 -1.277289e+001 -1.179975e+002 -1.282029e+001 -1.185062e+002 -1.330248e+001 -1.420021e+002
7175000000 -1.706847e+001 -1.787968e+002 -1.300177e+001 -1.659002e+002 -1.300239e+001 -1.664513e+002 -1.227673e+001 -1.664469e+002
7270000000 -1.519667e+001 1.570040e+002 -1.331257e+001 1.468575e+002 -1.323192e+001 1.468361e+002 -1.174226e+001 1.738619e+002
7365000000 -1.472871e+001 1.365728e+002 -1.351828e+001 1.008700e+002 -1.345892e+001 1.010801e+002 -1.201544e+001 1.569816e+002
7460000000 -1.505760e+001 1.237006e+002 -1.336559e+001 5.533933e+001 -1.342029e+001 5.541547e+001 -1.239528e+001 1.450809e+002
7555000000 -1.520931e+001 1.204638e+002 -1.310657e+001 9.980213e+000 -1.315922e+001 1.026319e+001 -1.250990e+001 1.340947e+002
7650000000 -1.442196e+001 1.139741e+002 -1.289093e+001 -3.581275e+001 -1.292674e+001 -3.612765e+001 -1.251828e+001 1.266465e+002
7745000000 -1.368110e+001 1.036686e+002 -1.267392e+001 -8.381740e+001 -1.267379e+001 -8.445525e+001 -1.269707e+001 1.139098e+002
7840000000 -1.426516e+001 9.343545e+001 -1.268076e+001 -1.323119e+002 -1.262000e+001 -1.323246e+002 -1.283866e+001 1.112971e+002
7935000000 -1.507205e+001 9.223384e+001 -1.257997e+001 1.796682e+002 -1.263734e+001 1.797057e+002 -1.290496e+001 1.043065e+002
8030000000 -1.429990e+001 9.102602e+001 -1.248248e+001 1.315706e+002 -1.252095e+001 1.318745e+002 -1.193702e+001 9.950434e+001
8125000000 -1.352326e+001 7.963877e+001 -1.241611e+001 8.302714e+001 -1.251307e+001 8.269578e+001 -1.172030e+001 8.527800e+001
8220000000 -1.543490e+001 6.518463e+001 -1.271133e+001 3.365127e+001 -1.267323e+001 3.320906e+001 -1.188769e+001 7.677782e+001
8315000000 -1.813174e+001 8.073506e+001 -1.327058e+001 -1.521809e+001 -1.322508e+001 -1.497377e+001 -1.282573e+001 7.073335e+001
8410000000 -1.485182e+001 9.736962e+001 -1.366342e+001 -6.083600e+001 -1.367811e+001 -6.142520e+001 -1.203520e+001 6.574041e+001
8505000000 -1.207085e+001 8.280166e+001 -1.399417e+001 -1.055351e+002 -1.394123e+001 -1.059203e+002 -1.137022e+001 5.624017e+001
8600000000 -1.169226e+001 6.206752e+001 -1.388321e+001 -1.506032e+002 -1.377675e+001 -1.508239e+002 -1.023482e+001 4.084320e+001
8695000000 -1.349201e+001 5.146632e+001 -1.364240e+001 1.615627e+002 -1.359751e+001 1.617851e+002 -1.157333e+001 2.657018e+001
8790000000 -1.384685e+001 5.238310e+001 -1.326935e+001 1.122726e+002 -1.330876e+001 1.125749e+002 -1.153273e+001 1.502332e+001
8885000000 -1.261922e+001 4.292513e+001 -1.349713e+001 6.186677e+001 -1.348400e+001 6.138574e+001 -1.170227e+001 8.803249e+000
8980000000 -1.403951e+001 1.877411e+001 -1.446703e+001 1.231960e+001 -1.438522e+001 1.147740e+001 -1.041454e+001 -1.017003e+001
9075000000 -1.898199e+001 -6.146722e+000 -1.518200e+001 -3.198224e+001 -1.513874e+001 -3.215401e+001 -1.186691e+001 -3.389294e+001
9170000000 -2.454577e+001 8.079048e+001 -1.506087e+001 -7.568642e+001 -1.506176e+001 -7.512489e+001 -1.437399e+001 -5.673650e+001
9265000000 -1.667061e+001 6.480574e+001 -1.449475e+001 -1.238622e+002 -1.453778e+001 -1.236199e+002 -1.698736e+001 -4.472758e+001
9360000000 -1.729877e+001 2.993218e+001 -1.478598e+001 -1.754122e+002 -1.488410e+001 -1.765596e+002 -1.468386e+001 -5.184837e+001
9455000000 -2.803216e+001 3.333220e+001 -1.599693e+001 1.345055e+002 -1.582337e+001 1.344720e+002 -1.399836e+001 -7.471092e+001
9550000000 -1.969175e+001 1.086056e+002 -1.686218e+001 8.956705e+001 -1.677944e+001 8.906183e+001 -1.489179e+001 -1.073281e+002
9645000000 -1.484784e+001 7.937048e+001 -1.687753e+001 4.790209e+001 -1.692392e+001 4.865674e+001 -1.921171e+001 -1.211305e+002
9740000000 -1.563830e+001 4.851301e+001 -1.635620e+001 9.931980e-002 -1.645565e+001 -1.099082e-001 -1.955309e+001 -9.213499e+001
9835000000 -2.678951e+001 4.947540e+001 -1.714292e+001 -5.290729e+001 -1.714585e+001 -5.374326e+001 -1.435939e+001 -1.072008e+002
9930000000 -1.666153e+001 1.237266e+002 -1.870710e+001 -9.661346e+001 -1.863923e+001 -9.793291e+001 -1.252927e+001 -1.398366e+002
10025000000 -1.184520e+001 1.031267e+002 -1.923552e+001 -1.387358e+002 -1.896144e+001 -1.393609e+002 -1.329199e+001 -1.659366e+002
10120000000 -1.057681e+001 8.674565e+001 -1.877193e+001 1.711917e+002 -1.869662e+001 1.730720e+002 -1.430446e+001 1.729467e+002
10215000000 -9.493874e+000 8.343965e+001 -1.934638e+001 1.200179e+002 -1.941769e+001 1.205018e+002 -1.690559e+001 1.681653e+002
10310000000 -7.204009e+000 7.461343e+001 -2.142226e+001 7.353358e+001 -2.161173e+001 7.266847e+001 -1.618652e+001 1.530370e+002
10405000000 -5.900771e+000 5.734820e+001 -2.308941e+001 4.069126e+001 -2.305641e+001 3.890833e+001 -1.893093e+001 1.410750e+002
10500000000 -5.703680e+000 4.373858e+001 -2.257999e+001 2.127614e+000 -2.243785e+001 1.274669e+000 -2.188645e+001 1.241288e+002
10595000000 -5.163457e+000 3.585212e+001 -2.089034e+001 -5.413866e+001 -2.176697e+001 -5.444753e+001 -2.541298e+001 1.784843e+002
10690000000 -3.851871e+000 2.449244e+001 -2.543019e+001 -1.143250e+002 -2.527844e+001 -1.136654e+002 -1.967500e+001 -1.593685e+002
10785000000 -2.974191e+000 3.716400e+000 -2.844879e+001 -1.440299e+002 -3.081183e+001 -1.324686e+002 -1.413193e+001 -1.768289e+002
10880000000 -3.292698e+000 -2.031782e+001 -3.060562e+001 -1.166472e+002 -2.893591e+001 -1.239572e+002 -1.459668e+001 1.576738e+002
10975000000 -4.915872e+000 -3.963353e+001 -2.429399e+001 -1.694367e+002 -2.361099e+001 -1.607369e+002 -1.673899e+001 1.532854e+002
11070000000 -6.377382e+000 -5.594810e+001 -2.007488e+001 1.436778e+002 -2.086627e+001 1.402012e+002 -1.540719e+001 1.715743e+002
11165000000 -8.374770e+000 -7.816520e+001 -2.085943e+001 7.913772e+001 -2.020940e+001 8.366677e+001 -1.101859e+001 1.565420e+002
11260000000 -1.308744e+001 -1.036264e+002 -1.986051e+001 3.430069e+001 -2.051214e+001 3.377581e+001 -1.058869e+001 1.348857e+002
11355000000 -2.186726e+001 -1.122501e+002 -2.186445e+001 -6.638366e+000 -2.070944e+001 -4.843453e+000 -1.053825e+001 1.197280e+002
11450000000 -2.938398e+001 -6.027671e+001 -1.917743e+001 -4.572975e+001 -1.927015e+001 -5.261627e+001 -1.165117e+001 1.145054e+002
11545000000 -3.583590e+001 2.475443e+001 -1.809398e+001 -1.017147e+002 -1.880226e+001 -1.022765e+002 -1.103729e+001 1.029029e+002
11640000000 -2.024024e+001 4.605951e+001 -1.786531e+001 -1.570543e+002 -1.853188e+001 -1.528947e+002 -1.100388e+001 9.790213e+001
11735000000 -1.495300e+001 2.774453e+001 -1.790499e+001 1.582973e+002 -1.807917e+001 1.562407e+002 -1.132649e+001 7.766535e+001
11830000000 -1.417555e+001 8.702799e+000 -1.776151e+001 1.062204e+002 -1.887556e+001 1.071211e+002 -1.116073e+001 7.229085e+001
11925000000 -1.373930e+001 4.452382e-001 -1.954235e+001 6.391649e+001 -2.005809e+001 5.993731e+001 -1.270845e+001 6.843009e+001
12020000000 -1.371336e+001 -9.946446e+000 -2.120883e+001 1.833529e+001 -1.955702e+001 1.790377e+001 -1.027248e+001 5.446700e+001
12115000000 -1.455589e+001 -1.783649e+001 -1.911355e+001 -2.943834e+001 -1.910837e+001 -2.567671e+001 -1.196422e+001 3.986399e+001
12210000000 -1.619268e+001 -1.853386e+001 -1.768325e+001 -7.336242e+001 -1.831507e+001 -7.312678e+001 -1.151113e+001 4.617833e+001
12305000000 -1.684520e+001 4.632047e+000 -1.792021e+001 -1.196953e+002 -1.878983e+001 -1.222162e+002 -1.182583e+001 3.846773e+001
12400000000 -1.307685e+001 1.169310e+001 -1.917175e+001 -1.757101e+002 -1.835708e+001 -1.738467e+002 -9.135758e+000 3.298862e+001
12495000000 -1.048128e+001 -1.639357e+000 -1.880964e+001 1.328616e+002 -1.927453e+001 1.369048e+002 -9.790937e+000 1.953377e+001
12590000000 -9.827063e+000 -1.730065e+001 -2.000414e+001 8.986256e+001 -1.993749e+001 8.736074e+001 -9.572357e+000 4.209453e+000
12685000000 -1.062401e+001 -2.462733e+001 -2.152465e+001 4.519267e+001 -2.116450e+001 4.168435e+001 -1.130019e+001 -4.642971e-001
12780000000 -1.038184e+001 -2.544008e+001 -2.269513e+001 8.516109e+000 -2.157443e+001 1.374135e+000 -9.918439e+000 -7.897779e+000
12875000000 -8.813022e+000 -3.150711e+001 -2.195475e+001 -3.247288e+001 -2.133275e+001 -3.784142e+001 -8.484293e+000 -1.449995e+001
12970000000 -8.129315e+000 -4.444425e+001 -2.134494e+001 -7.530511e+001 -2.045506e+001 -8.109666e+001 -7.740454e+000 -2.012022e+001
13065000000 -8.632408e+000 -6.039649e+001 -2.160607e+001 -1.296130e+002 -2.054505e+001 -1.360934e+002 -1.024161e+001 -3.858071e+001
13160000000 -9.593708e+000 -6.356757e+001 -2.343978e+001 -1.734635e+002 -2.249062e+001 1.770501e+002 -9.247425e+000 -4.746753e+001
13255000000 -9.251867e+000 -6.749512e+001 -2.444989e+001 1.546195e+002 -2.363902e+001 1.446122e+002 -8.519613e+000 -4.499043e+001
13350000000 -8.247837e+000 -7.898083e+001 -2.444063e+001 1.194419e+002 -2.283186e+001 1.121122e+002 -8.544023e+000 -5.738569e+001
13445000000 -8.030540e+000 -9.412691e+001 -2.269988e+001 7.191149e+001 -2.087188e+001 6.539278e+001 -8.744822e+000 -7.337735e+001
13540000000 -9.304494e+000 -1.155825e+002 -2.211639e+001 2.063039e+001 -2.103718e+001 1.671647e+001 -8.384719e+000 -7.872846e+001
13635000000 -1.119726e+001 -1.280199e+002 -2.186272e+001 -1.917024e+001 -2.090349e+001 -2.937950e+001 -8.812874e+000 -8.348998e+001
13730000000 -1.398078e+001 -1.325720e+002 -2.054775e+001 -5.984608e+001 -2.112878e+001 -6.702740e+001 -8.112016e+000 -9.440812e+001
13825000000 -1.566021e+001 -1.349983e+002 -1.916494e+001 -1.037354e+002 -1.948887e+001 -1.099434e+002 -1.014932e+001 -1.049136e+002
13920000000 -1.608991e+001 -1.330059e+002 -1.800725e+001 -1.530537e+002 -1.802244e+001 -1.575156e+002 -1.092978e+001 -1.229386e+002
14015000000 -1.793553e+001 -1.398177e+002 -1.764165e+001 1.515448e+002 -1.734651e+001 1.454527e+002 -1.097893e+001 -1.341186e+002
14110000000 -1.919339e+001 -1.302651e+002 -1.740547e+001 9.906849e+001 -1.690696e+001 9.290038e+001 -1.159747e+001 -1.273479e+002
14205000000 -1.611634e+001 -1.237100e+002 -1.700764e+001 4.733005e+001 -1.699815e+001 4.121197e+001 -1.387884e+001 -1.366169e+002
14300000000 -1.436436e+001 -1.467086e+002 -1.762815e+001 -6.660119e+000 -1.732015e+001 -1.158289e+001 -1.454212e+001 -1.603435e+002
14395000000 -1.513920e+001 -1.756751e+002 -1.814742e+001 -6.092146e+001 -1.778008e+001 -6.653412e+001 -1.491914e+001 -1.747587e+002
14490000000 -1.680702e+001 1.714122e+002 -1.926911e+001 -1.136721e+002 -1.898723e+001 -1.184021e+002 -1.829380e+001 1.749099e+002
14585000000 -1.630967e+001 1.545103e+002 -2.043799e+001 -1.582272e+002 -2.108885e+001 -1.642437e+002 -2.349746e+001 1.448449e+002
14680000000 -1.535331e+001 1.238381e+002 -2.167678e+001 1.607745e+002 -2.240773e+001 1.558462e+002 -2.493092e+001 1.206533e+002
14775000000 -1.641180e+001 7.839456e+001 -2.139384e+001 1.141428e+002 -2.324594e+001 1.106218e+002 -2.256553e+001 2.261994e+001
14870000000 -2.063430e+001 3.102755e+001 -2.280556e+001 7.405489e+001 -2.496131e+001 7.802986e+001 -1.676539e+001 -5.947239e+000
14965000000 -3.398415e+001 -2.157669e+001 -2.177587e+001 4.776729e+001 -2.263766e+001 5.103381e+001 -2.024950e+001 -3.751040e+001
15060000000 -2.773676e+001 1.242681e+002 -1.962305e+001 1.708470e+000 -2.095350e+001 6.975818e+000 -1.864168e+001 -7.479043e+001
15155000000 -2.233602e+001 7.780412e+001 -1.879043e+001 -4.475029e+001 -2.016306e+001 -4.574319e+001 -1.371571e+001 -6.260299e+001
15250000000 -2.451481e+001 4.929773e+001 -1.898718e+001 -9.300842e+001 -2.038179e+001 -9.191425e+001 -1.595307e+001 -6.718172e+001
