!Agilent Technologies,N5230A,MY45001629,A.07.50.67
!Agilent N5230A: A.07.50.67
!Date: Monday, June 05, 2017 16:29:34
!Correction: S11(Full 2 Port(1,2)) 
!S21(Full 2 Port(1,2)) 
!S12(Full 2 Port(1,2)) 
!S22(Full 2 Port(1,2)) 
!S2P File: Measurements: S11, S21, S12, S22:
# Hz S  dB   R 50
1000000000 -2.192180e-001 5.265111e+001 -4.976331e+001 -1.494131e+001 -5.072594e+001 -1.264335e+001 -8.702884e-001 4.357405e+001
1095000000 -2.422394e-001 3.647901e+001 -4.329748e+001 -6.143242e+001 -4.328510e+001 -5.421644e+001 -1.102630e+000 2.641483e+001
1190000000 -4.043437e-001 1.809195e+001 -3.405305e+001 -1.079612e+002 -3.400378e+001 -1.073164e+002 -1.561897e+000 7.984362e+000
1285000000 -9.568535e-001 -2.135639e+000 -2.605516e+001 1.797591e+002 -2.595473e+001 -1.797792e+002 -2.341136e+000 -9.742118e+000
1380000000 -1.450457e+000 -2.418680e+001 -2.094704e+001 1.026641e+002 -2.091129e+001 1.030690e+002 -2.547272e+000 -2.921204e+001
1475000000 -2.975273e+000 -5.644616e+001 -1.525144e+001 3.170807e+001 -1.519798e+001 3.169329e+001 -3.418345e+000 -6.142136e+001
1570000000 -8.890828e+000 -9.750054e+001 -1.067092e+001 -5.406905e+001 -1.066040e+001 -5.401174e+001 -8.584538e+000 -1.028625e+002
1665000000 -2.157029e+001 -3.992960e+001 -9.236659e+000 -1.438303e+002 -9.225185e+000 -1.437644e+002 -1.978588e+001 -8.402440e+001
1760000000 -1.258530e+001 -1.266947e+000 -9.944011e+000 1.385699e+002 -9.931623e+000 1.386268e+002 -1.700765e+001 -1.693357e+001
1855000000 -8.089067e+000 -2.905600e+001 -1.078310e+001 7.863295e+001 -1.076359e+001 7.853314e+001 -1.105585e+001 -3.253617e+001
1950000000 -7.824199e+000 -5.962946e+001 -1.028907e+001 2.279126e+001 -1.024894e+001 2.267570e+001 -9.488886e+000 -5.924907e+001
2045000000 -1.025708e+001 -7.736559e+001 -9.229820e+000 -3.747170e+001 -9.221257e+000 -3.755901e+001 -1.115551e+001 -8.041866e+001
2140000000 -1.132745e+001 -7.711272e+001 -8.598360e+000 -9.795499e+001 -8.593061e+000 -9.815800e+001 -1.239205e+001 -7.507782e+001
2235000000 -9.772162e+000 -8.627898e+001 -8.527821e+000 -1.591905e+002 -8.548721e+000 -1.593104e+002 -1.043927e+001 -8.437680e+001
2330000000 -1.012514e+001 -1.092629e+002 -8.778782e+000 1.453904e+002 -8.789542e+000 1.453485e+002 -9.895099e+000 -1.052918e+002
2425000000 -1.257638e+001 -1.234437e+002 -8.521576e+000 8.935912e+001 -8.509727e+000 8.963413e+001 -1.127852e+001 -1.182359e+002
2520000000 -1.414273e+001 -1.276029e+002 -8.511950e+000 3.456510e+001 -8.492106e+000 3.466685e+001 -1.259820e+001 -1.285327e+002
2615000000 -1.602045e+001 -1.373869e+002 -8.430084e+000 -2.008597e+001 -8.407099e+000 -2.015079e+001 -1.347988e+001 -1.416172e+002
2710000000 -2.043179e+001 -1.200314e+002 -8.666688e+000 -7.459365e+001 -8.623383e+000 -7.474137e+001 -1.802004e+001 -1.353426e+002
2805000000 -1.624605e+001 -9.213383e+001 -8.782513e+000 -1.267813e+002 -8.783884e+000 -1.270870e+002 -1.654956e+001 -1.116725e+002
2900000000 -1.249277e+001 -1.111174e+002 -9.094897e+000 -1.771163e+002 -9.094573e+000 -1.773714e+002 -1.217826e+001 -1.153681e+002
2995000000 -1.232395e+001 -1.347643e+002 -8.787145e+000 1.341105e+002 -8.824182e+000 1.341531e+002 -1.145597e+001 -1.368693e+002
3090000000 -1.558958e+001 -1.446496e+002 -8.326772e+000 8.223892e+001 -8.332186e+000 8.242052e+001 -1.341331e+001 -1.501709e+002
3185000000 -1.577161e+001 -1.113162e+002 -8.125043e+000 2.836843e+001 -8.112647e+000 2.828154e+001 -1.439775e+001 -1.258391e+002
3280000000 -1.018498e+001 -1.160425e+002 -8.437095e+000 -2.539616e+001 -8.414446e+000 -2.521493e+001 -9.616866e+000 -1.324175e+002
3375000000 -7.967086e+000 -1.419721e+002 -8.860823e+000 -7.596457e+001 -8.882982e+000 -7.577778e+001 -7.914380e+000 -1.528341e+002
3470000000 -7.835096e+000 -1.640439e+002 -9.089209e+000 -1.235752e+002 -9.087577e+000 -1.235912e+002 -8.210348e+000 -1.756396e+002
3565000000 -8.511353e+000 1.785418e+002 -9.024325e+000 -1.730033e+002 -8.993058e+000 -1.728104e+002 -9.088218e+000 1.712769e+002
3660000000 -9.697765e+000 1.642254e+002 -8.791154e+000 1.385787e+002 -8.781487e+000 1.387029e+002 -1.038876e+001 1.637110e+002
3755000000 -1.109042e+001 1.533509e+002 -8.495050e+000 8.808671e+001 -8.464712e+000 8.821075e+001 -1.076481e+001 1.561802e+002
3850000000 -1.370373e+001 1.494405e+002 -8.317996e+000 3.642117e+001 -8.281100e+000 3.650561e+001 -1.207682e+001 1.488444e+002
3945000000 -1.492861e+001 1.636012e+002 -8.306194e+000 -1.613405e+001 -8.296509e+000 -1.613096e+001 -1.250710e+001 1.481628e+002
4040000000 -1.272052e+001 1.650865e+002 -8.661896e+000 -6.762980e+001 -8.631722e+000 -6.770805e+001 -1.148214e+001 1.398074e+002
4135000000 -1.270592e+001 1.547242e+002 -8.832009e+000 -1.202520e+002 -8.792799e+000 -1.203005e+002 -1.315202e+001 1.162276e+002
4230000000 -1.374004e+001 1.582411e+002 -9.724274e+000 -1.744501e+002 -9.680819e+000 -1.744637e+002 -2.114509e+001 1.179745e+002
4325000000 -1.156158e+001 1.597217e+002 -1.116910e+001 1.380484e+002 -1.114545e+001 1.378306e+002 -1.600244e+001 1.704205e+002
4420000000 -1.028758e+001 1.478316e+002 -1.202259e+001 9.529784e+001 -1.201036e+001 9.500494e+001 -1.240330e+001 1.559360e+002
4515000000 -1.011433e+001 1.371032e+002 -1.215677e+001 5.275535e+001 -1.211523e+001 5.289338e+001 -1.052705e+001 1.421020e+002
4610000000 -9.656103e+000 1.285199e+002 -1.189954e+001 7.705238e+000 -1.185226e+001 7.516793e+000 -9.436098e+000 1.222241e+002
4705000000 -9.409514e+000 1.172963e+002 -1.184907e+001 -4.025880e+001 -1.180611e+001 -4.076069e+001 -8.688540e+000 9.848377e+001
4800000000 -9.567286e+000 1.012929e+002 -1.187672e+001 -8.813790e+001 -1.181898e+001 -8.828537e+001 -9.905312e+000 7.177700e+001
4895000000 -1.060105e+001 8.872405e+001 -1.193395e+001 -1.367622e+002 -1.190738e+001 -1.369220e+002 -1.173477e+001 4.519848e+001
4990000000 -1.207260e+001 7.784686e+001 -1.229404e+001 1.748046e+002 -1.227816e+001 1.746499e+002 -1.556317e+001 2.262857e+001
5085000000 -1.387224e+001 6.740012e+001 -1.264360e+001 1.273323e+002 -1.259934e+001 1.273929e+002 -2.141162e+001 1.044646e+001
5180000000 -1.684690e+001 6.682716e+001 -1.310319e+001 8.170707e+001 -1.309974e+001 8.148246e+001 -2.927626e+001 4.579792e+001
5275000000 -1.840903e+001 8.726084e+001 -1.312324e+001 3.648230e+001 -1.314359e+001 3.610381e+001 -2.402855e+001 7.652657e+001
5370000000 -1.574844e+001 9.170454e+001 -1.351188e+001 -9.695262e+000 -1.355039e+001 -1.033433e+001 -1.837838e+001 6.076834e+001
5465000000 -1.454516e+001 7.831049e+001 -1.366630e+001 -5.293162e+001 -1.369290e+001 -5.369416e+001 -1.649364e+001 2.996282e+001
5560000000 -1.539895e+001 6.562890e+001 -1.349964e+001 -9.723993e+001 -1.351607e+001 -9.750814e+001 -1.750891e+001 -9.786393e+000
5655000000 -1.661914e+001 6.659433e+001 -1.294299e+001 -1.458079e+002 -1.297355e+001 -1.457198e+002 -2.227901e+001 -4.459532e+001
5750000000 -1.440633e+001 6.390782e+001 -1.310579e+001 1.629604e+002 -1.305724e+001 1.630446e+002 -2.779943e+001 1.172968e+000
5845000000 -1.333235e+001 3.860353e+001 -1.403529e+001 1.126661e+002 -1.401589e+001 1.125185e+002 -2.001020e+001 -6.313925e+000
5940000000 -1.416354e+001 4.804247e+000 -1.495659e+001 7.011812e+001 -1.500254e+001 6.951727e+001 -1.714557e+001 -3.601053e+001
6035000000 -1.674282e+001 -3.134917e+001 -1.556383e+001 2.918933e+001 -1.561952e+001 2.849669e+001 -1.569058e+001 -6.896844e+001
6130000000 -1.835913e+001 -8.593417e+001 -1.535970e+001 -8.690300e+000 -1.540965e+001 -9.371416e+000 -1.599619e+001 -1.077866e+002
6225000000 -1.810032e+001 -1.624693e+002 -1.469250e+001 -5.173580e+001 -1.475118e+001 -5.210277e+001 -1.865148e+001 -1.407860e+002
6320000000 -1.697009e+001 1.291286e+002 -1.390668e+001 -9.694035e+001 -1.382128e+001 -9.736713e+001 -3.009351e+001 -1.606704e+002
6415000000 -1.876991e+001 7.482086e+001 -1.339802e+001 -1.467549e+002 -1.337319e+001 -1.468622e+002 -2.602321e+001 -6.033013e+001
6510000000 -2.742020e+001 2.774638e+001 -1.343983e+001 1.643036e+002 -1.341513e+001 1.648232e+002 -1.796410e+001 -8.631310e+001
6605000000 -2.981816e+001 1.450862e+002 -1.334305e+001 1.182469e+002 -1.336065e+001 1.183223e+002 -1.585898e+001 -1.171154e+002
6700000000 -2.220874e+001 1.205872e+002 -1.314379e+001 7.157676e+001 -1.318814e+001 7.158095e+001 -1.654239e+001 -1.468676e+002
6795000000 -2.084764e+001 8.183224e+001 -1.307015e+001 2.486324e+001 -1.312473e+001 2.461267e+001 -2.012744e+001 -1.669579e+002
6890000000 -2.348947e+001 3.393929e+001 -1.317704e+001 -2.190509e+001 -1.313975e+001 -2.211535e+001 -2.254491e+001 -1.238972e+002
6985000000 -2.682747e+001 -6.349064e+001 -1.301743e+001 -6.836092e+001 -1.298942e+001 -6.870712e+001 -1.656538e+001 -1.251048e+002
7080000000 -2.108595e+001 -1.400804e+002 -1.277995e+001 -1.172024e+002 -1.277361e+001 -1.173873e+002 -1.295903e+001 -1.426247e+002
7175000000 -1.718181e+001 -1.798322e+002 -1.290401e+001 -1.651586e+002 -1.296522e+001 -1.650960e+002 -1.226905e+001 -1.685105e+002
7270000000 -1.538358e+001 1.558901e+002 -1.309575e+001 1.482807e+002 -1.315585e+001 1.484124e+002 -1.173201e+001 1.719258e+002
7365000000 -1.518811e+001 1.361706e+002 -1.318208e+001 1.032344e+002 -1.326552e+001 1.025496e+002 -1.235232e+001 1.565249e+002
7460000000 -1.554332e+001 1.263342e+002 -1.317330e+001 5.753154e+001 -1.316916e+001 5.713980e+001 -1.256100e+001 1.460301e+002
7555000000 -1.515453e+001 1.250962e+002 -1.296455e+001 1.119116e+001 -1.292602e+001 1.119148e+001 -1.245223e+001 1.355249e+002
7650000000 -1.389812e+001 1.164651e+002 -1.268720e+001 -3.601838e+001 -1.269911e+001 -3.601730e+001 -1.224363e+001 1.266341e+002
7745000000 -1.308759e+001 1.033402e+002 -1.248568e+001 -8.434936e+001 -1.250500e+001 -8.426495e+001 -1.253038e+001 1.122723e+002
7840000000 -1.390703e+001 9.053432e+001 -1.244750e+001 -1.320506e+002 -1.251591e+001 -1.323441e+002 -1.292801e+001 1.097451e+002
7935000000 -1.510866e+001 8.802002e+001 -1.260223e+001 -1.796442e+002 -1.261620e+001 -1.798057e+002 -1.302435e+001 1.033412e+002
8030000000 -1.476251e+001 8.884574e+001 -1.256600e+001 1.319564e+002 -1.248402e+001 1.321387e+002 -1.202811e+001 9.970506e+001
8125000000 -1.406039e+001 7.913076e+001 -1.253045e+001 8.314420e+001 -1.251010e+001 8.336069e+001 -1.171123e+001 8.554650e+001
8220000000 -1.605911e+001 6.799017e+001 -1.266201e+001 3.343457e+001 -1.266650e+001 3.368965e+001 -1.183770e+001 7.689133e+001
8315000000 -1.790079e+001 8.669096e+001 -1.312763e+001 -1.426921e+001 -1.323929e+001 -1.444092e+001 -1.268685e+001 7.000263e+001
8410000000 -1.429002e+001 9.737745e+001 -1.365666e+001 -6.055481e+001 -1.370690e+001 -6.025863e+001 -1.199343e+001 6.479360e+001
8505000000 -1.184502e+001 8.137466e+001 -1.383849e+001 -1.052091e+002 -1.392718e+001 -1.051844e+002 -1.137819e+001 5.569273e+001
8600000000 -1.158490e+001 6.059301e+001 -1.373977e+001 -1.492017e+002 -1.375202e+001 -1.497563e+002 -1.029016e+001 4.086406e+001
8695000000 -1.352413e+001 5.073043e+001 -1.365470e+001 1.637317e+002 -1.359821e+001 1.630279e+002 -1.171638e+001 2.702055e+001
8790000000 -1.383862e+001 5.226248e+001 -1.346813e+001 1.135687e+002 -1.340782e+001 1.137891e+002 -1.151132e+001 1.644450e+001
8885000000 -1.261613e+001 4.156627e+001 -1.357551e+001 6.243780e+001 -1.356528e+001 6.325683e+001 -1.151710e+001 8.754134e+000
8980000000 -1.424770e+001 1.646047e+001 -1.434245e+001 1.375004e+001 -1.438077e+001 1.352825e+001 -1.035177e+001 -1.067017e+001
9075000000 -2.000581e+001 -8.071461e+000 -1.494957e+001 -2.888611e+001 -1.502754e+001 -2.978739e+001 -1.200082e+001 -3.410323e+001
9170000000 -2.309231e+001 8.973649e+001 -1.493946e+001 -7.280806e+001 -1.488659e+001 -7.304623e+001 -1.430673e+001 -5.667273e+001
9265000000 -1.590896e+001 6.504088e+001 -1.438300e+001 -1.228689e+002 -1.432144e+001 -1.225060e+002 -1.711450e+001 -4.054153e+001
9360000000 -1.674506e+001 2.772745e+001 -1.479801e+001 -1.759674e+002 -1.477196e+001 -1.753816e+002 -1.436035e+001 -5.205429e+001
9455000000 -2.731433e+001 2.112441e+001 -1.576372e+001 1.361272e+002 -1.588840e+001 1.356630e+002 -1.405891e+001 -7.546043e+001
9550000000 -2.057603e+001 1.097948e+002 -1.682648e+001 9.240781e+001 -1.675517e+001 9.124693e+001 -1.513183e+001 -1.101221e+002
9645000000 -1.518917e+001 8.174072e+001 -1.688749e+001 5.203901e+001 -1.668057e+001 5.070562e+001 -1.980841e+001 -1.175312e+002
9740000000 -1.605433e+001 5.070433e+001 -1.637945e+001 1.039529e+000 -1.631521e+001 1.505925e+000 -1.930525e+001 -9.347445e+001
9835000000 -2.639718e+001 6.767967e+001 -1.696385e+001 -5.300994e+001 -1.700846e+001 -5.207936e+001 -1.440062e+001 -1.069169e+002
9930000000 -1.627984e+001 1.201036e+002 -1.832429e+001 -9.739787e+001 -1.841161e+001 -9.778501e+001 -1.273148e+001 -1.413080e+002
10025000000 -1.182793e+001 1.010285e+002 -1.860669e+001 -1.375917e+002 -1.886084e+001 -1.384445e+002 -1.345240e+001 -1.665282e+002
10120000000 -1.078329e+001 8.524590e+001 -1.860279e+001 1.748382e+002 -1.860925e+001 1.733726e+002 -1.439175e+001 1.733708e+002
10215000000 -9.731841e+000 8.297203e+001 -1.965660e+001 1.210602e+002 -1.941008e+001 1.202442e+002 -1.701156e+001 1.665535e+002
10310000000 -7.231720e+000 7.493808e+001 -2.182797e+001 7.136225e+001 -2.159860e+001 7.338851e+001 -1.636167e+001 1.532425e+002
10405000000 -5.932276e+000 5.756032e+001 -2.296536e+001 3.793628e+001 -2.312205e+001 3.883422e+001 -1.939378e+001 1.401067e+002
10500000000 -5.694589e+000 4.409491e+001 -2.204646e+001 1.010517e+000 -2.245984e+001 2.221359e+000 -2.186739e+001 1.247528e+002
10595000000 -5.143570e+000 3.626323e+001 -2.107082e+001 -4.733171e+001 -2.170267e+001 -5.317047e+001 -2.533640e+001 -1.642262e+002
10690000000 -3.820672e+000 2.464445e+001 -2.600012e+001 -1.062244e+002 -2.512977e+001 -1.115395e+002 -1.825360e+001 -1.662479e+002
10785000000 -2.965890e+000 3.813029e+000 -2.973906e+001 -1.304590e+002 -3.107780e+001 -1.385161e+002 -1.458626e+001 -1.772556e+002
10880000000 -3.288295e+000 -2.017241e+001 -2.866063e+001 -1.102848e+002 -2.914372e+001 -1.246002e+002 -1.482213e+001 1.589586e+002
10975000000 -4.878181e+000 -3.975761e+001 -2.366308e+001 -1.685683e+002 -2.352091e+001 -1.627281e+002 -1.632505e+001 1.513042e+002
11070000000 -6.334058e+000 -5.634087e+001 -2.008097e+001 1.459570e+002 -2.058758e+001 1.422833e+002 -1.560204e+001 1.729899e+002
11165000000 -8.323092e+000 -7.790391e+001 -2.047968e+001 8.103944e+001 -2.006935e+001 8.382893e+001 -1.110970e+001 1.583954e+002
11260000000 -1.292331e+001 -1.038990e+002 -1.947253e+001 3.903804e+001 -2.023953e+001 3.590420e+001 -1.092421e+001 1.309551e+002
11355000000 -2.204763e+001 -1.140428e+002 -2.137627e+001 -2.043241e+000 -2.060561e+001 -9.803605e+000 -1.087137e+001 1.169281e+002
11450000000 -2.937109e+001 -5.218550e+001 -1.980217e+001 -4.262527e+001 -1.947521e+001 -5.147535e+001 -1.162853e+001 1.178158e+002
11545000000 -3.211185e+001 2.985298e+001 -1.821401e+001 -1.049299e+002 -1.881196e+001 -1.011125e+002 -1.109847e+001 1.017237e+002
11640000000 -2.010034e+001 4.519342e+001 -1.764683e+001 -1.530497e+002 -1.856482e+001 -1.509724e+002 -1.106737e+001 1.006772e+002
11735000000 -1.533067e+001 2.720674e+001 -1.770552e+001 1.538450e+002 -1.816246e+001 1.563583e+002 -1.177104e+001 7.954104e+001
11830000000 -1.426583e+001 9.560290e+000 -1.842900e+001 1.075073e+002 -1.883263e+001 1.046278e+002 -1.128481e+001 6.972804e+001
11925000000 -1.361689e+001 4.988503e-002 -1.985772e+001 6.910709e+001 -1.994568e+001 6.183679e+001 -1.229453e+001 7.216299e+001
12020000000 -1.368558e+001 -1.138921e+001 -2.052320e+001 1.972043e+001 -1.946419e+001 2.110388e+001 -1.145262e+001 5.067700e+001
12115000000 -1.471237e+001 -1.839560e+001 -1.876359e+001 -2.816307e+001 -1.901023e+001 -2.240693e+001 -1.198649e+001 4.407921e+001
12210000000 -1.632662e+001 -1.503099e+001 -1.782609e+001 -7.107240e+001 -1.839192e+001 -7.443203e+001 -1.326758e+001 4.557972e+001
12305000000 -1.654074e+001 4.565935e+000 -1.864437e+001 -1.193545e+002 -1.853463e+001 -1.232706e+002 -1.056043e+001 4.102018e+001
12400000000 -1.294362e+001 1.100350e+001 -1.936767e+001 -1.722121e+002 -1.881435e+001 -1.747926e+002 -1.014811e+001 3.568171e+001
12495000000 -1.040638e+001 -3.417822e+000 -1.831842e+001 1.364151e+002 -1.917100e+001 1.365355e+002 -8.909514e+000 1.951823e+001
12590000000 -9.948839e+000 -1.826378e+001 -1.858951e+001 8.887910e+001 -1.999240e+001 8.578758e+001 -8.703292e+000 -1.496686e-001
12685000000 -1.083317e+001 -2.507726e+001 -1.990876e+001 4.652764e+001 -2.093009e+001 4.142338e+001 -1.099033e+001 1.837766e+000
12780000000 -1.052208e+001 -2.402967e+001 -2.036866e+001 9.096883e+000 -2.215030e+001 3.233556e+000 -1.104943e+001 -2.967479e+000
12875000000 -8.962420e+000 -3.058530e+001 -2.046486e+001 -3.453243e+001 -2.142740e+001 -3.598771e+001 -8.868108e+000 -1.548119e+001
12970000000 -8.052657e+000 -4.293261e+001 -1.991401e+001 -7.732557e+001 -2.075374e+001 -7.953221e+001 -8.066163e+000 -2.537809e+001
13065000000 -8.483005e+000 -5.932986e+001 -2.011547e+001 -1.308600e+002 -2.083740e+001 -1.327402e+002 -9.554588e+000 -4.247563e+001
13160000000 -9.384200e+000 -6.560561e+001 -2.123630e+001 -1.793648e+002 -2.238523e+001 1.780472e+002 -8.609298e+000 -4.153598e+001
13255000000 -9.295663e+000 -6.846367e+001 -2.273685e+001 1.503198e+002 -2.491803e+001 1.441732e+002 -9.292506e+000 -4.116687e+001
13350000000 -8.367317e+000 -7.915417e+001 -2.211950e+001 1.136277e+002 -2.261019e+001 1.151285e+002 -9.100130e+000 -6.066660e+001
13445000000 -8.056517e+000 -9.481451e+001 -2.027740e+001 6.756929e+001 -2.082842e+001 6.801160e+001 -8.180670e+000 -7.381488e+001
13540000000 -9.259035e+000 -1.158761e+002 -2.010602e+001 1.773573e+001 -2.055665e+001 1.825591e+001 -8.100330e+000 -7.761021e+001
13635000000 -1.125718e+001 -1.278726e+002 -2.040717e+001 -3.059327e+001 -2.144620e+001 -2.756999e+001 -8.987588e+000 -8.274373e+001
13730000000 -1.390766e+001 -1.329852e+002 -2.023747e+001 -7.343569e+001 -2.087310e+001 -6.634165e+001 -8.500491e+000 -9.719006e+001
13825000000 -1.602120e+001 -1.347443e+002 -1.971101e+001 -1.167232e+002 -1.938508e+001 -1.089003e+002 -1.019018e+001 -1.071350e+002
13920000000 -1.602634e+001 -1.293983e+002 -1.803856e+001 -1.636561e+002 -1.816227e+001 -1.586778e+002 -1.080239e+001 -1.207429e+002
14015000000 -1.738293e+001 -1.349603e+002 -1.690491e+001 1.405921e+002 -1.720712e+001 1.463383e+002 -1.104506e+001 -1.344752e+002
14110000000 -1.852027e+001 -1.331697e+002 -1.656390e+001 8.877154e+001 -1.709981e+001 9.202394e+001 -1.079427e+001 -1.267690e+002
14205000000 -1.636349e+001 -1.271786e+002 -1.683784e+001 3.401336e+001 -1.695619e+001 4.022787e+001 -1.368757e+001 -1.328238e+002
14300000000 -1.467819e+001 -1.493447e+002 -1.769563e+001 -1.669718e+001 -1.742452e+001 -1.050611e+001 -1.490695e+001 -1.573916e+002
14395000000 -1.560517e+001 -1.751070e+002 -1.865730e+001 -7.099726e+001 -1.797027e+001 -6.498246e+001 -1.562556e+001 -1.736273e+002
14490000000 -1.688866e+001 1.731237e+002 -2.084801e+001 -1.218467e+002 -2.014249e+001 -1.171022e+002 -1.799830e+001 1.693438e+002
14585000000 -1.608257e+001 1.534003e+002 -2.274088e+001 -1.680732e+002 -2.145984e+001 -1.619256e+002 -2.130384e+001 1.424969e+002
14680000000 -1.533132e+001 1.234280e+002 -2.478468e+001 1.523385e+002 -2.269072e+001 1.579736e+002 -2.364830e+001 1.128603e+002
14775000000 -1.691663e+001 7.825686e+001 -2.549634e+001 1.113298e+002 -2.417912e+001 1.205872e+002 -2.394370e+001 2.857717e+001
14870000000 -2.163615e+001 3.037992e+001 -2.677299e+001 7.835925e+001 -2.414915e+001 8.292438e+001 -1.872840e+001 -1.390877e+001
14965000000 -4.131153e+001 -4.213858e+000 -2.528619e+001 5.397781e+001 -2.319898e+001 5.281519e+001 -1.944856e+001 -4.883567e+001
15060000000 -2.567212e+001 1.209695e+002 -2.227674e+001 3.216993e+000 -2.073693e+001 4.337388e+000 -1.904314e+001 -6.693784e+001
15155000000 -2.151327e+001 7.467239e+001 -2.115959e+001 -5.023001e+001 -1.998723e+001 -4.545462e+001 -1.497757e+001 -5.912928e+001
15250000000 -2.383734e+001 4.620628e+001 -2.184105e+001 -9.553263e+001 -2.064201e+001 -9.433202e+001 -1.668971e+001 -7.400205e+001
