!Agilent Technologies,N5230A,MY45001629,A.07.50.67
!Agilent N5230A: A.07.50.67
!Date: Monday, June 05, 2017 16:31:07
!Correction: S11(Full 2 Port(1,2)) 
!S21(Full 2 Port(1,2)) 
!S12(Full 2 Port(1,2)) 
!S22(Full 2 Port(1,2)) 
!S2P File: Measurements: S11, S21, S12, S22:
# Hz S  dB   R 50
1000000000 -2.181269e-001 5.257695e+001 -5.091425e+001 -3.003440e+001 -5.113250e+001 -1.180890e+001 -8.543839e-001 4.361778e+001
1095000000 -2.460596e-001 3.638883e+001 -4.329426e+001 -5.738039e+001 -4.350618e+001 -5.423581e+001 -1.095366e+000 2.646963e+001
1190000000 -4.007586e-001 1.802295e+001 -3.443956e+001 -1.064297e+002 -3.411636e+001 -1.063829e+002 -1.565253e+000 8.051383e+000
1285000000 -9.409068e-001 -2.259594e+000 -2.623392e+001 -1.792866e+002 -2.617478e+001 -1.793765e+002 -2.344781e+000 -9.717265e+000
1380000000 -1.457688e+000 -2.440569e+001 -2.107422e+001 1.039671e+002 -2.098782e+001 1.040032e+002 -2.561299e+000 -2.942370e+001
1475000000 -2.999077e+000 -5.666816e+001 -1.526875e+001 3.247146e+001 -1.523285e+001 3.249706e+001 -3.440418e+000 -6.163285e+001
1570000000 -8.999235e+000 -9.758939e+001 -1.076070e+001 -5.325808e+001 -1.072992e+001 -5.341626e+001 -8.672792e+000 -1.025815e+002
1665000000 -2.112207e+001 -3.613776e+001 -9.346043e+000 -1.432587e+002 -9.338710e+000 -1.434090e+002 -1.994983e+001 -8.192708e+001
1760000000 -1.249992e+001 -3.643482e+000 -1.011339e+001 1.396223e+002 -1.011123e+001 1.394414e+002 -1.685916e+001 -1.785862e+001
1855000000 -8.179612e+000 -3.006482e+001 -1.085021e+001 7.988364e+001 -1.086970e+001 7.978058e+001 -1.115526e+001 -3.331221e+001
1950000000 -7.911511e+000 -6.024804e+001 -1.032578e+001 2.368173e+001 -1.033179e+001 2.363675e+001 -9.697013e+000 -5.958483e+001
2045000000 -1.043584e+001 -7.791779e+001 -9.301320e+000 -3.706934e+001 -9.309126e+000 -3.702296e+001 -1.134387e+001 -7.980379e+001
2140000000 -1.156984e+001 -7.617832e+001 -8.742980e+000 -9.732242e+001 -8.724761e+000 -9.736163e+001 -1.235174e+001 -7.404661e+001
2235000000 -9.831844e+000 -8.441749e+001 -8.749938e+000 -1.586719e+002 -8.729244e+000 -1.586902e+002 -1.037086e+001 -8.337139e+001
2330000000 -9.924812e+000 -1.071989e+002 -9.045650e+000 1.464545e+002 -9.031848e+000 1.464843e+002 -9.584591e+000 -1.053653e+002
2425000000 -1.196236e+001 -1.225373e+002 -8.791990e+000 9.114653e+001 -8.766659e+000 9.105416e+001 -1.104340e+001 -1.196930e+002
2520000000 -1.351128e+001 -1.314141e+002 -8.770487e+000 3.686208e+001 -8.760748e+000 3.681553e+001 -1.262563e+001 -1.329504e+002
2615000000 -1.587831e+001 -1.447705e+002 -8.642616e+000 -1.785298e+001 -8.642051e+000 -1.798230e+001 -1.420098e+001 -1.441638e+002
2710000000 -2.230097e+001 -1.280055e+002 -8.945042e+000 -7.255196e+001 -8.931830e+000 -7.257868e+001 -1.912270e+001 -1.320800e+002
2805000000 -1.712696e+001 -8.480490e+001 -9.102884e+000 -1.247715e+002 -9.116952e+000 -1.248118e+002 -1.650141e+001 -1.040365e+002
2900000000 -1.261251e+001 -1.044015e+002 -9.487249e+000 -1.739305e+002 -9.503823e+000 -1.741971e+002 -1.162050e+001 -1.142029e+002
2995000000 -1.175872e+001 -1.275668e+002 -9.253345e+000 1.377659e+002 -9.245835e+000 1.378618e+002 -1.080864e+001 -1.362223e+002
3090000000 -1.367579e+001 -1.413665e+002 -8.792888e+000 8.697298e+001 -8.780099e+000 8.716711e+001 -1.241084e+001 -1.526712e+002
3185000000 -1.506157e+001 -1.261647e+002 -8.464596e+000 3.432853e+001 -8.486659e+000 3.409192e+001 -1.499574e+001 -1.382144e+002
3280000000 -1.108282e+001 -1.220861e+002 -8.559021e+000 -1.880844e+001 -8.580829e+000 -1.883013e+001 -1.076245e+001 -1.329762e+002
3375000000 -8.716040e+000 -1.436047e+002 -8.915961e+000 -6.978326e+001 -8.956511e+000 -6.977034e+001 -8.573441e+000 -1.484419e+002
3470000000 -8.526792e+000 -1.641334e+002 -9.035268e+000 -1.174550e+002 -9.071239e+000 -1.174350e+002 -8.312757e+000 -1.701702e+002
3565000000 -9.223024e+000 -1.792546e+002 -9.025447e+000 -1.665247e+002 -9.051182e+000 -1.665356e+002 -8.637609e+000 1.755742e+002
3660000000 -1.024314e+001 1.701638e+002 -8.796829e+000 1.452991e+002 -8.832913e+000 1.453795e+002 -9.407430e+000 1.655706e+002
3755000000 -1.070359e+001 1.625685e+002 -8.466446e+000 9.543363e+001 -8.491537e+000 9.543116e+001 -9.722419e+000 1.533641e+002
3850000000 -1.179363e+001 1.549098e+002 -8.315720e+000 4.465292e+001 -8.330042e+000 4.461177e+001 -1.125942e+001 1.407440e+002
3945000000 -1.307812e+001 1.522738e+002 -8.096718e+000 -7.044463e+000 -8.104334e+000 -7.087562e+000 -1.374257e+001 1.347339e+002
4040000000 -1.302553e+001 1.520458e+002 -8.188321e+000 -5.871795e+001 -8.201322e+000 -5.877539e+001 -1.397454e+001 1.412108e+002
4135000000 -1.413262e+001 1.451201e+002 -8.317958e+000 -1.116624e+002 -8.319818e+000 -1.117584e+002 -1.480474e+001 1.313985e+002
4230000000 -1.608885e+001 1.627819e+002 -9.142185e+000 -1.653407e+002 -9.135221e+000 -1.652084e+002 -1.816640e+001 1.481414e+002
4325000000 -1.207829e+001 1.698573e+002 -1.035997e+001 1.474725e+002 -1.038524e+001 1.475340e+002 -1.345919e+001 1.618492e+002
4420000000 -9.924350e+000 1.560017e+002 -1.101982e+001 1.054301e+002 -1.103368e+001 1.052834e+002 -1.163549e+001 1.448755e+002
4515000000 -9.032967e+000 1.423880e+002 -1.082660e+001 6.214925e+001 -1.083188e+001 6.228790e+001 -1.104992e+001 1.306678e+002
4610000000 -8.203111e+000 1.284854e+002 -1.034811e+001 1.598796e+001 -1.032872e+001 1.600345e+001 -1.082588e+001 1.148502e+002
4705000000 -8.157350e+000 1.098158e+002 -1.006829e+001 -3.327013e+001 -1.008389e+001 -3.326635e+001 -1.038892e+001 9.822792e+001
4800000000 -9.197971e+000 8.960316e+001 -1.003164e+001 -8.277842e+001 -1.003197e+001 -8.271503e+001 -1.163297e+001 8.074959e+001
4895000000 -1.169879e+001 7.606693e+001 -1.002012e+001 -1.326029e+002 -1.003896e+001 -1.324970e+002 -1.240146e+001 5.957244e+001
4990000000 -1.457718e+001 7.374902e+001 -1.025787e+001 1.768726e+002 -1.029663e+001 1.770510e+002 -1.437521e+001 3.982412e+001
5085000000 -1.619033e+001 7.915533e+001 -1.076121e+001 1.275221e+002 -1.073879e+001 1.275230e+002 -1.730088e+001 2.245336e+001
5180000000 -1.648094e+001 8.797840e+001 -1.140897e+001 8.023873e+001 -1.137476e+001 8.034940e+001 -2.344537e+001 5.332455e+000
5275000000 -1.550333e+001 9.437955e+001 -1.169347e+001 3.404865e+001 -1.165543e+001 3.374865e+001 -2.987694e+001 4.670424e+001
5370000000 -1.357530e+001 8.438658e+001 -1.228001e+001 -1.241075e+001 -1.220876e+001 -1.256650e+001 -2.137981e+001 6.439881e+001
5465000000 -1.360302e+001 6.561856e+001 -1.254906e+001 -5.604450e+001 -1.254652e+001 -5.614740e+001 -1.787621e+001 3.256652e+001
5560000000 -1.593530e+001 4.917075e+001 -1.245824e+001 -1.004685e+002 -1.238912e+001 -1.002780e+002 -1.889910e+001 -6.814148e+000
5655000000 -1.933586e+001 6.124143e+001 -1.191603e+001 -1.484664e+002 -1.190276e+001 -1.488126e+002 -2.462877e+001 -3.655355e+001
5750000000 -1.559865e+001 7.061241e+001 -1.212977e+001 1.597290e+002 -1.217943e+001 1.596418e+002 -2.465729e+001 2.332092e+001
5845000000 -1.370306e+001 4.402481e+001 -1.323812e+001 1.098784e+002 -1.322871e+001 1.100568e+002 -1.801383e+001 -4.267703e+000
5940000000 -1.432902e+001 9.175495e+000 -1.432796e+001 6.749034e+001 -1.423469e+001 6.740739e+001 -1.561761e+001 -3.646180e+001
6035000000 -1.688717e+001 -2.807919e+001 -1.487447e+001 2.660020e+001 -1.475898e+001 2.640815e+001 -1.426724e+001 -7.065725e+001
6130000000 -1.908656e+001 -8.569117e+001 -1.459662e+001 -1.126144e+001 -1.453644e+001 -1.158724e+001 -1.479813e+001 -1.118759e+002
6225000000 -1.916574e+001 -1.678798e+002 -1.398262e+001 -5.424218e+001 -1.394083e+001 -5.471328e+001 -1.721724e+001 -1.490580e+002
6320000000 -1.802268e+001 1.199003e+002 -1.303920e+001 -1.008311e+002 -1.300797e+001 -1.004054e+002 -2.692491e+001 1.609112e+002
6415000000 -2.073140e+001 6.188914e+001 -1.254603e+001 -1.503266e+002 -1.256337e+001 -1.501004e+002 -2.732712e+001 -3.471829e+001
6510000000 -3.456073e+001 -8.791967e+000 -1.278498e+001 1.613954e+002 -1.279414e+001 1.611041e+002 -1.772499e+001 -7.666386e+001
6605000000 -2.515263e+001 1.579423e+002 -1.277616e+001 1.155323e+002 -1.281066e+001 1.147441e+002 -1.561530e+001 -1.121420e+002
6700000000 -2.008554e+001 1.206834e+002 -1.272240e+001 6.832905e+001 -1.276403e+001 6.825100e+001 -1.612678e+001 -1.407559e+002
6795000000 -1.926912e+001 7.984622e+001 -1.279164e+001 2.209572e+001 -1.274033e+001 2.191112e+001 -1.923772e+001 -1.600374e+002
6890000000 -2.178694e+001 3.363132e+001 -1.271551e+001 -2.504726e+001 -1.267541e+001 -2.477486e+001 -2.109261e+001 -1.353988e+002
6985000000 -2.523762e+001 -5.053476e+001 -1.251946e+001 -7.129355e+001 -1.259122e+001 -7.119411e+001 -1.700459e+001 -1.322064e+002
7080000000 -2.114353e+001 -1.317661e+002 -1.237569e+001 -1.192073e+002 -1.242230e+001 -1.194371e+002 -1.367262e+001 -1.457775e+002
7175000000 -1.738353e+001 -1.751300e+002 -1.259094e+001 -1.665994e+002 -1.256532e+001 -1.669663e+002 -1.284866e+001 -1.686485e+002
7270000000 -1.542999e+001 1.600611e+002 -1.284136e+001 1.466318e+002 -1.280548e+001 1.462284e+002 -1.250589e+001 1.742928e+002
7365000000 -1.481416e+001 1.406279e+002 -1.300120e+001 1.002946e+002 -1.297359e+001 1.007174e+002 -1.246828e+001 1.597626e+002
7460000000 -1.470616e+001 1.276664e+002 -1.294548e+001 5.470587e+001 -1.293947e+001 5.516446e+001 -1.227912e+001 1.503226e+002
7555000000 -1.427877e+001 1.209617e+002 -1.263406e+001 9.599959e+000 -1.266675e+001 9.868361e+000 -1.224069e+001 1.352785e+002
7650000000 -1.365680e+001 1.108031e+002 -1.233858e+001 -3.606838e+001 -1.240127e+001 -3.681679e+001 -1.189853e+001 1.261507e+002
7745000000 -1.330176e+001 9.798771e+001 -1.217631e+001 -8.466734e+001 -1.221109e+001 -8.548473e+001 -1.256385e+001 1.117919e+002
7840000000 -1.452251e+001 8.658961e+001 -1.225615e+001 -1.340511e+002 -1.221589e+001 -1.336665e+002 -1.279789e+001 1.079855e+002
7935000000 -1.598598e+001 8.810345e+001 -1.224041e+001 1.786514e+002 -1.224626e+001 1.790816e+002 -1.296536e+001 1.032058e+002
8030000000 -1.513269e+001 9.289602e+001 -1.216897e+001 1.310992e+002 -1.218519e+001 1.311916e+002 -1.208852e+001 9.591975e+001
8125000000 -1.386391e+001 8.328271e+001 -1.206330e+001 8.280781e+001 -1.219816e+001 8.265837e+001 -1.186002e+001 8.480469e+001
8220000000 -1.534837e+001 7.111266e+001 -1.225939e+001 3.326723e+001 -1.228914e+001 3.289613e+001 -1.230574e+001 7.736109e+001
8315000000 -1.709210e+001 8.391927e+001 -1.291459e+001 -1.579414e+001 -1.283773e+001 -1.559509e+001 -1.250612e+001 7.114008e+001
8410000000 -1.415401e+001 9.282626e+001 -1.330650e+001 -6.125591e+001 -1.326896e+001 -6.208576e+001 -1.169132e+001 6.587708e+001
8505000000 -1.193903e+001 7.845871e+001 -1.361215e+001 -1.058560e+002 -1.361285e+001 -1.068174e+002 -1.116870e+001 5.805811e+001
8600000000 -1.169357e+001 5.867212e+001 -1.358594e+001 -1.512934e+002 -1.348389e+001 -1.514178e+002 -9.964154e+000 3.988646e+001
8695000000 -1.387911e+001 4.838523e+001 -1.336257e+001 1.613434e+002 -1.328025e+001 1.616674e+002 -1.134466e+001 2.615389e+001
8790000000 -1.439110e+001 5.149601e+001 -1.305083e+001 1.125669e+002 -1.305224e+001 1.126685e+002 -1.160764e+001 1.372892e+001
8885000000 -1.291657e+001 4.370742e+001 -1.319117e+001 6.234471e+001 -1.320842e+001 6.179449e+001 -1.161745e+001 8.112158e+000
8980000000 -1.443161e+001 2.081007e+001 -1.402238e+001 1.257505e+001 -1.405135e+001 1.220045e+001 -1.068482e+001 -9.940228e+000
9075000000 -1.941342e+001 -1.164050e+000 -1.485766e+001 -3.194136e+001 -1.475022e+001 -3.178351e+001 -1.192449e+001 -3.276138e+001
9170000000 -2.337714e+001 7.612972e+001 -1.480563e+001 -7.454893e+001 -1.476852e+001 -7.430455e+001 -1.438826e+001 -5.483995e+001
9265000000 -1.603557e+001 6.083598e+001 -1.396725e+001 -1.228255e+002 -1.403576e+001 -1.224360e+002 -1.792024e+001 -4.191659e+001
9360000000 -1.671384e+001 2.324250e+001 -1.415497e+001 -1.756525e+002 -1.423533e+001 -1.759096e+002 -1.436602e+001 -4.849669e+001
9455000000 -2.919065e+001 5.354448e+000 -1.528135e+001 1.344491e+002 -1.520192e+001 1.333633e+002 -1.369981e+001 -7.498264e+001
9550000000 -2.021569e+001 1.163394e+002 -1.632650e+001 8.704900e+001 -1.628010e+001 8.682761e+001 -1.450230e+001 -1.094553e+002
9645000000 -1.479962e+001 8.438258e+001 -1.658709e+001 4.582143e+001 -1.653527e+001 4.682698e+001 -1.898745e+001 -1.253563e+002
9740000000 -1.531251e+001 5.326858e+001 -1.616386e+001 -1.308754e+000 -1.614013e+001 -1.458371e+000 -2.082165e+001 -1.011793e+002
9835000000 -2.416427e+001 5.551386e+001 -1.665927e+001 -5.410122e+001 -1.673756e+001 -5.524262e+001 -1.530151e+001 -1.062455e+002
9930000000 -1.720177e+001 1.157014e+002 -1.826072e+001 -1.002417e+002 -1.831704e+001 -1.010044e+002 -1.280228e+001 -1.405051e+002
10025000000 -1.230187e+001 1.019994e+002 -1.925041e+001 -1.425509e+002 -1.907453e+001 -1.424611e+002 -1.351817e+001 -1.640718e+002
10120000000 -1.082098e+001 8.679259e+001 -1.899104e+001 1.707525e+002 -1.874890e+001 1.711951e+002 -1.413880e+001 1.725155e+002
10215000000 -9.617655e+000 8.329644e+001 -1.935558e+001 1.191881e+002 -1.950349e+001 1.193539e+002 -1.647039e+001 1.675986e+002
10310000000 -7.204525e+000 7.437437e+001 -2.137751e+001 7.115176e+001 -2.163506e+001 7.183260e+001 -1.619941e+001 1.519696e+002
10405000000 -5.904770e+000 5.679351e+001 -2.308863e+001 3.834547e+001 -2.315765e+001 3.694575e+001 -1.821830e+001 1.385977e+002
10500000000 -5.667794e+000 4.327005e+001 -2.278491e+001 2.888204e+000 -2.245989e+001 8.335183e-001 -2.171869e+001 1.255664e+002
10595000000 -5.085411e+000 3.520046e+001 -2.194717e+001 -4.853387e+001 -2.172779e+001 -5.395006e+001 -2.442197e+001 1.760897e+002
10690000000 -3.828596e+000 2.388963e+001 -2.541400e+001 -1.196269e+002 -2.424278e+001 -1.081284e+002 -2.036172e+001 -1.620122e+002
10785000000 -2.930924e+000 3.163848e+000 -3.002596e+001 -1.292534e+002 -3.096006e+001 -1.435917e+002 -1.456237e+001 -1.757903e+002
10880000000 -3.272528e+000 -2.104320e+001 -3.340994e+001 -1.149988e+002 -2.972909e+001 -1.244657e+002 -1.445825e+001 1.587928e+002
10975000000 -4.854997e+000 -4.062688e+001 -2.406669e+001 -1.643457e+002 -2.455551e+001 -1.615155e+002 -1.589482e+001 1.516556e+002
11070000000 -6.360845e+000 -5.665236e+001 -2.142894e+001 1.506954e+002 -2.109291e+001 1.443407e+002 -1.559131e+001 1.719935e+002
11165000000 -8.335896e+000 -7.843018e+001 -2.016477e+001 8.240604e+001 -1.993181e+001 8.475652e+001 -1.112450e+001 1.588667e+002
11260000000 -1.298145e+001 -1.050174e+002 -2.036921e+001 4.165146e+001 -2.041117e+001 3.362347e+001 -1.056411e+001 1.323791e+002
11355000000 -2.205353e+001 -1.140493e+002 -2.159403e+001 -8.842847e+000 -2.068799e+001 -5.588348e+000 -1.043724e+001 1.192717e+002
11450000000 -2.863432e+001 -5.191461e+001 -2.012941e+001 -5.209002e+001 -1.941799e+001 -5.206665e+001 -1.168926e+001 1.140343e+002
11545000000 -3.177235e+001 6.841278e+000 -1.849792e+001 -1.000563e+002 -1.894147e+001 -1.011717e+002 -1.131303e+001 1.039383e+002
11640000000 -2.085911e+001 4.229924e+001 -1.835942e+001 -1.492345e+002 -1.863137e+001 -1.502487e+002 -1.115077e+001 9.991222e+001
11735000000 -1.521167e+001 2.770156e+001 -1.782733e+001 1.632827e+002 -1.856313e+001 1.601996e+002 -1.180919e+001 8.045374e+001
11830000000 -1.409160e+001 8.487890e+000 -1.839595e+001 1.101819e+002 -1.858479e+001 1.090671e+002 -1.106987e+001 7.441443e+001
11925000000 -1.388958e+001 -2.344139e+000 -2.035188e+001 6.483672e+001 -1.997954e+001 6.049769e+001 -1.288358e+001 7.473054e+001
12020000000 -1.384025e+001 -9.519594e+000 -2.062784e+001 1.447575e+001 -1.976970e+001 2.145769e+001 -1.094213e+001 5.625361e+001
12115000000 -1.444278e+001 -1.705269e+001 -1.843176e+001 -2.078263e+001 -1.953947e+001 -2.342472e+001 -1.222150e+001 4.685394e+001
12210000000 -1.573970e+001 -1.731704e+001 -1.837836e+001 -6.834923e+001 -1.906266e+001 -7.266099e+001 -1.236054e+001 4.652362e+001
12305000000 -1.658510e+001 7.536905e-001 -1.923372e+001 -1.223068e+002 -1.883426e+001 -1.218226e+002 -1.134830e+001 4.321659e+001
12400000000 -1.329718e+001 9.883427e+000 -1.911410e+001 -1.779425e+002 -1.904121e+001 -1.728960e+002 -1.018532e+001 3.048222e+001
12495000000 -1.057012e+001 -3.090408e+000 -1.892366e+001 1.388159e+002 -1.923372e+001 1.390989e+002 -8.991482e+000 2.274539e+001
12590000000 -9.937319e+000 -1.876109e+001 -1.964737e+001 9.572236e+001 -1.960632e+001 8.940150e+001 -9.194385e+000 2.340587e+000
12685000000 -1.070092e+001 -2.635428e+001 -2.177200e+001 5.022533e+001 -2.141837e+001 4.565674e+001 -1.111940e+001 2.253119e+000
12780000000 -1.045259e+001 -2.485226e+001 -2.162023e+001 1.208424e+001 -2.229834e+001 4.825699e+000 -1.083712e+001 -6.821355e+000
12875000000 -8.802554e+000 -3.109106e+001 -2.160268e+001 -3.042806e+001 -2.178167e+001 -3.528193e+001 -8.973520e+000 -1.849324e+001
12970000000 -7.873473e+000 -4.380086e+001 -2.094793e+001 -7.269013e+001 -2.163473e+001 -7.920612e+001 -7.748556e+000 -2.264925e+001
13065000000 -8.287348e+000 -6.106160e+001 -2.030641e+001 -1.277817e+002 -2.102680e+001 -1.297603e+002 -9.356744e+000 -3.909546e+001
13160000000 -9.409556e+000 -6.746046e+001 -2.138998e+001 -1.782272e+002 -2.252465e+001 1.773112e+002 -9.278656e+000 -4.363869e+001
13255000000 -9.530931e+000 -7.133663e+001 -2.375754e+001 1.508606e+002 -2.458075e+001 1.454782e+002 -9.461766e+000 -4.525493e+001
13350000000 -8.577167e+000 -8.027071e+001 -2.270336e+001 1.171533e+002 -2.396303e+001 1.166685e+002 -8.418394e+000 -6.313268e+001
13445000000 -8.053061e+000 -9.520917e+001 -1.996306e+001 7.496266e+001 -2.150099e+001 7.255434e+001 -7.621605e+000 -7.207072e+001
13540000000 -9.249414e+000 -1.151547e+002 -1.904891e+001 2.221587e+001 -2.047138e+001 1.951623e+001 -7.988991e+000 -7.534354e+001
13635000000 -1.129280e+001 -1.290203e+002 -1.994588e+001 -2.563613e+001 -2.084624e+001 -2.612170e+001 -9.654140e+000 -8.410683e+001
13730000000 -1.403988e+001 -1.339441e+002 -1.946553e+001 -7.086042e+001 -2.077305e+001 -6.627604e+001 -8.800887e+000 -9.855002e+001
13825000000 -1.594099e+001 -1.343302e+002 -1.844402e+001 -1.093972e+002 -1.960841e+001 -1.122324e+002 -9.624654e+000 -1.082481e+002
13920000000 -1.567517e+001 -1.310160e+002 -1.728521e+001 -1.574303e+002 -1.836188e+001 -1.546104e+002 -9.952849e+000 -1.204767e+002
14015000000 -1.697442e+001 -1.395266e+002 -1.660989e+001 1.505696e+002 -1.742855e+001 1.509000e+002 -1.093574e+001 -1.277804e+002
14110000000 -1.907608e+001 -1.401039e+002 -1.637441e+001 9.939375e+001 -1.768626e+001 9.551424e+001 -1.177835e+001 -1.223994e+002
14205000000 -1.720690e+001 -1.279948e+002 -1.630000e+001 4.557008e+001 -1.756791e+001 4.348089e+001 -1.396996e+001 -1.303101e+002
14300000000 -1.514868e+001 -1.459271e+002 -1.716909e+001 -5.569798e+000 -1.781114e+001 -8.161568e+000 -1.417553e+001 -1.607387e+002
14395000000 -1.515036e+001 -1.733833e+002 -1.753259e+001 -5.923212e+001 -1.842488e+001 -6.343279e+001 -1.397486e+001 -1.754553e+002
14490000000 -1.672392e+001 1.693277e+002 -1.878283e+001 -1.168648e+002 -1.965003e+001 -1.169684e+002 -1.720274e+001 1.775191e+002
14585000000 -1.667385e+001 1.531748e+002 -2.030271e+001 -1.604854e+002 -2.160688e+001 -1.640118e+002 -2.195456e+001 1.671450e+002
14680000000 -1.565868e+001 1.269496e+002 -2.260294e+001 1.533148e+002 -2.306239e+001 1.571819e+002 -2.736745e+001 1.050266e+002
14775000000 -1.676083e+001 8.476631e+001 -2.429177e+001 1.109082e+002 -2.376031e+001 1.181840e+002 -2.141036e+001 1.049269e+001
14870000000 -2.053483e+001 3.939163e+001 -2.481717e+001 7.625594e+001 -2.610539e+001 9.016724e+001 -1.523264e+001 -4.087011e+000
14965000000 -3.197191e+001 1.813531e+001 -2.526531e+001 4.994496e+001 -2.492924e+001 6.264824e+001 -1.853920e+001 -2.767604e+001
15060000000 -2.722428e+001 1.111658e+002 -2.259504e+001 6.683779e+000 -2.238245e+001 1.928612e+001 -2.029438e+001 -8.250994e+001
15155000000 -2.233684e+001 6.699483e+001 -2.098845e+001 -4.408984e+001 -2.076707e+001 -3.337148e+001 -1.489792e+001 -8.077311e+001
15250000000 -2.433926e+001 3.819569e+001 -2.084777e+001 -9.598247e+001 -2.126364e+001 -8.262103e+001 -1.491632e+001 -7.479615e+001
