!Agilent Technologies,N5230A,MY45001629,A.07.50.67
!Agilent N5230A: A.07.50.67
!Date: Monday, June 05, 2017 16:29:52
!Correction: S11(Full 2 Port(1,2)) 
!S21(Full 2 Port(1,2)) 
!S12(Full 2 Port(1,2)) 
!S22(Full 2 Port(1,2)) 
!S2P File: Measurements: S11, S21, S12, S22:
# Hz S  dB   R 50
1000000000 -2.177025e-001 5.263549e+001 -5.012988e+001 -1.830006e+001 -5.101563e+001 -1.462651e+001 -8.633550e-001 4.357466e+001
1095000000 -2.441373e-001 3.648452e+001 -4.278506e+001 -6.066363e+001 -4.305427e+001 -5.353926e+001 -1.107486e+000 2.650891e+001
1190000000 -4.007933e-001 1.813836e+001 -3.404749e+001 -1.077878e+002 -3.407719e+001 -1.072880e+002 -1.570385e+000 8.029017e+000
1285000000 -9.503052e-001 -2.082876e+000 -2.598205e+001 1.794063e+002 -2.591232e+001 1.799214e+002 -2.363438e+000 -9.773560e+000
1380000000 -1.441030e+000 -2.420846e+001 -2.094708e+001 1.025671e+002 -2.094188e+001 1.026855e+002 -2.550339e+000 -2.933431e+001
1475000000 -2.977088e+000 -5.644741e+001 -1.522018e+001 3.179603e+001 -1.517479e+001 3.192368e+001 -3.408376e+000 -6.156680e+001
1570000000 -8.891075e+000 -9.752101e+001 -1.065189e+001 -5.350684e+001 -1.065731e+001 -5.367170e+001 -8.621195e+000 -1.025693e+002
1665000000 -2.143143e+001 -3.931187e+001 -9.226946e+000 -1.436301e+002 -9.233821e+000 -1.436342e+002 -1.974733e+001 -8.228334e+001
1760000000 -1.256440e+001 -1.366393e+000 -9.956387e+000 1.388946e+002 -9.977390e+000 1.388403e+002 -1.681982e+001 -1.650109e+001
1855000000 -8.108388e+000 -2.915071e+001 -1.077334e+001 7.898383e+001 -1.076807e+001 7.898598e+001 -1.105960e+001 -3.288446e+001
1950000000 -7.801805e+000 -5.986111e+001 -1.025421e+001 2.255292e+001 -1.024330e+001 2.279268e+001 -9.565671e+000 -5.907355e+001
2045000000 -1.029721e+001 -7.759000e+001 -9.273020e+000 -3.753340e+001 -9.251739e+000 -3.747283e+001 -1.116858e+001 -8.026589e+001
2140000000 -1.138838e+001 -7.698405e+001 -8.664778e+000 -9.795691e+001 -8.613167e+000 -9.809727e+001 -1.244337e+001 -7.530813e+001
2235000000 -9.835747e+000 -8.583652e+001 -8.578573e+000 -1.590064e+002 -8.582781e+000 -1.593149e+002 -1.053219e+001 -8.432686e+001
2330000000 -1.014898e+001 -1.087385e+002 -8.826537e+000 1.456274e+002 -8.801859e+000 1.453712e+002 -9.909770e+000 -1.065950e+002
2425000000 -1.250393e+001 -1.226419e+002 -8.515945e+000 8.953256e+001 -8.535989e+000 8.949992e+001 -1.141652e+001 -1.183965e+002
2520000000 -1.391105e+001 -1.277750e+002 -8.514194e+000 3.468346e+001 -8.544470e+000 3.462285e+001 -1.257722e+001 -1.292800e+002
2615000000 -1.582553e+001 -1.390425e+002 -8.518020e+000 -1.990432e+001 -8.497135e+000 -1.990256e+001 -1.355837e+001 -1.425608e+002
2710000000 -2.071234e+001 -1.233781e+002 -8.758539e+000 -7.463094e+001 -8.749681e+000 -7.449448e+001 -1.812193e+001 -1.341775e+002
2805000000 -1.660743e+001 -9.150125e+001 -8.881449e+000 -1.269410e+002 -8.871586e+000 -1.268514e+002 -1.654375e+001 -1.104653e+002
2900000000 -1.270195e+001 -1.098653e+002 -9.238399e+000 -1.772815e+002 -9.233372e+000 -1.772609e+002 -1.216903e+001 -1.142385e+002
2995000000 -1.240659e+001 -1.324240e+002 -9.001858e+000 1.344133e+002 -8.981333e+000 1.343370e+002 -1.126725e+001 -1.356541e+002
3090000000 -1.523196e+001 -1.417042e+002 -8.517576e+000 8.311949e+001 -8.505264e+000 8.297438e+001 -1.317055e+001 -1.492790e+002
3185000000 -1.531119e+001 -1.138752e+002 -8.303335e+000 2.910954e+001 -8.319363e+000 2.916926e+001 -1.436556e+001 -1.294430e+002
3280000000 -1.022894e+001 -1.177701e+002 -8.564278e+000 -2.424317e+001 -8.592569e+000 -2.427077e+001 -9.865548e+000 -1.334976e+002
3375000000 -8.070198e+000 -1.428564e+002 -8.989225e+000 -7.461936e+001 -8.998945e+000 -7.458891e+001 -8.183223e+000 -1.524861e+002
3470000000 -7.962385e+000 -1.647113e+002 -9.143062e+000 -1.223707e+002 -9.172575e+000 -1.222758e+002 -8.306769e+000 -1.749168e+002
3565000000 -8.679489e+000 1.781637e+002 -9.070399e+000 -1.716978e+002 -9.088829e+000 -1.716781e+002 -9.072968e+000 1.725595e+002
3660000000 -9.939026e+000 1.643106e+002 -8.887603e+000 1.398254e+002 -8.892211e+000 1.398900e+002 -1.019918e+001 1.640299e+002
3755000000 -1.132466e+001 1.550604e+002 -8.575462e+000 8.901520e+001 -8.582143e+000 8.913022e+001 -1.071436e+001 1.555714e+002
3850000000 -1.367836e+001 1.534406e+002 -8.432064e+000 3.740723e+001 -8.439589e+000 3.733828e+001 -1.195907e+001 1.481862e+002
3945000000 -1.419540e+001 1.651875e+002 -8.477367e+000 -1.505700e+001 -8.478388e+000 -1.517817e+001 -1.260264e+001 1.476920e+002
4040000000 -1.224227e+001 1.627411e+002 -8.794508e+000 -6.624448e+001 -8.807496e+000 -6.634049e+001 -1.152889e+001 1.400596e+002
4135000000 -1.261217e+001 1.501393e+002 -8.950440e+000 -1.185851e+002 -8.960535e+000 -1.187976e+002 -1.326693e+001 1.167794e+002
4230000000 -1.431359e+001 1.553638e+002 -9.842093e+000 -1.729996e+002 -9.861068e+000 -1.730263e+002 -2.146483e+001 1.190492e+002
4325000000 -1.201417e+001 1.599171e+002 -1.131100e+001 1.392193e+002 -1.132337e+001 1.394277e+002 -1.569683e+001 1.719562e+002
4420000000 -1.070743e+001 1.492799e+002 -1.223221e+001 9.697028e+001 -1.227326e+001 9.699718e+001 -1.225182e+001 1.558543e+002
4515000000 -1.034089e+001 1.407436e+002 -1.241528e+001 5.548055e+001 -1.241598e+001 5.557926e+001 -1.041719e+001 1.415227e+002
4610000000 -9.344137e+000 1.325436e+002 -1.208465e+001 1.094373e+001 -1.206298e+001 1.126143e+001 -9.306446e+000 1.207464e+002
4705000000 -8.702571e+000 1.183772e+002 -1.193877e+001 -3.661479e+001 -1.198357e+001 -3.656201e+001 -8.689438e+000 9.693943e+001
4800000000 -8.919391e+000 9.884424e+001 -1.187428e+001 -8.346500e+001 -1.188754e+001 -8.351845e+001 -1.016583e+001 7.012910e+001
4895000000 -1.043925e+001 8.365409e+001 -1.175011e+001 -1.322528e+002 -1.177402e+001 -1.323083e+002 -1.229921e+001 4.406376e+001
4990000000 -1.238478e+001 7.352187e+001 -1.195845e+001 1.784737e+002 -1.199612e+001 1.788005e+002 -1.619658e+001 2.619822e+001
5085000000 -1.461953e+001 6.513633e+001 -1.228523e+001 1.306945e+002 -1.226787e+001 1.305612e+002 -2.108789e+001 2.044244e+001
5180000000 -1.801276e+001 6.898083e+001 -1.282500e+001 8.426536e+001 -1.283595e+001 8.445759e+001 -2.745229e+001 4.444304e+001
5275000000 -1.835226e+001 9.785894e+001 -1.295325e+001 3.877377e+001 -1.289534e+001 3.854480e+001 -2.431348e+001 7.293945e+001
5370000000 -1.479869e+001 9.590891e+001 -1.342396e+001 -7.328257e+000 -1.336697e+001 -7.541297e+000 -1.836040e+001 5.950436e+001
5465000000 -1.360564e+001 7.790813e+001 -1.349236e+001 -5.064253e+001 -1.344013e+001 -5.064058e+001 -1.667399e+001 2.631211e+001
5560000000 -1.472134e+001 6.071783e+001 -1.315785e+001 -9.475536e+001 -1.314093e+001 -9.461849e+001 -1.763975e+001 -1.333149e+001
5655000000 -1.684276e+001 6.026175e+001 -1.250008e+001 -1.435869e+002 -1.254475e+001 -1.438898e+002 -2.323676e+001 -4.872146e+001
5750000000 -1.489450e+001 6.204333e+001 -1.260939e+001 1.640321e+002 -1.268794e+001 1.641642e+002 -2.784788e+001 1.886264e+001
5845000000 -1.365670e+001 3.747422e+001 -1.375904e+001 1.136014e+002 -1.375548e+001 1.136188e+002 -1.935534e+001 -3.064718e+000
5940000000 -1.449632e+001 3.296885e+000 -1.489175e+001 7.113793e+001 -1.480599e+001 7.103707e+001 -1.655756e+001 -3.536268e+001
6035000000 -1.731574e+001 -3.388781e+001 -1.545825e+001 3.033736e+001 -1.536725e+001 3.041891e+001 -1.532755e+001 -6.969872e+001
6130000000 -1.905456e+001 -9.146535e+001 -1.515531e+001 -7.008062e+000 -1.511517e+001 -7.062136e+000 -1.576549e+001 -1.094258e+002
6225000000 -1.837629e+001 -1.707763e+002 -1.443278e+001 -4.958162e+001 -1.438690e+001 -5.013205e+001 -1.865774e+001 -1.438938e+002
6320000000 -1.701781e+001 1.206720e+002 -1.349042e+001 -9.572511e+001 -1.344382e+001 -9.629330e+001 -3.172148e+001 -1.680887e+002
6415000000 -1.910388e+001 6.404820e+001 -1.305005e+001 -1.461091e+002 -1.298031e+001 -1.459728e+002 -2.574318e+001 -6.476665e+001
6510000000 -2.889451e+001 7.111592e-001 -1.312256e+001 1.651204e+002 -1.312508e+001 1.655900e+002 -1.762394e+001 -8.729771e+001
6605000000 -2.788626e+001 1.663148e+002 -1.307343e+001 1.190191e+002 -1.304563e+001 1.190632e+002 -1.611110e+001 -1.177882e+002
6700000000 -2.115496e+001 1.262151e+002 -1.287502e+001 7.252862e+001 -1.293312e+001 7.243609e+001 -1.676233e+001 -1.486944e+002
6795000000 -2.008392e+001 8.511959e+001 -1.281000e+001 2.546351e+001 -1.289528e+001 2.511247e+001 -2.086289e+001 -1.613907e+002
6890000000 -2.277492e+001 3.759852e+001 -1.287832e+001 -2.127279e+001 -1.285765e+001 -2.155670e+001 -2.193648e+001 -1.237205e+002
6985000000 -2.712266e+001 -5.643545e+001 -1.278013e+001 -6.754541e+001 -1.269931e+001 -6.780579e+001 -1.601683e+001 -1.271055e+002
7080000000 -2.162776e+001 -1.384237e+002 -1.256438e+001 -1.164498e+002 -1.253364e+001 -1.164726e+002 -1.309562e+001 -1.450530e+002
7175000000 -1.757752e+001 -1.793659e+002 -1.265727e+001 -1.639782e+002 -1.269427e+001 -1.637885e+002 -1.229085e+001 -1.701522e+002
7270000000 -1.597278e+001 1.571500e+002 -1.286264e+001 1.491117e+002 -1.291427e+001 1.493201e+002 -1.204531e+001 1.721317e+002
7365000000 -1.552024e+001 1.392019e+002 -1.296714e+001 1.038297e+002 -1.301562e+001 1.032521e+002 -1.249056e+001 1.557262e+002
7460000000 -1.552432e+001 1.307640e+002 -1.294909e+001 5.811517e+001 -1.293259e+001 5.767779e+001 -1.249867e+001 1.483519e+002
7555000000 -1.448563e+001 1.272467e+002 -1.275650e+001 1.133486e+001 -1.273391e+001 1.178055e+001 -1.253039e+001 1.359022e+002
7650000000 -1.330473e+001 1.153697e+002 -1.257542e+001 -3.590683e+001 -1.251737e+001 -3.519336e+001 -1.201620e+001 1.268514e+002
7745000000 -1.273123e+001 1.003147e+002 -1.232733e+001 -8.333855e+001 -1.237224e+001 -8.379801e+001 -1.257073e+001 1.134068e+002
7840000000 -1.391374e+001 8.615785e+001 -1.230351e+001 -1.312856e+002 -1.234977e+001 -1.314135e+002 -1.288599e+001 1.088619e+002
7935000000 -1.561400e+001 8.528555e+001 -1.246364e+001 -1.786449e+002 -1.241584e+001 -1.788552e+002 -1.296150e+001 1.054348e+002
8030000000 -1.536221e+001 8.905294e+001 -1.238540e+001 1.328786e+002 -1.228311e+001 1.330825e+002 -1.203513e+001 9.838845e+001
8125000000 -1.439402e+001 8.192479e+001 -1.233351e+001 8.375948e+001 -1.233773e+001 8.424835e+001 -1.143745e+001 8.486196e+001
8220000000 -1.608083e+001 7.252845e+001 -1.245447e+001 3.461850e+001 -1.250418e+001 3.470942e+001 -1.199294e+001 7.660220e+001
8315000000 -1.716660e+001 8.874088e+001 -1.292099e+001 -1.301580e+001 -1.298766e+001 -1.345729e+001 -1.263871e+001 6.810468e+001
8410000000 -1.393023e+001 9.587660e+001 -1.337224e+001 -5.918724e+001 -1.348505e+001 -5.947469e+001 -1.207957e+001 6.375551e+001
8505000000 -1.171960e+001 7.988063e+001 -1.359577e+001 -1.041193e+002 -1.367717e+001 -1.042951e+002 -1.149382e+001 5.775674e+001
8600000000 -1.157324e+001 5.905726e+001 -1.356718e+001 -1.485084e+002 -1.357625e+001 -1.494919e+002 -1.027925e+001 4.086130e+001
8695000000 -1.358917e+001 4.885875e+001 -1.352594e+001 1.640757e+002 -1.347112e+001 1.632999e+002 -1.137655e+001 2.711755e+001
8790000000 -1.405603e+001 5.041712e+001 -1.322790e+001 1.144400e+002 -1.318507e+001 1.147708e+002 -1.164216e+001 1.587989e+001
8885000000 -1.296484e+001 4.094116e+001 -1.328697e+001 6.351474e+001 -1.334887e+001 6.368456e+001 -1.146516e+001 6.963956e+000
8980000000 -1.479890e+001 1.808502e+001 -1.402010e+001 1.462777e+001 -1.410821e+001 1.446611e+001 -1.056030e+001 -1.026705e+001
9075000000 -2.067250e+001 -8.266034e-001 -1.480870e+001 -2.924742e+001 -1.480635e+001 -2.991935e+001 -1.209416e+001 -3.533645e+001
9170000000 -2.189800e+001 8.434794e+001 -1.478766e+001 -7.237007e+001 -1.477743e+001 -7.282900e+001 -1.420630e+001 -5.399593e+001
9265000000 -1.551090e+001 6.209006e+001 -1.419582e+001 -1.217090e+002 -1.412853e+001 -1.214075e+002 -1.745256e+001 -4.223811e+001
9360000000 -1.639500e+001 2.438952e+001 -1.445184e+001 -1.749689e+002 -1.448628e+001 -1.745058e+002 -1.391354e+001 -5.218658e+001
9455000000 -2.776281e+001 5.113667e+000 -1.544254e+001 1.374869e+002 -1.548416e+001 1.366424e+002 -1.427321e+001 -7.652280e+001
9550000000 -2.082316e+001 1.161508e+002 -1.654052e+001 9.271828e+001 -1.639159e+001 9.142748e+001 -1.488950e+001 -1.096486e+002
9645000000 -1.520324e+001 8.447047e+001 -1.656716e+001 5.124513e+001 -1.637554e+001 5.059768e+001 -1.988227e+001 -1.159730e+002
9740000000 -1.589828e+001 5.452787e+001 -1.601643e+001 7.323709e-001 -1.599326e+001 1.479679e+000 -1.951842e+001 -9.832864e+001
9835000000 -2.451172e+001 6.802745e+001 -1.643868e+001 -5.267653e+001 -1.660922e+001 -5.211364e+001 -1.419916e+001 -1.081924e+002
9930000000 -1.631213e+001 1.153242e+002 -1.791950e+001 -9.755470e+001 -1.805077e+001 -9.775513e+001 -1.301781e+001 -1.421713e+002
10025000000 -1.218399e+001 9.993511e+001 -1.862463e+001 -1.382560e+002 -1.855872e+001 -1.400035e+002 -1.337383e+001 -1.669756e+002
10120000000 -1.102829e+001 8.606797e+001 -1.847314e+001 1.722847e+002 -1.838455e+001 1.724946e+002 -1.438915e+001 1.728890e+002
10215000000 -9.731969e+000 8.446854e+001 -1.932974e+001 1.188587e+002 -1.920709e+001 1.203351e+002 -1.693674e+001 1.652992e+002
10310000000 -7.208427e+000 7.563509e+001 -2.141880e+001 7.182800e+001 -2.139796e+001 7.235506e+001 -1.631711e+001 1.534079e+002
10405000000 -5.898963e+000 5.787723e+001 -2.269862e+001 3.832581e+001 -2.306919e+001 3.863328e+001 -1.917641e+001 1.402874e+002
10500000000 -5.686619e+000 4.431745e+001 -2.211357e+001 2.181735e+000 -2.227373e+001 1.325772e+000 -2.163898e+001 1.271968e+002
10595000000 -5.122604e+000 3.598810e+001 -2.217619e+001 -4.520843e+001 -2.187609e+001 -5.402640e+001 -2.899875e+001 -1.675483e+002
10690000000 -3.849931e+000 2.464511e+001 -2.463428e+001 -1.173170e+002 -2.506504e+001 -1.094273e+002 -1.762528e+001 -1.624296e+002
10785000000 -2.950130e+000 3.700812e+000 -2.960497e+001 -1.214482e+002 -3.076972e+001 -1.430651e+002 -1.424548e+001 1.776757e+002
10880000000 -3.254224e+000 -2.013113e+001 -3.190928e+001 -1.200025e+002 -2.955143e+001 -1.258775e+002 -1.597789e+001 1.607748e+002
10975000000 -4.844947e+000 -3.958339e+001 -2.305931e+001 -1.628457e+002 -2.359188e+001 -1.604133e+002 -1.571908e+001 1.603403e+002
11070000000 -6.302099e+000 -5.629125e+001 -2.124900e+001 1.492032e+002 -2.072456e+001 1.431594e+002 -1.574021e+001 1.660661e+002
11165000000 -8.341696e+000 -7.869611e+001 -1.973224e+001 8.264539e+001 -2.006861e+001 8.557766e+001 -1.158283e+001 1.591091e+002
11260000000 -1.302677e+001 -1.053390e+002 -2.125737e+001 4.266172e+001 -2.064161e+001 3.488946e+001 -1.021049e+001 1.330910e+002
11355000000 -2.246309e+001 -1.134335e+002 -2.106108e+001 -9.452938e+000 -2.088544e+001 -8.190069e+000 -1.093770e+001 1.139777e+002
11450000000 -2.857963e+001 -4.270625e+001 -2.069926e+001 -5.321422e+001 -1.933625e+001 -5.261320e+001 -1.168605e+001 1.122294e+002
11545000000 -3.222179e+001 1.867387e+001 -1.857224e+001 -9.843813e+001 -1.868739e+001 -1.010668e+002 -1.118447e+001 9.823483e+001
11640000000 -2.072079e+001 4.503299e+001 -1.861190e+001 -1.450439e+002 -1.870893e+001 -1.513540e+002 -1.109512e+001 9.479337e+001
11735000000 -1.539309e+001 2.710200e+001 -1.800432e+001 1.625576e+002 -1.820723e+001 1.558708e+002 -1.093359e+001 8.210760e+001
11830000000 -1.426413e+001 1.077506e+001 -1.976512e+001 1.110660e+002 -1.893535e+001 1.075783e+002 -1.109941e+001 7.597161e+001
11925000000 -1.346148e+001 -1.206361e+000 -2.127566e+001 6.349133e+001 -2.001678e+001 6.557218e+001 -1.271935e+001 6.493203e+001
12020000000 -1.383686e+001 -1.102036e+001 -1.915211e+001 2.014701e+001 -1.948842e+001 1.933434e+001 -1.069371e+001 5.475634e+001
12115000000 -1.472954e+001 -1.667301e+001 -1.848091e+001 -1.737507e+001 -1.908535e+001 -2.444169e+001 -1.232054e+001 3.929752e+001
12210000000 -1.608809e+001 -1.451676e+001 -1.864631e+001 -6.742511e+001 -1.838164e+001 -7.421784e+001 -1.204497e+001 4.827715e+001
12305000000 -1.626659e+001 4.492799e+000 -1.901431e+001 -1.271983e+002 -1.838723e+001 -1.231933e+002 -1.234690e+001 3.927501e+001
12400000000 -1.303217e+001 9.342220e+000 -1.815673e+001 -1.779951e+002 -1.875051e+001 -1.748359e+002 -9.530065e+000 3.074439e+001
12495000000 -1.045608e+001 -3.446619e+000 -1.875358e+001 1.446050e+002 -1.908970e+001 1.339799e+002 -1.028036e+001 1.848814e+001
12590000000 -9.980774e+000 -1.887049e+001 -1.971684e+001 9.744522e+001 -2.001075e+001 8.784999e+001 -9.272595e+000 -1.701904e+000
12685000000 -1.087910e+001 -2.505094e+001 -2.196932e+001 4.944734e+001 -2.117854e+001 4.201405e+001 -1.090532e+001 -4.064651e-001
12780000000 -1.057587e+001 -2.318943e+001 -2.350252e+001 9.987383e+000 -2.221705e+001 2.161166e+000 -1.034067e+001 -3.956684e+000
12875000000 -8.860723e+000 -3.041764e+001 -2.190201e+001 -2.542775e+001 -2.179156e+001 -3.763300e+001 -8.978548e+000 -1.304430e+001
12970000000 -7.915853e+000 -4.221276e+001 -2.119909e+001 -7.241988e+001 -2.132693e+001 -7.969843e+001 -8.261147e+000 -2.258988e+001
13065000000 -8.270778e+000 -5.964136e+001 -2.114567e+001 -1.261593e+002 -2.054361e+001 -1.344010e+002 -9.858906e+000 -4.149430e+001
13160000000 -9.238008e+000 -6.508637e+001 -2.239723e+001 -1.712730e+002 -2.218087e+001 1.759290e+002 -8.607638e+000 -4.544112e+001
13255000000 -9.289421e+000 -7.068434e+001 -2.512923e+001 1.537467e+002 -2.488832e+001 1.432628e+002 -9.063802e+000 -4.336805e+001
13350000000 -8.537236e+000 -8.006370e+001 -2.405322e+001 1.234563e+002 -2.414560e+001 1.183509e+002 -8.836009e+000 -5.918810e+001
13445000000 -8.176816e+000 -9.397531e+001 -2.166775e+001 7.549275e+001 -2.157672e+001 6.878226e+001 -8.196088e+000 -7.339159e+001
13540000000 -9.226017e+000 -1.146775e+002 -2.074930e+001 2.514472e+001 -2.087563e+001 2.099745e+001 -8.226941e+000 -7.707442e+001
13635000000 -1.099212e+001 -1.276697e+002 -2.067928e+001 -1.779241e+001 -2.104264e+001 -2.235945e+001 -9.046744e+000 -8.461407e+001
13730000000 -1.402901e+001 -1.331671e+002 -2.022521e+001 -6.256782e+001 -2.086277e+001 -6.840490e+001 -8.354917e+000 -9.988286e+001
13825000000 -1.614870e+001 -1.332417e+002 -1.915116e+001 -1.085219e+002 -1.989608e+001 -1.088763e+002 -1.000869e+001 -1.039308e+002
13920000000 -1.602143e+001 -1.279271e+002 -1.740703e+001 -1.567934e+002 -1.802201e+001 -1.580147e+002 -1.105395e+001 -1.167903e+002
14015000000 -1.699421e+001 -1.361711e+002 -1.678551e+001 1.499559e+002 -1.753872e+001 1.494049e+002 -1.108700e+001 -1.332106e+002
14110000000 -1.836909e+001 -1.361974e+002 -1.671899e+001 9.851925e+001 -1.713927e+001 9.286983e+001 -1.110815e+001 -1.284426e+002
14205000000 -1.647157e+001 -1.299762e+002 -1.643026e+001 4.348467e+001 -1.732069e+001 4.281689e+001 -1.355147e+001 -1.339385e+002
14300000000 -1.515980e+001 -1.493299e+002 -1.686569e+001 -1.086886e+001 -1.790773e+001 -1.096313e+001 -1.472767e+001 -1.574416e+002
14395000000 -1.563268e+001 -1.736900e+002 -1.748454e+001 -6.592860e+001 -1.860630e+001 -6.394369e+001 -1.551637e+001 -1.708004e+002
14490000000 -1.684279e+001 1.735978e+002 -1.928263e+001 -1.203850e+002 -1.960818e+001 -1.197354e+002 -1.876212e+001 1.689610e+002
14585000000 -1.639151e+001 1.533060e+002 -2.042719e+001 -1.680361e+002 -2.158836e+001 -1.630677e+002 -2.238142e+001 1.391989e+002
14680000000 -1.604585e+001 1.247072e+002 -2.118341e+001 1.479603e+002 -2.266013e+001 1.558666e+002 -2.354933e+001 1.224880e+002
14775000000 -1.731682e+001 8.111334e+001 -2.268387e+001 1.047802e+002 -2.340422e+001 1.141722e+002 -2.494466e+001 1.088414e+001
14870000000 -2.257232e+001 3.447394e+001 -2.455166e+001 6.616217e+001 -2.506626e+001 7.959385e+001 -1.676486e+001 -1.027473e+001
14965000000 -3.814025e+001 4.794799e+001 -2.360573e+001 3.577185e+001 -2.468494e+001 5.219882e+001 -1.870337e+001 -2.867293e+001
15060000000 -2.475546e+001 1.071825e+002 -2.228841e+001 -5.818982e+000 -2.207340e+001 1.014430e+001 -2.106862e+001 -6.338609e+001
15155000000 -2.125613e+001 6.551366e+001 -2.133627e+001 -5.848526e+001 -2.168909e+001 -3.935497e+001 -1.566683e+001 -7.412849e+001
15250000000 -2.341733e+001 3.846928e+001 -2.094644e+001 -1.017433e+002 -2.178309e+001 -9.315359e+001 -1.515051e+001 -8.632506e+001
