!Agilent Technologies,N5230A,MY45001629,A.07.50.67
!Agilent N5230A: A.07.50.67
!Date: Monday, June 05, 2017 16:31:48
!Correction: S11(Full 2 Port(1,2)) 
!S21(Full 2 Port(1,2)) 
!S12(Full 2 Port(1,2)) 
!S22(Full 2 Port(1,2)) 
!S2P File: Measurements: S11, S21, S12, S22:
# Hz S  dB   R 50
1000000000 -2.191942e-001 5.258169e+001 -5.042102e+001 -4.974167e+000 -5.101006e+001 -1.322787e+001 -8.571577e-001 4.363380e+001
1095000000 -2.474795e-001 3.636356e+001 -4.320594e+001 -5.256012e+001 -4.327878e+001 -5.478603e+001 -1.095150e+000 2.653602e+001
1190000000 -3.958126e-001 1.800890e+001 -3.386247e+001 -1.067681e+002 -3.411392e+001 -1.062072e+002 -1.565268e+000 8.043928e+000
1285000000 -9.447515e-001 -2.317365e+000 -2.600744e+001 -1.790121e+002 -2.608268e+001 -1.790816e+002 -2.353169e+000 -9.780766e+000
1380000000 -1.462001e+000 -2.442869e+001 -2.097160e+001 1.037907e+002 -2.095359e+001 1.042444e+002 -2.566901e+000 -2.937883e+001
1475000000 -3.014575e+000 -5.650681e+001 -1.520649e+001 3.283080e+001 -1.522959e+001 3.291974e+001 -3.441963e+000 -6.157900e+001
1570000000 -9.006819e+000 -9.744046e+001 -1.074093e+001 -5.309694e+001 -1.072119e+001 -5.310373e+001 -8.656758e+000 -1.024396e+002
1665000000 -2.086467e+001 -3.731413e+001 -9.347924e+000 -1.427675e+002 -9.331460e+000 -1.428766e+002 -1.973593e+001 -8.073971e+001
1760000000 -1.261948e+001 -3.766890e+000 -1.011016e+001 1.400007e+002 -1.008255e+001 1.399763e+002 -1.683744e+001 -1.905883e+001
1855000000 -8.212996e+000 -2.988087e+001 -1.079123e+001 8.018080e+001 -1.077797e+001 7.998663e+001 -1.128990e+001 -3.336434e+001
1950000000 -7.943838e+000 -6.018417e+001 -1.028154e+001 2.372142e+001 -1.025525e+001 2.357874e+001 -9.682664e+000 -5.861684e+001
2045000000 -1.045790e+001 -7.752708e+001 -9.248834e+000 -3.678593e+001 -9.265996e+000 -3.687474e+001 -1.128716e+001 -7.888604e+001
2140000000 -1.150294e+001 -7.559501e+001 -8.692142e+000 -9.707590e+001 -8.676299e+000 -9.717619e+001 -1.216052e+001 -7.477271e+001
2235000000 -9.740788e+000 -8.456680e+001 -8.666479e+000 -1.583212e+002 -8.654895e+000 -1.582842e+002 -1.037609e+001 -8.420071e+001
2330000000 -9.852299e+000 -1.076753e+002 -8.942250e+000 1.467027e+002 -8.935652e+000 1.468438e+002 -9.741837e+000 -1.056440e+002
2425000000 -1.199426e+001 -1.236812e+002 -8.675257e+000 9.115206e+001 -8.652328e+000 9.126801e+001 -1.121079e+001 -1.197256e+002
2520000000 -1.370427e+001 -1.317487e+002 -8.656276e+000 3.651567e+001 -8.619493e+000 3.641423e+001 -1.283794e+001 -1.309973e+002
2615000000 -1.604387e+001 -1.442483e+002 -8.580005e+000 -1.796869e+001 -8.543151e+000 -1.827046e+001 -1.395233e+001 -1.422874e+002
2710000000 -2.232700e+001 -1.251727e+002 -8.835614e+000 -7.259734e+001 -8.828115e+000 -7.280267e+001 -1.842823e+001 -1.325575e+002
2805000000 -1.684248e+001 -8.485970e+001 -8.969425e+000 -1.247414e+002 -8.988504e+000 -1.246922e+002 -1.647714e+001 -1.076600e+002
2900000000 -1.245660e+001 -1.051330e+002 -9.362969e+000 -1.743154e+002 -9.353336e+000 -1.746927e+002 -1.175824e+001 -1.144960e+002
2995000000 -1.171029e+001 -1.290301e+002 -9.096426e+000 1.374244e+002 -9.107301e+000 1.375525e+002 -1.092337e+001 -1.369514e+002
3090000000 -1.379430e+001 -1.432135e+002 -8.638991e+000 8.663561e+001 -8.635395e+000 8.687994e+001 -1.263718e+001 -1.531386e+002
3185000000 -1.543798e+001 -1.259482e+002 -8.323191e+000 3.384978e+001 -8.343368e+000 3.375862e+001 -1.523172e+001 -1.356801e+002
3280000000 -1.118346e+001 -1.206912e+002 -8.402313e+000 -1.935907e+001 -8.403981e+000 -1.938099e+001 -1.067542e+001 -1.317599e+002
3375000000 -8.719573e+000 -1.424232e+002 -8.784799e+000 -7.034082e+001 -8.800496e+000 -7.019641e+001 -8.395615e+000 -1.491008e+002
3470000000 -8.434978e+000 -1.628824e+002 -8.860014e+000 -1.182123e+002 -8.892296e+000 -1.181394e+002 -8.209290e+000 -1.705728e+002
3565000000 -8.972178e+000 -1.783465e+002 -8.816616e+000 -1.673505e+002 -8.823226e+000 -1.673846e+002 -8.582014e+000 1.759304e+002
3660000000 -9.845069e+000 1.690363e+002 -8.563669e+000 1.443584e+002 -8.569864e+000 1.444443e+002 -9.463347e+000 1.643077e+002
3755000000 -1.056391e+001 1.590809e+002 -8.210784e+000 9.382726e+001 -8.238474e+000 9.381970e+001 -9.892759e+000 1.512718e+002
3850000000 -1.236270e+001 1.515171e+002 -7.975989e+000 4.233058e+001 -7.994732e+000 4.230144e+001 -1.180736e+001 1.395450e+002
3945000000 -1.384603e+001 1.554739e+002 -7.929401e+000 -1.036002e+001 -7.931486e+000 -1.042316e+001 -1.420396e+001 1.422783e+002
4040000000 -1.291650e+001 1.568812e+002 -8.188241e+000 -6.217966e+001 -8.201310e+000 -6.231190e+001 -1.301957e+001 1.466939e+002
4135000000 -1.363584e+001 1.474814e+002 -8.369953e+000 -1.147608e+002 -8.381652e+000 -1.148240e+002 -1.364924e+001 1.282777e+002
4230000000 -1.531746e+001 1.606101e+002 -9.250081e+000 -1.688834e+002 -9.249143e+000 -1.687782e+002 -1.900837e+001 1.342614e+002
4325000000 -1.207695e+001 1.653423e+002 -1.060776e+001 1.431474e+002 -1.062631e+001 1.433319e+002 -1.453529e+001 1.626502e+002
4420000000 -1.040358e+001 1.534210e+002 -1.155604e+001 1.015423e+002 -1.159285e+001 1.014220e+002 -1.204327e+001 1.478785e+002
4515000000 -9.540453e+000 1.435718e+002 -1.154812e+001 6.024923e+001 -1.150790e+001 6.034259e+001 -1.104918e+001 1.362880e+002
4610000000 -8.344413e+000 1.307689e+002 -1.105800e+001 1.510595e+001 -1.103438e+001 1.527474e+001 -1.035114e+001 1.189859e+002
4705000000 -8.037488e+000 1.115987e+002 -1.069144e+001 -3.297347e+001 -1.071038e+001 -3.298132e+001 -9.693858e+000 9.820740e+001
4800000000 -9.020080e+000 9.054319e+001 -1.053136e+001 -8.187740e+001 -1.050926e+001 -8.200287e+001 -1.091242e+001 7.569526e+001
4895000000 -1.145329e+001 7.677736e+001 -1.042072e+001 -1.320317e+002 -1.038846e+001 -1.320487e+002 -1.250582e+001 5.398483e+001
4990000000 -1.408568e+001 7.237223e+001 -1.073446e+001 1.776832e+002 -1.077431e+001 1.778385e+002 -1.532955e+001 3.427613e+001
5085000000 -1.618034e+001 7.445415e+001 -1.120434e+001 1.296348e+002 -1.121273e+001 1.293690e+002 -1.898955e+001 2.014934e+001
5180000000 -1.723506e+001 8.682728e+001 -1.176512e+001 8.354438e+001 -1.175032e+001 8.343796e+001 -2.549373e+001 2.511679e+001
5275000000 -1.576418e+001 9.725960e+001 -1.192361e+001 3.774953e+001 -1.186913e+001 3.742738e+001 -2.437938e+001 5.862849e+001
5370000000 -1.353721e+001 8.625534e+001 -1.225704e+001 -8.891828e+000 -1.221126e+001 -9.221656e+000 -1.942283e+001 5.059590e+001
5465000000 -1.340932e+001 6.687394e+001 -1.243218e+001 -5.306633e+001 -1.242079e+001 -5.359983e+001 -1.813705e+001 2.000036e+001
5560000000 -1.568812e+001 4.985424e+001 -1.225905e+001 -9.859082e+001 -1.221672e+001 -9.875117e+001 -2.008147e+001 -1.579183e+001
5655000000 -1.898676e+001 6.066752e+001 -1.180100e+001 -1.473325e+002 -1.179957e+001 -1.476720e+002 -2.699169e+001 -3.244534e+001
5750000000 -1.544428e+001 6.813459e+001 -1.199314e+001 1.607239e+002 -1.204601e+001 1.608280e+002 -2.416595e+001 2.847900e+001
5845000000 -1.384657e+001 4.129695e+001 -1.314870e+001 1.106045e+002 -1.309895e+001 1.108523e+002 -1.809510e+001 -2.924832e+000
5940000000 -1.477010e+001 7.486785e+000 -1.418856e+001 6.853909e+001 -1.408785e+001 6.828913e+001 -1.573424e+001 -3.638432e+001
6035000000 -1.757928e+001 -2.732849e+001 -1.471568e+001 2.776043e+001 -1.467192e+001 2.762882e+001 -1.441229e+001 -7.113436e+001
6130000000 -1.976525e+001 -8.352120e+001 -1.443982e+001 -1.036547e+001 -1.443882e+001 -1.079876e+001 -1.463339e+001 -1.106869e+002
6225000000 -1.968135e+001 -1.665869e+002 -1.383130e+001 -5.328434e+001 -1.376887e+001 -5.392928e+001 -1.751015e+001 -1.470659e+002
6320000000 -1.823051e+001 1.200522e+002 -1.286958e+001 -1.004754e+002 -1.286757e+001 -9.996252e+001 -2.798733e+001 1.649506e+002
6415000000 -2.087589e+001 6.210649e+001 -1.244825e+001 -1.503206e+002 -1.243561e+001 -1.500504e+002 -2.832849e+001 -4.212859e+001
6510000000 -3.491664e+001 -1.105195e+001 -1.261495e+001 1.612582e+002 -1.268272e+001 1.610579e+002 -1.803329e+001 -7.728296e+001
6605000000 -2.496884e+001 1.591666e+002 -1.266509e+001 1.154288e+002 -1.272690e+001 1.148587e+002 -1.605094e+001 -1.105715e+002
6700000000 -1.997627e+001 1.215534e+002 -1.260938e+001 6.865347e+001 -1.264670e+001 6.808019e+001 -1.634718e+001 -1.404907e+002
6795000000 -1.922925e+001 8.067224e+001 -1.266924e+001 2.199814e+001 -1.263579e+001 2.159008e+001 -1.924069e+001 -1.554521e+002
6890000000 -2.162608e+001 3.451323e+001 -1.266602e+001 -2.494633e+001 -1.259987e+001 -2.490547e+001 -2.117668e+001 -1.350363e+002
6985000000 -2.523121e+001 -4.856803e+001 -1.246107e+001 -7.173763e+001 -1.250806e+001 -7.155565e+001 -1.671482e+001 -1.319796e+002
7080000000 -2.120916e+001 -1.310951e+002 -1.232012e+001 -1.195850e+002 -1.236155e+001 -1.196864e+002 -1.369355e+001 -1.464609e+002
7175000000 -1.735250e+001 -1.740410e+002 -1.247924e+001 -1.668021e+002 -1.251287e+001 -1.672035e+002 -1.283502e+001 -1.700321e+002
7270000000 -1.535004e+001 1.605201e+002 -1.275518e+001 1.464599e+002 -1.271675e+001 1.459524e+002 -1.244194e+001 1.742259e+002
7365000000 -1.470089e+001 1.405540e+002 -1.287498e+001 1.005359e+002 -1.291030e+001 1.002896e+002 -1.272295e+001 1.584529e+002
7460000000 -1.464595e+001 1.272046e+002 -1.290961e+001 5.432578e+001 -1.287551e+001 5.475814e+001 -1.242300e+001 1.504331e+002
7555000000 -1.433055e+001 1.206840e+002 -1.264252e+001 8.936872e+000 -1.260879e+001 9.572080e+000 -1.244222e+001 1.372462e+002
7650000000 -1.367656e+001 1.108113e+002 -1.230313e+001 -3.697876e+001 -1.237794e+001 -3.726703e+001 -1.181096e+001 1.268516e+002
7745000000 -1.327468e+001 9.802550e+001 -1.207530e+001 -8.504832e+001 -1.217174e+001 -8.590083e+001 -1.238562e+001 1.128692e+002
7840000000 -1.447107e+001 8.672836e+001 -1.214277e+001 -1.339953e+002 -1.213340e+001 -1.341082e+002 -1.270846e+001 1.071669e+002
7935000000 -1.604087e+001 8.783857e+001 -1.230178e+001 1.782567e+002 -1.219516e+001 1.782045e+002 -1.302177e+001 1.034656e+002
8030000000 -1.520947e+001 9.275162e+001 -1.225709e+001 1.303418e+002 -1.219193e+001 1.304873e+002 -1.228906e+001 9.653002e+001
8125000000 -1.386859e+001 8.351863e+001 -1.209308e+001 8.226186e+001 -1.219079e+001 8.241225e+001 -1.177619e+001 8.537081e+001
8220000000 -1.530730e+001 7.132419e+001 -1.224312e+001 3.300250e+001 -1.230738e+001 3.286202e+001 -1.226066e+001 7.826331e+001
8315000000 -1.703284e+001 8.332726e+001 -1.285877e+001 -1.571379e+001 -1.281955e+001 -1.580369e+001 -1.249050e+001 7.085041e+001
8410000000 -1.414252e+001 9.293738e+001 -1.319574e+001 -6.203043e+001 -1.327625e+001 -6.217829e+001 -1.178065e+001 6.591187e+001
8505000000 -1.190222e+001 7.832638e+001 -1.352044e+001 -1.064045e+002 -1.361136e+001 -1.073623e+002 -1.107095e+001 5.819741e+001
8600000000 -1.175942e+001 5.850290e+001 -1.346635e+001 -1.510560e+002 -1.351833e+001 -1.517235e+002 -9.960546e+000 4.003392e+001
8695000000 -1.390966e+001 4.852599e+001 -1.334637e+001 1.614013e+002 -1.327964e+001 1.614085e+002 -1.115243e+001 2.568853e+001
8790000000 -1.442840e+001 5.188659e+001 -1.304981e+001 1.118916e+002 -1.304119e+001 1.122921e+002 -1.164017e+001 1.419461e+001
8885000000 -1.288488e+001 4.379893e+001 -1.319272e+001 6.121528e+001 -1.327564e+001 6.131541e+001 -1.155868e+001 6.862435e+000
8980000000 -1.431709e+001 2.115869e+001 -1.397649e+001 1.264456e+001 -1.402220e+001 1.186915e+001 -1.070220e+001 -9.107948e+000
9075000000 -1.925156e+001 -2.356670e+000 -1.479821e+001 -3.163726e+001 -1.481805e+001 -3.208619e+001 -1.215692e+001 -3.355904e+001
9170000000 -2.341691e+001 7.708648e+001 -1.480352e+001 -7.498309e+001 -1.475997e+001 -7.453405e+001 -1.432911e+001 -5.451172e+001
9265000000 -1.609359e+001 6.095721e+001 -1.407133e+001 -1.230893e+002 -1.405166e+001 -1.227598e+002 -1.811503e+001 -3.795422e+001
9360000000 -1.674237e+001 2.369569e+001 -1.411779e+001 -1.760605e+002 -1.423987e+001 -1.762472e+002 -1.420629e+001 -4.947112e+001
9455000000 -2.941135e+001 5.689136e+000 -1.520643e+001 1.344309e+002 -1.521691e+001 1.334806e+002 -1.382570e+001 -7.325968e+001
9550000000 -2.012266e+001 1.161882e+002 -1.635953e+001 8.744155e+001 -1.623726e+001 8.687622e+001 -1.412082e+001 -1.108523e+002
9645000000 -1.481853e+001 8.403442e+001 -1.670598e+001 4.542002e+001 -1.650357e+001 4.603398e+001 -1.939112e+001 -1.245629e+002
9740000000 -1.531910e+001 5.342606e+001 -1.623986e+001 -3.323198e+000 -1.619523e+001 -2.414083e+000 -2.075770e+001 -1.030232e+002
9835000000 -2.375329e+001 5.426547e+001 -1.673844e+001 -5.577317e+001 -1.684468e+001 -5.557388e+001 -1.483639e+001 -1.049299e+002
9930000000 -1.727169e+001 1.165638e+002 -1.811803e+001 -1.003818e+002 -1.840750e+001 -1.017558e+002 -1.320465e+001 -1.410531e+002
10025000000 -1.229770e+001 1.022795e+002 -1.909512e+001 -1.415596e+002 -1.905629e+001 -1.422395e+002 -1.317404e+001 -1.633278e+002
10120000000 -1.081569e+001 8.698035e+001 -1.902057e+001 1.717238e+002 -1.883823e+001 1.711624e+002 -1.443249e+001 1.737082e+002
10215000000 -9.577844e+000 8.340009e+001 -1.977505e+001 1.192783e+002 -1.952619e+001 1.191327e+002 -1.630022e+001 1.660068e+002
10310000000 -7.216196e+000 7.460130e+001 -2.161895e+001 6.934559e+001 -2.171796e+001 7.151672e+001 -1.611230e+001 1.540249e+002
10405000000 -5.897659e+000 5.699416e+001 -2.301464e+001 3.578504e+001 -2.319075e+001 3.738432e+001 -1.840544e+001 1.363580e+002
10500000000 -5.671959e+000 4.324046e+001 -2.252470e+001 1.235910e+000 -2.261286e+001 1.488905e-001 -2.090939e+001 1.293886e+002
10595000000 -5.143701e+000 3.530302e+001 -2.153736e+001 -5.322949e+001 -2.190969e+001 -5.327422e+001 -2.923068e+001 -1.704143e+002
10690000000 -3.815463e+000 2.369535e+001 -2.616874e+001 -1.095025e+002 -2.471433e+001 -1.109338e+002 -1.883906e+001 -1.598737e+002
10785000000 -2.921764e+000 3.431908e+000 -2.963460e+001 -1.546968e+002 -3.064646e+001 -1.419358e+002 -1.414508e+001 1.783736e+002
10880000000 -3.240815e+000 -2.078326e+001 -2.927361e+001 -1.185225e+002 -3.060762e+001 -1.292035e+002 -1.522338e+001 1.609330e+002
10975000000 -4.828560e+000 -4.060046e+001 -2.563107e+001 -1.577878e+002 -2.418946e+001 -1.592256e+002 -1.561911e+001 1.565206e+002
11070000000 -6.400143e+000 -5.628571e+001 -2.067010e+001 1.458147e+002 -2.114252e+001 1.444534e+002 -1.530343e+001 1.635694e+002
11165000000 -8.292041e+000 -7.827477e+001 -2.100865e+001 8.885284e+001 -1.991588e+001 8.658429e+001 -1.179147e+001 1.592337e+002
11260000000 -1.304618e+001 -1.052758e+002 -2.013510e+001 3.032725e+001 -2.066568e+001 3.379879e+001 -1.005330e+001 1.371725e+002
11355000000 -2.198621e+001 -1.089474e+002 -2.105344e+001 3.799524e-001 -2.032926e+001 -8.285728e+000 -1.062108e+001 1.147494e+002
11450000000 -2.851142e+001 -4.782960e+001 -1.914579e+001 -5.017440e+001 -1.934944e+001 -5.179811e+001 -1.091416e+001 1.099738e+002
11545000000 -3.315192e+001 5.738924e+000 -1.852379e+001 -1.051742e+002 -1.856068e+001 -1.036319e+002 -1.102398e+001 9.858667e+001
11640000000 -2.062934e+001 4.196384e+001 -1.890434e+001 -1.558591e+002 -1.857683e+001 -1.518849e+002 -1.033204e+001 1.000804e+002
11735000000 -1.515973e+001 2.693348e+001 -1.822830e+001 1.566966e+002 -1.845256e+001 1.580938e+002 -1.096660e+001 8.712083e+001
11830000000 -1.399585e+001 7.752424e+000 -1.846082e+001 1.008373e+002 -1.892141e+001 1.073932e+002 -1.153071e+001 7.515083e+001
11925000000 -1.377564e+001 -1.995646e+000 -1.895851e+001 6.322795e+001 -1.988810e+001 6.003658e+001 -1.171484e+001 6.861183e+001
12020000000 -1.388268e+001 -9.716517e+000 -2.029581e+001 2.812635e+001 -1.995264e+001 1.844101e+001 -1.170472e+001 5.637538e+001
12115000000 -1.433188e+001 -1.743265e+001 -2.011491e+001 -2.541068e+001 -1.928052e+001 -2.416792e+001 -1.115052e+001 4.293104e+001
12210000000 -1.598136e+001 -1.837342e+001 -1.813261e+001 -7.748269e+001 -1.913610e+001 -7.251295e+001 -1.306605e+001 4.867271e+001
12305000000 -1.665112e+001 1.165315e+000 -1.788253e+001 -1.236619e+002 -1.912600e+001 -1.228871e+002 -1.154088e+001 3.620702e+001
12400000000 -1.322259e+001 9.750070e+000 -1.942373e+001 -1.669297e+002 -1.879708e+001 -1.730854e+002 -1.019622e+001 3.633288e+001
12495000000 -1.062670e+001 -3.166726e+000 -2.010195e+001 1.342063e+002 -1.932806e+001 1.384680e+002 -9.204353e+000 2.000318e+001
12590000000 -1.001831e+001 -1.797468e+001 -2.025490e+001 9.567058e+001 -1.990480e+001 8.609051e+001 -8.784348e+000 -2.593481e-001
12685000000 -1.067841e+001 -2.615843e+001 -2.132770e+001 4.932449e+001 -2.186868e+001 4.438432e+001 -1.047751e+001 1.725682e+000
12780000000 -1.048356e+001 -2.495872e+001 -2.165130e+001 1.297331e+001 -2.211908e+001 6.130845e+000 -1.093054e+001 -3.598169e+000
12875000000 -8.847519e+000 -3.232383e+001 -2.106474e+001 -2.506120e+001 -2.159622e+001 -3.216410e+001 -9.652783e+000 -1.707083e+001
12970000000 -7.913070e+000 -4.388797e+001 -2.063647e+001 -7.103094e+001 -2.102470e+001 -7.841594e+001 -7.718521e+000 -2.436020e+001
13065000000 -8.206933e+000 -6.098146e+001 -2.002518e+001 -1.245262e+002 -2.101293e+001 -1.318970e+002 -9.570147e+000 -3.839310e+001
13160000000 -9.252542e+000 -6.800085e+001 -2.172672e+001 -1.728943e+002 -2.244966e+001 1.758304e+002 -9.439308e+000 -4.525059e+001
13255000000 -9.497135e+000 -7.150803e+001 -2.366647e+001 1.588944e+002 -2.514692e+001 1.431636e+002 -9.696134e+000 -4.449727e+001
13350000000 -8.588717e+000 -8.056386e+001 -2.236376e+001 1.290889e+002 -2.385439e+001 1.180798e+002 -8.586058e+000 -6.287215e+001
13445000000 -8.308669e+000 -9.531261e+001 -2.087745e+001 8.299752e+001 -2.145343e+001 7.608884e+001 -7.417344e+000 -7.185278e+001
13540000000 -9.236030e+000 -1.152436e+002 -2.019291e+001 3.184969e+001 -2.059017e+001 2.399055e+001 -8.040108e+000 -7.661421e+001
13635000000 -1.097594e+001 -1.290944e+002 -1.994939e+001 -1.943378e+001 -2.120265e+001 -2.584070e+001 -9.480267e+000 -8.382686e+001
13730000000 -1.387420e+001 -1.326953e+002 -1.981971e+001 -6.218611e+001 -2.102688e+001 -6.617301e+001 -8.612563e+000 -1.002663e+002
13825000000 -1.617764e+001 -1.342726e+002 -1.894237e+001 -1.053329e+002 -1.976790e+001 -1.090006e+002 -9.605942e+000 -1.091759e+002
13920000000 -1.555124e+001 -1.298762e+002 -1.798862e+001 -1.539803e+002 -1.830798e+001 -1.556699e+002 -9.824204e+000 -1.166894e+002
14015000000 -1.696475e+001 -1.399847e+002 -1.699019e+001 1.533016e+002 -1.794279e+001 1.490770e+002 -1.121049e+001 -1.280549e+002
14110000000 -1.911542e+001 -1.405480e+002 -1.729188e+001 9.639570e+001 -1.753639e+001 9.638499e+001 -1.195773e+001 -1.248271e+002
14205000000 -1.728326e+001 -1.275833e+002 -1.728291e+001 4.536050e+001 -1.768387e+001 4.220592e+001 -1.421003e+001 -1.331347e+002
14300000000 -1.506556e+001 -1.467095e+002 -1.743753e+001 -8.036684e+000 -1.778778e+001 -7.846243e+000 -1.383363e+001 -1.601980e+002
14395000000 -1.526946e+001 -1.736643e+002 -1.774018e+001 -6.168295e+001 -1.825649e+001 -6.194641e+001 -1.409038e+001 -1.723546e+002
14490000000 -1.685735e+001 1.730245e+002 -1.875353e+001 -1.173342e+002 -2.001301e+001 -1.166333e+002 -1.778233e+001 -1.794390e+002
14585000000 -1.659624e+001 1.539379e+002 -2.043094e+001 -1.665686e+002 -2.224318e+001 -1.612073e+002 -2.531466e+001 1.471915e+002
14680000000 -1.585225e+001 1.270663e+002 -2.169225e+001 1.542407e+002 -2.327828e+001 1.616205e+002 -2.673917e+001 9.057056e+001
14775000000 -1.681349e+001 8.253138e+001 -2.242010e+001 1.090292e+002 -2.468061e+001 1.187024e+002 -2.168202e+001 2.173499e+001
14870000000 -2.015954e+001 3.993000e+001 -2.526464e+001 7.026965e+001 -2.593983e+001 8.722848e+001 -1.620110e+001 -3.940780e+000
14965000000 -3.231105e+001 1.123366e+001 -2.299671e+001 4.782229e+001 -2.521017e+001 6.246554e+001 -1.863696e+001 -3.618457e+001
15060000000 -2.716039e+001 1.106626e+002 -2.189599e+001 7.111468e+000 -2.241817e+001 1.553185e+001 -1.975114e+001 -7.803274e+001
15155000000 -2.215080e+001 6.940930e+001 -2.008048e+001 -4.381008e+001 -2.046264e+001 -3.107857e+001 -1.489392e+001 -7.162704e+001
15250000000 -2.317322e+001 3.978951e+001 -2.036076e+001 -9.468134e+001 -2.124846e+001 -8.374972e+001 -1.616357e+001 -6.697207e+001
