!Agilent Technologies,N5230A,MY45001629,A.07.50.67
!Agilent N5230A: A.07.50.67
!Date: Monday, June 05, 2017 16:34:45
!Correction: S11(Full 2 Port(1,2)) 
!S21(Full 2 Port(1,2)) 
!S12(Full 2 Port(1,2)) 
!S22(Full 2 Port(1,2)) 
!S2P File: Measurements: S11, S21, S12, S22:
# Hz S  dB   R 50
1000000000 -2.204143e-001 5.255623e+001 -5.079325e+001 -1.806592e+001 -5.078780e+001 -1.544680e+001 -8.696397e-001 4.360610e+001
1095000000 -2.475420e-001 3.634658e+001 -4.356883e+001 -5.871383e+001 -4.329861e+001 -5.345949e+001 -1.107581e+000 2.646973e+001
1190000000 -3.987041e-001 1.801915e+001 -3.410961e+001 -1.074078e+002 -3.414733e+001 -1.066231e+002 -1.560922e+000 7.959468e+000
1285000000 -9.444611e-001 -2.242696e+000 -2.625589e+001 1.797516e+002 -2.604916e+001 1.798358e+002 -2.348347e+000 -9.799798e+000
1380000000 -1.465286e+000 -2.449831e+001 -2.109748e+001 1.039126e+002 -2.107580e+001 1.042436e+002 -2.542027e+000 -2.941822e+001
1475000000 -3.017033e+000 -5.643518e+001 -1.529267e+001 3.306510e+001 -1.522796e+001 3.314644e+001 -3.427568e+000 -6.167574e+001
1570000000 -8.984037e+000 -9.752498e+001 -1.076917e+001 -5.342082e+001 -1.074260e+001 -5.338182e+001 -8.638761e+000 -1.027499e+002
1665000000 -2.106319e+001 -3.617937e+001 -9.336017e+000 -1.433722e+002 -9.328152e+000 -1.433982e+002 -1.973041e+001 -8.063786e+001
1760000000 -1.249100e+001 -3.538298e+000 -1.010318e+001 1.395760e+002 -1.008405e+001 1.395869e+002 -1.687969e+001 -1.915418e+001
1855000000 -8.194969e+000 -3.015004e+001 -1.086972e+001 8.002465e+001 -1.085357e+001 7.991738e+001 -1.116881e+001 -3.366363e+001
1950000000 -7.960116e+000 -6.039356e+001 -1.035373e+001 2.374822e+001 -1.033510e+001 2.356140e+001 -9.609764e+000 -5.947369e+001
2045000000 -1.048636e+001 -7.781955e+001 -9.293277e+000 -3.701326e+001 -9.298403e+000 -3.695259e+001 -1.142395e+001 -7.972549e+001
2140000000 -1.154879e+001 -7.574558e+001 -8.726335e+000 -9.742052e+001 -8.725556e+000 -9.757815e+001 -1.225551e+001 -7.358706e+001
2235000000 -9.780165e+000 -8.440304e+001 -8.713014e+000 -1.587185e+002 -8.726570e+000 -1.587624e+002 -1.039317e+001 -8.337938e+001
2330000000 -9.875269e+000 -1.072139e+002 -9.038578e+000 1.463559e+002 -9.030318e+000 1.465021e+002 -9.647142e+000 -1.051349e+002
2425000000 -1.192278e+001 -1.230452e+002 -8.750896e+000 9.093671e+001 -8.744110e+000 9.107841e+001 -1.101539e+001 -1.202894e+002
2520000000 -1.356242e+001 -1.319931e+002 -8.753051e+000 3.658923e+001 -8.725476e+000 3.655618e+001 -1.277563e+001 -1.326900e+002
2615000000 -1.596572e+001 -1.448937e+002 -8.666351e+000 -1.817590e+001 -8.644434e+000 -1.823690e+001 -1.423685e+001 -1.435213e+002
2710000000 -2.245373e+001 -1.264755e+002 -8.880006e+000 -7.245931e+001 -8.876772e+000 -7.260230e+001 -1.897153e+001 -1.319006e+002
2805000000 -1.694324e+001 -8.422821e+001 -9.063223e+000 -1.247357e+002 -9.085545e+000 -1.248628e+002 -1.622975e+001 -1.042867e+002
2900000000 -1.247096e+001 -1.047890e+002 -9.437101e+000 -1.745671e+002 -9.434886e+000 -1.748027e+002 -1.159816e+001 -1.144584e+002
2995000000 -1.169887e+001 -1.282817e+002 -9.187605e+000 1.373986e+002 -9.202593e+000 1.375033e+002 -1.084524e+001 -1.362330e+002
3090000000 -1.367206e+001 -1.425211e+002 -8.707412e+000 8.675045e+001 -8.687586e+000 8.686628e+001 -1.249701e+001 -1.533578e+002
3185000000 -1.520779e+001 -1.265481e+002 -8.417766e+000 3.410219e+001 -8.411511e+000 3.397397e+001 -1.514814e+001 -1.380504e+002
3280000000 -1.116008e+001 -1.218684e+002 -8.511071e+000 -1.909336e+001 -8.486500e+000 -1.916418e+001 -1.084194e+001 -1.317722e+002
3375000000 -8.753885e+000 -1.434371e+002 -8.876214e+000 -7.021396e+001 -8.881349e+000 -7.010725e+001 -8.556655e+000 -1.483184e+002
3470000000 -8.567837e+000 -1.635751e+002 -9.006128e+000 -1.177283e+002 -8.982109e+000 -1.179370e+002 -8.219073e+000 -1.705228e+002
3565000000 -9.167959e+000 -1.783504e+002 -8.944547e+000 -1.670818e+002 -8.912911e+000 -1.671746e+002 -8.704712e+000 1.757603e+002
3660000000 -1.001501e+001 1.706727e+002 -8.703300e+000 1.449371e+002 -8.681101e+000 1.448920e+002 -9.342469e+000 1.650440e+002
3755000000 -1.046482e+001 1.614725e+002 -8.391159e+000 9.519331e+001 -8.371073e+000 9.513539e+001 -9.657422e+000 1.517237e+002
3850000000 -1.179432e+001 1.519287e+002 -8.098779e+000 4.390940e+001 -8.071617e+000 4.390845e+001 -1.157059e+001 1.380895e+002
3945000000 -1.350805e+001 1.510654e+002 -7.908939e+000 -8.257899e+000 -7.876361e+000 -8.412275e+000 -1.405842e+001 1.368873e+002
4040000000 -1.334958e+001 1.538988e+002 -8.016496e+000 -6.000804e+001 -7.977900e+000 -6.031958e+001 -1.377612e+001 1.441236e+002
4135000000 -1.416714e+001 1.474091e+002 -8.164031e+000 -1.132625e+002 -8.118324e+000 -1.134638e+002 -1.424466e+001 1.326244e+002
4230000000 -1.563316e+001 1.641317e+002 -8.983771e+000 -1.674433e+002 -8.974373e+000 -1.675089e+002 -1.768761e+001 1.424473e+002
4325000000 -1.175870e+001 1.682824e+002 -1.025366e+001 1.450025e+002 -1.027751e+001 1.446048e+002 -1.427284e+001 1.596467e+002
4420000000 -9.917458e+000 1.538114e+002 -1.104333e+001 1.024966e+002 -1.104665e+001 1.020917e+002 -1.210421e+001 1.457965e+002
4515000000 -9.267604e+000 1.411634e+002 -1.093710e+001 5.933710e+001 -1.092869e+001 5.921206e+001 -1.127813e+001 1.330670e+002
4610000000 -8.396721e+000 1.285575e+002 -1.055288e+001 1.321681e+001 -1.056930e+001 1.308304e+001 -1.085886e+001 1.177215e+002
4705000000 -8.283699e+000 1.104936e+002 -1.036194e+001 -3.536312e+001 -1.038419e+001 -3.575558e+001 -1.009401e+001 1.014887e+002
4800000000 -9.283317e+000 9.055839e+001 -1.029831e+001 -8.412166e+001 -1.027530e+001 -8.456524e+001 -1.095789e+001 7.927849e+001
4895000000 -1.173318e+001 7.775024e+001 -1.022932e+001 -1.345784e+002 -1.022838e+001 -1.347044e+002 -1.204585e+001 5.603932e+001
4990000000 -1.420029e+001 7.519523e+001 -1.058334e+001 1.750841e+002 -1.059199e+001 1.747493e+002 -1.450886e+001 3.523777e+001
5085000000 -1.564389e+001 7.762321e+001 -1.116119e+001 1.266332e+002 -1.117895e+001 1.262555e+002 -1.815648e+001 1.864043e+001
5180000000 -1.667904e+001 8.299890e+001 -1.184053e+001 8.029272e+001 -1.186278e+001 7.998724e+001 -2.529309e+001 3.838303e+000
5275000000 -1.599497e+001 9.444196e+001 -1.207277e+001 3.434548e+001 -1.206906e+001 3.428158e+001 -2.705509e+001 6.753793e+001
5370000000 -1.380797e+001 8.616511e+001 -1.247918e+001 -1.096245e+001 -1.250461e+001 -1.095843e+001 -1.969726e+001 5.878139e+001
5465000000 -1.362412e+001 6.683141e+001 -1.254952e+001 -5.466960e+001 -1.259283e+001 -5.486823e+001 -1.762619e+001 2.586170e+001
5560000000 -1.589838e+001 5.040826e+001 -1.232880e+001 -1.000058e+002 -1.236380e+001 -9.982320e+001 -1.910683e+001 -1.042588e+001
5655000000 -1.907840e+001 6.322359e+001 -1.194523e+001 -1.487865e+002 -1.190822e+001 -1.489003e+002 -2.521129e+001 -3.855466e+001
5750000000 -1.522773e+001 6.988194e+001 -1.212903e+001 1.599135e+002 -1.213611e+001 1.596526e+002 -2.443421e+001 2.996681e+001
5845000000 -1.341811e+001 4.185136e+001 -1.319614e+001 1.097833e+002 -1.319866e+001 1.094536e+002 -1.777681e+001 -3.362215e+000
5940000000 -1.432522e+001 5.788365e+000 -1.427842e+001 6.654904e+001 -1.423672e+001 6.677440e+001 -1.556354e+001 -3.823885e+001
6035000000 -1.717515e+001 -3.195130e+001 -1.491089e+001 2.552905e+001 -1.491945e+001 2.595318e+001 -1.458610e+001 -7.170792e+001
6130000000 -1.953913e+001 -8.942915e+001 -1.465359e+001 -1.118293e+001 -1.469907e+001 -1.104631e+001 -1.488209e+001 -1.126724e+002
6225000000 -1.936697e+001 -1.711291e+002 -1.398675e+001 -5.421219e+001 -1.391604e+001 -5.416710e+001 -1.734963e+001 -1.496605e+002
6320000000 -1.810693e+001 1.175040e+002 -1.292240e+001 -1.003193e+002 -1.297795e+001 -1.001496e+002 -2.874697e+001 1.567194e+002
6415000000 -2.084994e+001 5.972634e+001 -1.254537e+001 -1.498208e+002 -1.255694e+001 -1.499312e+002 -2.661075e+001 -4.203062e+001
6510000000 -3.454335e+001 -1.524173e+001 -1.280145e+001 1.616769e+002 -1.279683e+001 1.612225e+002 -1.762545e+001 -8.078172e+001
6605000000 -2.511879e+001 1.594397e+002 -1.283719e+001 1.153369e+002 -1.278354e+001 1.149332e+002 -1.590285e+001 -1.138409e+002
6700000000 -2.006927e+001 1.216122e+002 -1.272453e+001 6.820464e+001 -1.268401e+001 6.839471e+001 -1.643236e+001 -1.437572e+002
6795000000 -1.932769e+001 8.089106e+001 -1.268550e+001 2.153612e+001 -1.265523e+001 2.168050e+001 -1.954943e+001 -1.574260e+002
6890000000 -2.187304e+001 3.466647e+001 -1.259910e+001 -2.516850e+001 -1.259342e+001 -2.501952e+001 -2.154058e+001 -1.345770e+002
6985000000 -2.559999e+001 -4.962584e+001 -1.239088e+001 -7.175568e+001 -1.246816e+001 -7.194895e+001 -1.673450e+001 -1.326620e+002
7080000000 -2.144420e+001 -1.319193e+002 -1.231487e+001 -1.195088e+002 -1.234398e+001 -1.199844e+002 -1.361548e+001 -1.463471e+002
7175000000 -1.758272e+001 -1.747855e+002 -1.254752e+001 -1.670507e+002 -1.246920e+001 -1.671037e+002 -1.275078e+001 -1.708248e+002
7270000000 -1.551219e+001 1.614105e+002 -1.274942e+001 1.460924e+002 -1.267922e+001 1.458962e+002 -1.232170e+001 1.742508e+002
7365000000 -1.466877e+001 1.412874e+002 -1.280394e+001 9.974059e+001 -1.281560e+001 1.000481e+002 -1.252571e+001 1.584319e+002
7460000000 -1.456992e+001 1.271671e+002 -1.274504e+001 5.367942e+001 -1.280281e+001 5.419223e+001 -1.227682e+001 1.483772e+002
7555000000 -1.430674e+001 1.207376e+002 -1.248015e+001 8.864130e+000 -1.254066e+001 8.785271e+000 -1.253724e+001 1.363056e+002
7650000000 -1.365617e+001 1.105471e+002 -1.232339e+001 -3.747391e+001 -1.231326e+001 -3.837787e+001 -1.198204e+001 1.265626e+002
7745000000 -1.329106e+001 9.763557e+001 -1.217034e+001 -8.619026e+001 -1.215966e+001 -8.678600e+001 -1.239814e+001 1.139424e+002
7840000000 -1.449402e+001 8.634509e+001 -1.225200e+001 -1.352716e+002 -1.216605e+001 -1.345716e+002 -1.266841e+001 1.080577e+002
7935000000 -1.597834e+001 8.822701e+001 -1.217678e+001 1.777986e+002 -1.215742e+001 1.782555e+002 -1.274507e+001 1.022953e+002
8030000000 -1.520250e+001 9.228424e+001 -1.205519e+001 1.299059e+002 -1.208539e+001 1.299230e+002 -1.240245e+001 9.574028e+001
8125000000 -1.401490e+001 8.260139e+001 -1.197755e+001 8.170371e+001 -1.206807e+001 8.142410e+001 -1.191582e+001 8.499650e+001
8220000000 -1.552115e+001 7.183611e+001 -1.230317e+001 3.168697e+001 -1.226356e+001 3.150562e+001 -1.216662e+001 7.886687e+001
8315000000 -1.687797e+001 8.522607e+001 -1.282137e+001 -1.722590e+001 -1.278637e+001 -1.714764e+001 -1.262444e+001 7.016304e+001
8410000000 -1.395294e+001 9.225225e+001 -1.330068e+001 -6.259380e+001 -1.328677e+001 -6.322007e+001 -1.189205e+001 6.567767e+001
8505000000 -1.189806e+001 7.727616e+001 -1.360433e+001 -1.068847e+002 -1.359314e+001 -1.075885e+002 -1.104040e+001 5.732060e+001
8600000000 -1.183560e+001 5.796738e+001 -1.347160e+001 -1.522416e+002 -1.338228e+001 -1.523468e+002 -1.008881e+001 3.994104e+001
8695000000 -1.402440e+001 4.884958e+001 -1.330273e+001 1.598665e+002 -1.324857e+001 1.602976e+002 -1.130508e+001 2.551604e+001
8790000000 -1.444155e+001 5.194411e+001 -1.297502e+001 1.110556e+002 -1.299583e+001 1.111718e+002 -1.164716e+001 1.386450e+001
8885000000 -1.287389e+001 4.391633e+001 -1.318548e+001 6.042026e+001 -1.320623e+001 6.013460e+001 -1.183030e+001 5.639362e+000
8980000000 -1.439570e+001 2.078592e+001 -1.403214e+001 1.111161e+001 -1.402157e+001 1.022573e+001 -1.068307e+001 -8.673368e+000
9075000000 -1.934506e+001 -1.429337e+000 -1.481326e+001 -3.334430e+001 -1.474025e+001 -3.311738e+001 -1.213363e+001 -3.415422e+001
9170000000 -2.311214e+001 7.593178e+001 -1.474414e+001 -7.586253e+001 -1.465309e+001 -7.563277e+001 -1.445229e+001 -5.628466e+001
9265000000 -1.601992e+001 5.972666e+001 -1.392991e+001 -1.245544e+002 -1.400625e+001 -1.241182e+002 -1.755706e+001 -3.895911e+001
9360000000 -1.687619e+001 2.277740e+001 -1.408640e+001 -1.768222e+002 -1.420681e+001 -1.774231e+002 -1.392122e+001 -5.049533e+001
9455000000 -2.985545e+001 5.451602e+000 -1.521286e+001 1.334353e+002 -1.513775e+001 1.322479e+002 -1.373410e+001 -7.371716e+001
9550000000 -2.001434e+001 1.165682e+002 -1.629091e+001 8.603973e+001 -1.618701e+001 8.573726e+001 -1.411270e+001 -1.100751e+002
9645000000 -1.473589e+001 8.387292e+001 -1.648089e+001 4.435517e+001 -1.638063e+001 4.467272e+001 -1.896964e+001 -1.230745e+002
9740000000 -1.542627e+001 5.279401e+001 -1.606743e+001 -4.484653e+000 -1.608229e+001 -3.717720e+000 -2.079572e+001 -9.776083e+001
9835000000 -2.395577e+001 5.353052e+001 -1.660084e+001 -5.666506e+001 -1.672221e+001 -5.729720e+001 -1.498279e+001 -1.063633e+002
9930000000 -1.721765e+001 1.160730e+002 -1.821615e+001 -1.023211e+002 -1.834631e+001 -1.036434e+002 -1.303598e+001 -1.406438e+002
10025000000 -1.228374e+001 1.018994e+002 -1.924073e+001 -1.432898e+002 -1.909520e+001 -1.434800e+002 -1.329044e+001 -1.641602e+002
10120000000 -1.085058e+001 8.666331e+001 -1.904225e+001 1.691534e+002 -1.877817e+001 1.692473e+002 -1.441000e+001 1.751078e+002
10215000000 -9.578777e+000 8.334618e+001 -1.948296e+001 1.172435e+002 -1.952809e+001 1.178113e+002 -1.662289e+001 1.673923e+002
10310000000 -7.225253e+000 7.462215e+001 -2.124472e+001 6.901620e+001 -2.157815e+001 7.008714e+001 -1.611677e+001 1.556482e+002
10405000000 -5.932332e+000 5.700623e+001 -2.289577e+001 3.549149e+001 -2.314508e+001 3.610230e+001 -1.888453e+001 1.396988e+002
10500000000 -5.691184e+000 4.338433e+001 -2.244202e+001 -1.019556e-001 -2.253284e+001 -1.549529e+000 -2.109793e+001 1.272591e+002
10595000000 -5.157010e+000 3.536417e+001 -2.130902e+001 -5.383551e+001 -2.181112e+001 -5.447930e+001 -2.570053e+001 -1.781504e+002
10690000000 -3.900384e+000 2.411490e+001 -2.599550e+001 -1.059668e+002 -2.458881e+001 -1.096626e+002 -2.019094e+001 -1.607097e+002
10785000000 -2.926171e+000 4.223296e+000 -3.000460e+001 -1.590937e+002 -3.087610e+001 -1.437694e+002 -1.453993e+001 -1.753623e+002
10880000000 -3.196557e+000 -2.029366e+001 -2.851851e+001 -1.163165e+002 -3.031465e+001 -1.316689e+002 -1.430537e+001 1.592290e+002
10975000000 -4.752538e+000 -4.003238e+001 -2.523983e+001 -1.608680e+002 -2.416153e+001 -1.591094e+002 -1.618415e+001 1.498820e+002
11070000000 -6.212100e+000 -5.592374e+001 -2.021462e+001 1.448866e+002 -2.098348e+001 1.410283e+002 -1.560410e+001 1.713754e+002
11165000000 -8.197320e+000 -7.829882e+001 -2.076062e+001 8.692223e+001 -1.994209e+001 8.313306e+001 -1.124093e+001 1.551185e+002
11260000000 -1.291519e+001 -1.040773e+002 -2.003622e+001 3.168452e+001 -2.100927e+001 3.451071e+001 -1.041554e+001 1.341030e+002
11355000000 -2.192042e+001 -1.078204e+002 -2.080488e+001 -1.805892e+000 -2.068374e+001 -8.696784e+000 -1.055962e+001 1.176575e+002
11450000000 -2.768336e+001 -5.912604e+001 -1.937486e+001 -5.193634e+001 -1.982506e+001 -5.346645e+001 -1.187404e+001 1.125015e+002
11545000000 -3.370478e+001 1.087954e+001 -1.852351e+001 -1.078571e+002 -1.902825e+001 -1.013800e+002 -1.116207e+001 1.021174e+002
11640000000 -2.085410e+001 4.487108e+001 -1.888102e+001 -1.562612e+002 -1.884461e+001 -1.550948e+002 -1.108338e+001 9.858605e+001
11735000000 -1.523630e+001 2.623526e+001 -1.822671e+001 1.516386e+002 -1.818315e+001 1.570185e+002 -1.149083e+001 7.763277e+001
11830000000 -1.405471e+001 7.379340e+000 -1.868512e+001 1.011151e+002 -1.890430e+001 1.057390e+002 -1.096733e+001 7.312179e+001
11925000000 -1.378374e+001 -1.215358e+000 -1.931056e+001 6.299592e+001 -1.994260e+001 6.051820e+001 -1.292938e+001 6.967032e+001
12020000000 -1.376714e+001 -1.047316e+001 -2.029128e+001 2.713081e+001 -2.003123e+001 1.706454e+001 -1.066977e+001 5.388254e+001
12115000000 -1.425507e+001 -1.786714e+001 -1.998816e+001 -2.514486e+001 -1.924002e+001 -2.649233e+001 -1.200242e+001 3.947355e+001
12210000000 -1.595372e+001 -1.870971e+001 -1.822387e+001 -7.829848e+001 -1.884886e+001 -7.467154e+001 -1.180443e+001 4.602613e+001
12305000000 -1.670678e+001 9.305012e-001 -1.785070e+001 -1.235442e+002 -1.875919e+001 -1.218313e+002 -1.188795e+001 3.896410e+001
12400000000 -1.338215e+001 9.251412e+000 -1.947823e+001 -1.694898e+002 -1.870970e+001 -1.735639e+002 -9.791983e+000 3.025215e+001
12495000000 -1.045528e+001 -3.703273e+000 -2.056000e+001 1.356062e+002 -1.958647e+001 1.370974e+002 -9.951338e+000 2.086972e+001
12590000000 -1.001628e+001 -1.825044e+001 -2.019983e+001 9.269254e+001 -2.010836e+001 8.920136e+001 -8.938790e+000 7.356638e-001
12685000000 -1.075974e+001 -2.616291e+001 -2.214713e+001 4.788540e+001 -2.121672e+001 4.162883e+001 -1.094087e+001 2.671830e+000
12780000000 -1.046870e+001 -2.469143e+001 -2.251693e+001 9.581023e+000 -2.268411e+001 5.304986e+000 -1.051489e+001 -6.123126e+000
12875000000 -8.674711e+000 -3.178332e+001 -2.141146e+001 -2.796946e+001 -2.179754e+001 -3.576379e+001 -8.935042e+000 -1.674061e+001
12970000000 -7.958869e+000 -4.475595e+001 -2.065608e+001 -7.423290e+001 -2.103285e+001 -7.981522e+001 -7.995927e+000 -2.440053e+001
13065000000 -8.273743e+000 -6.140587e+001 -2.034759e+001 -1.263833e+002 -2.077349e+001 -1.346073e+002 -9.850483e+000 -4.218497e+001
13160000000 -9.470588e+000 -6.680824e+001 -2.186268e+001 1.798640e+002 -2.309844e+001 1.751258e+002 -9.102176e+000 -4.427858e+001
13255000000 -9.524342e+000 -7.117038e+001 -2.361764e+001 1.476432e+002 -2.427233e+001 1.436972e+002 -9.530226e+000 -4.231406e+001
13350000000 -8.433180e+000 -8.021848e+001 -2.280727e+001 1.159457e+002 -2.377500e+001 1.127664e+002 -8.854053e+000 -6.145157e+001
13445000000 -8.148286e+000 -9.450394e+001 -2.080226e+001 7.007712e+001 -2.126111e+001 6.711794e+001 -7.322258e+000 -7.341415e+001
13540000000 -9.235808e+000 -1.157830e+002 -1.920597e+001 2.015565e+001 -2.063226e+001 2.007807e+001 -7.976992e+000 -7.386798e+001
13635000000 -1.113520e+001 -1.286007e+002 -2.017718e+001 -2.862670e+001 -2.147463e+001 -2.713839e+001 -1.011160e+001 -8.292863e+001
13730000000 -1.402102e+001 -1.329843e+002 -2.083222e+001 -7.338137e+001 -2.080692e+001 -7.044319e+001 -9.015374e+000 -1.011998e+002
13825000000 -1.619296e+001 -1.333121e+002 -2.009400e+001 -1.159093e+002 -2.021571e+001 -1.101696e+002 -9.184935e+000 -1.096678e+002
13920000000 -1.580904e+001 -1.313221e+002 -1.821074e+001 -1.651099e+002 -1.881275e+001 -1.570052e+002 -1.000440e+001 -1.145319e+002
14015000000 -1.689372e+001 -1.407314e+002 -1.763222e+001 1.424913e+002 -1.795498e+001 1.484440e+002 -1.210397e+001 -1.279522e+002
14110000000 -1.924348e+001 -1.402516e+002 -1.765692e+001 8.651773e+001 -1.758565e+001 9.280455e+001 -1.237312e+001 -1.295186e+002
14205000000 -1.721073e+001 -1.287375e+002 -1.811539e+001 3.930885e+001 -1.795247e+001 4.297904e+001 -1.350136e+001 -1.377646e+002
14300000000 -1.514372e+001 -1.466879e+002 -1.854231e+001 -1.482139e+001 -1.811520e+001 -8.967189e+000 -1.344598e+001 -1.597038e+002
14395000000 -1.522536e+001 -1.753997e+002 -1.927208e+001 -6.846629e+001 -1.863465e+001 -6.415207e+001 -1.418410e+001 -1.700612e+002
14490000000 -1.685902e+001 1.701468e+002 -2.094705e+001 -1.227686e+002 -1.968446e+001 -1.174638e+002 -1.915750e+001 -1.773181e+002
14585000000 -1.640273e+001 1.536349e+002 -2.381806e+001 -1.648725e+002 -2.205963e+001 -1.617927e+002 -2.660705e+001 1.282915e+002
14680000000 -1.579049e+001 1.263063e+002 -2.664280e+001 1.537097e+002 -2.397513e+001 1.568151e+002 -2.276564e+001 9.914852e+001
14775000000 -1.668166e+001 8.132278e+001 -2.739722e+001 1.190819e+002 -2.481705e+001 1.137494e+002 -2.222068e+001 4.173958e+001
14870000000 -2.047556e+001 3.738165e+001 -2.946990e+001 9.551435e+001 -2.551678e+001 8.704131e+001 -1.925399e+001 -1.363070e+001
14965000000 -3.215424e+001 2.355701e+001 -2.694386e+001 7.246645e+001 -2.457667e+001 5.807514e+001 -1.705141e+001 -4.744128e+001
15060000000 -2.638473e+001 1.079396e+002 -2.428419e+001 2.508781e+001 -2.236009e+001 1.643617e+001 -1.736002e+001 -6.210903e+001
15155000000 -2.229942e+001 6.579649e+001 -2.203828e+001 -3.203191e+001 -2.126929e+001 -3.475541e+001 -1.638127e+001 -5.883760e+001
15250000000 -2.464514e+001 3.576397e+001 -2.304882e+001 -8.443996e+001 -2.169931e+001 -8.439610e+001 -1.841508e+001 -9.202095e+001
