!Agilent Technologies,N5230A,MY45001629,A.07.50.67
!Agilent N5230A: A.07.50.67
!Date: Monday, June 05, 2017 16:35:06
!Correction: S11(Full 2 Port(1,2)) 
!S21(Full 2 Port(1,2)) 
!S12(Full 2 Port(1,2)) 
!S22(Full 2 Port(1,2)) 
!S2P File: Measurements: S11, S21, S12, S22:
# Hz S  dB   R 50
1000000000 -2.222175e-001 5.256046e+001 -5.248973e+001 -9.228961e+000 -5.120241e+001 -1.124429e+001 -8.709473e-001 4.359651e+001
1095000000 -2.451376e-001 3.633573e+001 -4.385786e+001 -4.973379e+001 -4.346706e+001 -5.474739e+001 -1.104429e+000 2.646325e+001
1190000000 -3.963926e-001 1.800089e+001 -3.408828e+001 -1.054819e+002 -3.413950e+001 -1.068054e+002 -1.565433e+000 7.961266e+000
1285000000 -9.353396e-001 -2.277746e+000 -2.611195e+001 -1.788290e+002 -2.613057e+001 -1.796008e+002 -2.344157e+000 -9.829867e+000
1380000000 -1.464119e+000 -2.450725e+001 -2.101048e+001 1.045041e+002 -2.103248e+001 1.043502e+002 -2.550952e+000 -2.941027e+001
1475000000 -3.002318e+000 -5.651021e+001 -1.516822e+001 3.320744e+001 -1.517896e+001 3.305486e+001 -3.436057e+000 -6.163589e+001
1570000000 -8.984265e+000 -9.771224e+001 -1.068733e+001 -5.322161e+001 -1.067803e+001 -5.331310e+001 -8.693299e+000 -1.022031e+002
1665000000 -2.097855e+001 -3.662289e+001 -9.269608e+000 -1.431896e+002 -9.280053e+000 -1.432303e+002 -1.949594e+001 -8.057758e+001
1760000000 -1.254551e+001 -3.970083e+000 -1.007530e+001 1.396489e+002 -1.008844e+001 1.395638e+002 -1.688134e+001 -1.771814e+001
1855000000 -8.213797e+000 -3.005053e+001 -1.079606e+001 7.974464e+001 -1.080362e+001 7.984529e+001 -1.126293e+001 -3.287532e+001
1950000000 -7.959279e+000 -6.014352e+001 -1.029869e+001 2.354668e+001 -1.027372e+001 2.367920e+001 -9.712630e+000 -5.914300e+001
2045000000 -1.049316e+001 -7.744282e+001 -9.281250e+000 -3.698216e+001 -9.252923e+000 -3.700713e+001 -1.142535e+001 -7.929776e+001
2140000000 -1.149115e+001 -7.525112e+001 -8.724823e+000 -9.729212e+001 -8.679705e+000 -9.740757e+001 -1.223330e+001 -7.366389e+001
2235000000 -9.708563e+000 -8.450869e+001 -8.686884e+000 -1.581180e+002 -8.684213e+000 -1.583669e+002 -1.026647e+001 -8.413789e+001
2330000000 -9.865738e+000 -1.077487e+002 -8.971130e+000 1.468760e+002 -8.959364e+000 1.466409e+002 -9.674136e+000 -1.062159e+002
2425000000 -1.197575e+001 -1.237971e+002 -8.652179e+000 9.116202e+001 -8.654096e+000 9.122447e+001 -1.106133e+001 -1.209284e+002
2520000000 -1.372663e+001 -1.318438e+002 -8.602388e+000 3.639209e+001 -8.632165e+000 3.639464e+001 -1.273182e+001 -1.325066e+002
2615000000 -1.608456e+001 -1.440972e+002 -8.595825e+000 -1.844139e+001 -8.565469e+000 -1.838280e+001 -1.400845e+001 -1.433645e+002
2710000000 -2.222072e+001 -1.240531e+002 -8.858108e+000 -7.314560e+001 -8.821776e+000 -7.306005e+001 -1.883399e+001 -1.313182e+002
2805000000 -1.674871e+001 -8.492362e+001 -9.029325e+000 -1.250458e+002 -9.015406e+000 -1.250188e+002 -1.628342e+001 -1.060063e+002
2900000000 -1.241650e+001 -1.055265e+002 -9.393409e+000 -1.749058e+002 -9.373259e+000 -1.749224e+002 -1.169637e+001 -1.141816e+002
2995000000 -1.171118e+001 -1.292535e+002 -9.129361e+000 1.374658e+002 -9.128906e+000 1.374752e+002 -1.087076e+001 -1.369563e+002
3090000000 -1.381393e+001 -1.433703e+002 -8.595421e+000 8.663888e+001 -8.615421e+000 8.659839e+001 -1.270855e+001 -1.529610e+002
3185000000 -1.546929e+001 -1.255811e+002 -8.335105e+000 3.333319e+001 -8.339202e+000 3.340759e+001 -1.521610e+001 -1.371069e+002
3280000000 -1.116869e+001 -1.207110e+002 -8.419017e+000 -1.986230e+001 -8.400786e+000 -1.974832e+001 -1.072361e+001 -1.321410e+002
3375000000 -8.697081e+000 -1.425645e+002 -8.798676e+000 -7.073055e+001 -8.820069e+000 -7.056502e+001 -8.435528e+000 -1.487556e+002
3470000000 -8.429695e+000 -1.629630e+002 -8.900324e+000 -1.185998e+002 -8.910102e+000 -1.183791e+002 -8.214119e+000 -1.708664e+002
3565000000 -8.951783e+000 -1.784437e+002 -8.821804e+000 -1.676652e+002 -8.818223e+000 -1.676914e+002 -8.663998e+000 1.751278e+002
3660000000 -9.830193e+000 1.691026e+002 -8.585509e+000 1.438098e+002 -8.562485e+000 1.438692e+002 -9.368429e+000 1.643278e+002
3755000000 -1.054082e+001 1.588337e+002 -8.233066e+000 9.346487e+001 -8.222170e+000 9.359212e+001 -9.780356e+000 1.511442e+002
3850000000 -1.240139e+001 1.507460e+002 -7.971164e+000 4.153111e+001 -7.950192e+000 4.176062e+001 -1.210642e+001 1.391279e+002
3945000000 -1.396667e+001 1.554822e+002 -7.934486e+000 -1.110605e+001 -7.924755e+000 -1.106948e+001 -1.421510e+001 1.437254e+002
4040000000 -1.291546e+001 1.573287e+002 -8.213564e+000 -6.269780e+001 -8.170191e+000 -6.284213e+001 -1.291590e+001 1.451807e+002
4135000000 -1.353194e+001 1.473869e+002 -8.385580e+000 -1.157439e+002 -8.362069e+000 -1.156058e+002 -1.363642e+001 1.278871e+002
4230000000 -1.533596e+001 1.601406e+002 -9.291885e+000 -1.693798e+002 -9.264570e+000 -1.694241e+002 -1.867461e+001 1.334472e+002
4325000000 -1.205636e+001 1.651834e+002 -1.069392e+001 1.433183e+002 -1.066068e+001 1.429843e+002 -1.468475e+001 1.623837e+002
4420000000 -1.041987e+001 1.532097e+002 -1.156158e+001 1.012477e+002 -1.152125e+001 1.011247e+002 -1.220076e+001 1.490528e+002
4515000000 -9.583549e+000 1.435015e+002 -1.154240e+001 5.946146e+001 -1.150308e+001 5.947636e+001 -1.107029e+001 1.358760e+002
4610000000 -8.323323e+000 1.308139e+002 -1.109321e+001 1.459577e+001 -1.105855e+001 1.440459e+001 -1.038744e+001 1.178290e+002
4705000000 -8.032556e+000 1.116037e+002 -1.076556e+001 -3.329304e+001 -1.075242e+001 -3.347881e+001 -9.597527e+000 9.890890e+001
4800000000 -8.995688e+000 9.061335e+001 -1.056454e+001 -8.192554e+001 -1.052785e+001 -8.204890e+001 -1.090703e+001 7.556038e+001
4895000000 -1.143509e+001 7.658564e+001 -1.046007e+001 -1.320623e+002 -1.043232e+001 -1.323643e+002 -1.258730e+001 5.250127e+001
4990000000 -1.407215e+001 7.190421e+001 -1.078940e+001 1.774449e+002 -1.071851e+001 1.773177e+002 -1.531120e+001 3.527570e+001
5085000000 -1.623942e+001 7.401869e+001 -1.125608e+001 1.293349e+002 -1.122114e+001 1.290946e+002 -1.860156e+001 2.246015e+001
5180000000 -1.735262e+001 8.706113e+001 -1.175591e+001 8.330537e+001 -1.176341e+001 8.306498e+001 -2.544335e+001 2.020896e+001
5275000000 -1.571239e+001 9.776916e+001 -1.184756e+001 3.666259e+001 -1.187031e+001 3.669135e+001 -2.477147e+001 6.290320e+001
5370000000 -1.348690e+001 8.597150e+001 -1.213282e+001 -9.558060e+000 -1.218352e+001 -9.870827e+000 -1.958448e+001 5.194492e+001
5465000000 -1.347582e+001 6.634911e+001 -1.232153e+001 -5.421186e+001 -1.235908e+001 -5.441625e+001 -1.843773e+001 2.146242e+001
5560000000 -1.578653e+001 5.003416e+001 -1.218603e+001 -9.953781e+001 -1.218879e+001 -9.959827e+001 -1.965414e+001 -1.212915e+001
5655000000 -1.892867e+001 6.197458e+001 -1.183083e+001 -1.490583e+002 -1.182091e+001 -1.488168e+002 -2.582627e+001 -4.249643e+001
5750000000 -1.532061e+001 6.751132e+001 -1.215674e+001 1.600116e+002 -1.209337e+001 1.597953e+002 -2.505040e+001 3.278913e+001
5845000000 -1.385209e+001 4.018011e+001 -1.320195e+001 1.107237e+002 -1.321722e+001 1.104137e+002 -1.802654e+001 -4.022719e+000
5940000000 -1.487953e+001 6.530170e+000 -1.412372e+001 6.826342e+001 -1.417068e+001 6.826791e+001 -1.573891e+001 -3.792087e+001
6035000000 -1.773278e+001 -2.799046e+001 -1.456933e+001 2.762503e+001 -1.467241e+001 2.730077e+001 -1.444384e+001 -7.099284e+001
6130000000 -1.996498e+001 -8.391430e+001 -1.434512e+001 -1.076488e+001 -1.439967e+001 -1.087383e+001 -1.481761e+001 -1.096110e+002
6225000000 -1.986491e+001 -1.682064e+002 -1.360966e+001 -5.462135e+001 -1.367006e+001 -5.427882e+001 -1.747828e+001 -1.483683e+002
6320000000 -1.841875e+001 1.188637e+002 -1.285153e+001 -1.007740e+002 -1.279199e+001 -1.010710e+002 -2.790956e+001 1.660123e+002
6415000000 -2.115754e+001 6.071175e+001 -1.245018e+001 -1.506930e+002 -1.241115e+001 -1.508642e+002 -2.851225e+001 -4.414074e+001
6510000000 -3.606252e+001 -1.684047e+001 -1.263805e+001 1.599532e+002 -1.260796e+001 1.603697e+002 -1.816548e+001 -7.804079e+001
6605000000 -2.474651e+001 1.581126e+002 -1.266467e+001 1.136434e+002 -1.267650e+001 1.139223e+002 -1.601963e+001 -1.113743e+002
6700000000 -1.989598e+001 1.205811e+002 -1.258681e+001 6.710110e+001 -1.261605e+001 6.696606e+001 -1.633097e+001 -1.406244e+002
6795000000 -1.913413e+001 8.013825e+001 -1.255328e+001 2.096500e+001 -1.262663e+001 2.064602e+001 -1.916127e+001 -1.557700e+002
6890000000 -2.157339e+001 3.311654e+001 -1.253635e+001 -2.580641e+001 -1.258723e+001 -2.607139e+001 -2.114785e+001 -1.368008e+002
6985000000 -2.507179e+001 -4.971740e+001 -1.251909e+001 -7.267819e+001 -1.247817e+001 -7.260709e+001 -1.673750e+001 -1.323928e+002
7080000000 -2.104251e+001 -1.310331e+002 -1.239455e+001 -1.206332e+002 -1.233141e+001 -1.207491e+002 -1.367112e+001 -1.463116e+002
7175000000 -1.724777e+001 -1.749725e+002 -1.242722e+001 -1.684395e+002 -1.246991e+001 -1.683705e+002 -1.281855e+001 -1.710944e+002
7270000000 -1.538083e+001 1.599536e+002 -1.267373e+001 1.445573e+002 -1.270957e+001 1.448575e+002 -1.240661e+001 1.736751e+002
7365000000 -1.474544e+001 1.400818e+002 -1.285328e+001 9.920387e+001 -1.292037e+001 9.890361e+001 -1.269933e+001 1.585154e+002
7460000000 -1.473572e+001 1.272537e+002 -1.286291e+001 5.414488e+001 -1.287723e+001 5.343515e+001 -1.236282e+001 1.490442e+002
7555000000 -1.429964e+001 1.208513e+002 -1.265937e+001 8.500541e+000 -1.266320e+001 8.399455e+000 -1.243323e+001 1.377163e+002
7650000000 -1.361607e+001 1.105621e+002 -1.246667e+001 -3.823874e+001 -1.244765e+001 -3.812757e+001 -1.175537e+001 1.265962e+002
7745000000 -1.329581e+001 9.734892e+001 -1.216496e+001 -8.686858e+001 -1.216914e+001 -8.640129e+001 -1.221906e+001 1.123539e+002
7840000000 -1.450114e+001 8.654835e+001 -1.210931e+001 -1.352137e+002 -1.216748e+001 -1.349130e+002 -1.287723e+001 1.072310e+002
7935000000 -1.603850e+001 8.812793e+001 -1.218933e+001 1.781040e+002 -1.221947e+001 1.772620e+002 -1.283163e+001 1.026910e+002
8030000000 -1.517795e+001 9.239841e+001 -1.218174e+001 1.302670e+002 -1.213405e+001 1.295994e+002 -1.227015e+001 9.727942e+001
8125000000 -1.389920e+001 8.279185e+001 -1.223559e+001 8.086644e+001 -1.216111e+001 8.099983e+001 -1.189335e+001 8.423505e+001
8220000000 -1.536361e+001 7.126021e+001 -1.242517e+001 3.148434e+001 -1.232579e+001 3.165411e+001 -1.205771e+001 7.828579e+001
8315000000 -1.702772e+001 8.334829e+001 -1.270215e+001 -1.695400e+001 -1.279534e+001 -1.668555e+001 -1.278417e+001 7.126771e+001
8410000000 -1.411499e+001 9.261373e+001 -1.337796e+001 -6.389567e+001 -1.327260e+001 -6.335674e+001 -1.191795e+001 6.730656e+001
8505000000 -1.186867e+001 7.789752e+001 -1.359069e+001 -1.086916e+002 -1.363561e+001 -1.081469e+002 -1.102873e+001 5.707619e+001
8600000000 -1.175204e+001 5.830035e+001 -1.342277e+001 -1.526763e+002 -1.346078e+001 -1.524480e+002 -9.879059e+000 4.063762e+001
8695000000 -1.399901e+001 4.846817e+001 -1.326203e+001 1.604901e+002 -1.328413e+001 1.601013e+002 -1.137241e+001 2.546122e+001
8790000000 -1.430917e+001 5.193152e+001 -1.307801e+001 1.117393e+002 -1.308371e+001 1.110858e+002 -1.146064e+001 1.299415e+001
8885000000 -1.286045e+001 4.340125e+001 -1.324413e+001 6.008232e+001 -1.318570e+001 5.990004e+001 -1.185809e+001 6.306607e+000
8980000000 -1.450223e+001 2.069656e+001 -1.411899e+001 9.823078e+000 -1.409505e+001 1.039341e+001 -1.066232e+001 -1.055507e+001
9075000000 -1.947355e+001 -2.347417e+000 -1.472807e+001 -3.364599e+001 -1.477587e+001 -3.333709e+001 -1.215443e+001 -3.364919e+001
9170000000 -2.300348e+001 7.736734e+001 -1.458176e+001 -7.571190e+001 -1.467720e+001 -7.579865e+001 -1.484630e+001 -5.638127e+001
9265000000 -1.594560e+001 6.000154e+001 -1.399097e+001 -1.238667e+002 -1.402177e+001 -1.241919e+002 -1.743841e+001 -3.865092e+001
9360000000 -1.682524e+001 2.202249e+001 -1.433385e+001 -1.774373e+002 -1.422918e+001 -1.774111e+002 -1.409912e+001 -4.840862e+001
9455000000 -3.024137e+001 5.966647e+000 -1.519337e+001 1.311846e+002 -1.521982e+001 1.322138e+002 -1.356173e+001 -7.562040e+001
9550000000 -1.993409e+001 1.159855e+002 -1.619923e+001 8.589793e+001 -1.623902e+001 8.567551e+001 -1.451636e+001 -1.091714e+002
9645000000 -1.457099e+001 8.292189e+001 -1.641198e+001 4.597033e+001 -1.647228e+001 4.515335e+001 -1.914988e+001 -1.283138e+002
9740000000 -1.540780e+001 5.243147e+001 -1.611708e+001 -2.852020e+000 -1.613387e+001 -3.765030e+000 -2.030508e+001 -9.971147e+001
9835000000 -2.423470e+001 5.572137e+001 -1.694902e+001 -5.693941e+001 -1.681447e+001 -5.724060e+001 -1.514805e+001 -1.043750e+002
9930000000 -1.718200e+001 1.161275e+002 -1.856739e+001 -1.031714e+002 -1.841747e+001 -1.030310e+002 -1.288030e+001 -1.414078e+002
10025000000 -1.231909e+001 1.019327e+002 -1.887948e+001 -1.445187e+002 -1.904706e+001 -1.436660e+002 -1.336041e+001 -1.634696e+002
10120000000 -1.085328e+001 8.666183e+001 -1.861045e+001 1.689650e+002 -1.873745e+001 1.686856e+002 -1.425009e+001 1.719953e+002
10215000000 -9.599834e+000 8.337090e+001 -1.939610e+001 1.182391e+002 -1.952364e+001 1.178275e+002 -1.631002e+001 1.679203e+002
10310000000 -7.226729e+000 7.449262e+001 -2.185679e+001 7.177031e+001 -2.155154e+001 6.965063e+001 -1.634556e+001 1.540482e+002
10405000000 -5.926394e+000 5.688376e+001 -2.335758e+001 3.822876e+001 -2.314267e+001 3.586562e+001 -1.880868e+001 1.366117e+002
10500000000 -5.728048e+000 4.330173e+001 -2.269982e+001 -2.642976e+000 -2.250091e+001 -2.041145e+000 -2.145205e+001 1.295582e+002
10595000000 -5.207777e+000 3.587027e+001 -2.234911e+001 -5.175753e+001 -2.196119e+001 -5.475632e+001 -2.505740e+001 1.788218e+002
10690000000 -3.858409e+000 2.439536e+001 -2.406912e+001 -1.189309e+002 -2.459590e+001 -1.121009e+002 -1.966703e+001 -1.556895e+002
10785000000 -2.998819e+000 4.289144e+000 -2.956425e+001 -1.368347e+002 -3.028610e+001 -1.441113e+002 -1.422404e+001 -1.754067e+002
10880000000 -3.214831e+000 -2.015525e+001 -3.306266e+001 -1.372124e+002 -3.009814e+001 -1.323282e+002 -1.496061e+001 1.558812e+002
10975000000 -4.773237e+000 -3.997552e+001 -2.370964e+001 -1.699344e+002 -2.424666e+001 -1.625551e+002 -1.620991e+001 1.506644e+002
11070000000 -6.277367e+000 -5.651405e+001 -2.143047e+001 1.465144e+002 -2.090330e+001 1.433228e+002 -1.494405e+001 1.699618e+002
11165000000 -8.238388e+000 -7.837508e+001 -1.985002e+001 7.895969e+001 -2.016770e+001 8.424229e+001 -1.099909e+001 1.579637e+002
11260000000 -1.293645e+001 -1.045852e+002 -2.035435e+001 3.583339e+001 -2.049903e+001 3.380299e+001 -1.098524e+001 1.345439e+002
11355000000 -2.175474e+001 -1.094515e+002 -2.175408e+001 -1.610160e+001 -2.079365e+001 -9.514711e+000 -1.060938e+001 1.166948e+002
11450000000 -2.793603e+001 -5.679165e+001 -1.983058e+001 -5.120456e+001 -1.945193e+001 -5.273267e+001 -1.148769e+001 1.164094e+002
11545000000 -3.338845e+001 7.158605e+000 -1.857428e+001 -1.001479e+002 -1.894482e+001 -1.036320e+002 -1.087895e+001 9.946523e+001
11640000000 -2.070947e+001 4.284024e+001 -1.799144e+001 -1.512228e+002 -1.887008e+001 -1.535802e+002 -1.138503e+001 1.019483e+002
11735000000 -1.510408e+001 2.638268e+001 -1.804231e+001 1.602872e+002 -1.837683e+001 1.568119e+002 -1.191964e+001 8.360428e+001
11830000000 -1.411469e+001 8.207398e+000 -1.801422e+001 1.101841e+002 -1.850651e+001 1.058711e+002 -1.074640e+001 7.346779e+001
11925000000 -1.388400e+001 -2.362443e+000 -1.994540e+001 6.082234e+001 -1.959821e+001 5.983942e+001 -1.226686e+001 7.378943e+001
12020000000 -1.368027e+001 -9.652011e+000 -2.042280e+001 1.175957e+001 -1.991363e+001 1.739060e+001 -1.070785e+001 5.393012e+001
12115000000 -1.428686e+001 -1.853318e+001 -1.898066e+001 -2.617139e+001 -1.936285e+001 -2.584918e+001 -1.215960e+001 4.543008e+001
12210000000 -1.590098e+001 -1.744173e+001 -1.852040e+001 -6.882044e+001 -1.883405e+001 -7.529384e+001 -1.237030e+001 4.337216e+001
12305000000 -1.655432e+001 1.806486e+000 -1.908780e+001 -1.198066e+002 -1.853682e+001 -1.232673e+002 -1.186022e+001 4.196349e+001
12400000000 -1.303345e+001 9.265843e+000 -1.930611e+001 -1.781832e+002 -1.925725e+001 -1.743925e+002 -1.032062e+001 3.197551e+001
12495000000 -1.047716e+001 -3.985200e+000 -1.859811e+001 1.355719e+002 -1.928635e+001 1.356381e+002 -1.013907e+001 2.251686e+001
12590000000 -9.850014e+000 -1.880457e+001 -1.989089e+001 9.151043e+001 -2.027140e+001 8.841435e+001 -9.466710e+000 -1.344659e+000
12685000000 -1.074475e+001 -2.563884e+001 -2.093954e+001 4.917430e+001 -2.172379e+001 4.574984e+001 -1.033603e+001 -1.858507e+000
12780000000 -1.044998e+001 -2.490124e+001 -2.193939e+001 8.278906e+000 -2.242683e+001 5.433214e+000 -1.008176e+001 -4.709650e+000
12875000000 -8.848064e+000 -3.189412e+001 -2.061280e+001 -3.527805e+001 -2.151308e+001 -3.676859e+001 -9.114582e+000 -1.578860e+001
12970000000 -7.867607e+000 -4.530882e+001 -1.980073e+001 -7.838436e+001 -2.094256e+001 -8.358269e+001 -8.107685e+000 -2.400569e+001
13065000000 -8.357224e+000 -6.121743e+001 -1.973675e+001 -1.324927e+002 -2.077771e+001 -1.331900e+002 -9.760987e+000 -4.226835e+001
13160000000 -9.396070e+000 -6.677029e+001 -2.122676e+001 1.794481e+002 -2.270749e+001 1.743482e+002 -9.252378e+000 -4.366710e+001
13255000000 -9.527335e+000 -7.117062e+001 -2.283960e+001 1.510905e+002 -2.463645e+001 1.433237e+002 -9.424908e+000 -4.285112e+001
13350000000 -8.517022e+000 -8.043864e+001 -2.210402e+001 1.187688e+002 -2.425053e+001 1.171415e+002 -8.558211e+000 -6.027176e+001
13445000000 -8.066838e+000 -9.551553e+001 -1.995005e+001 7.691393e+001 -2.158806e+001 7.173792e+001 -7.685009e+000 -7.303207e+001
13540000000 -9.221311e+000 -1.163480e+002 -1.921078e+001 2.315623e+001 -2.064651e+001 2.324988e+001 -7.800121e+000 -7.842096e+001
13635000000 -1.121316e+001 -1.284503e+002 -1.938960e+001 -2.735852e+001 -2.120675e+001 -2.670386e+001 -9.587475e+000 -8.385062e+001
13730000000 -1.397882e+001 -1.328350e+002 -1.973665e+001 -6.908082e+001 -2.073363e+001 -6.985909e+001 -8.837562e+000 -9.783624e+001
13825000000 -1.601225e+001 -1.334537e+002 -1.928340e+001 -1.124208e+002 -2.025595e+001 -1.160626e+002 -1.011909e+001 -1.073327e+002
13920000000 -1.594207e+001 -1.302674e+002 -1.786621e+001 -1.602095e+002 -1.826878e+001 -1.574679e+002 -1.039120e+001 -1.205551e+002
14015000000 -1.717616e+001 -1.402627e+002 -1.723528e+001 1.467630e+002 -1.775631e+001 1.478618e+002 -1.091245e+001 -1.297863e+002
14110000000 -1.934173e+001 -1.393219e+002 -1.659138e+001 9.140205e+001 -1.728870e+001 9.450684e+001 -1.226136e+001 -1.234797e+002
14205000000 -1.715585e+001 -1.288778e+002 -1.720963e+001 3.817788e+001 -1.775963e+001 4.263591e+001 -1.451270e+001 -1.395718e+002
14300000000 -1.511658e+001 -1.477388e+002 -1.752574e+001 -1.617321e+001 -1.812316e+001 -1.099772e+001 -1.309157e+001 -1.658247e+002
14395000000 -1.528170e+001 -1.759221e+002 -1.804033e+001 -6.975945e+001 -1.825988e+001 -6.766542e+001 -1.365199e+001 -1.680446e+002
14490000000 -1.681192e+001 1.711626e+002 -1.958798e+001 -1.257583e+002 -2.000623e+001 -1.170800e+002 -1.791167e+001 -1.735451e+002
14585000000 -1.644593e+001 1.542361e+002 -2.172388e+001 -1.728693e+002 -2.222383e+001 -1.612501e+002 -2.812913e+001 1.275613e+002
14680000000 -1.578582e+001 1.255420e+002 -2.412037e+001 1.458248e+002 -2.322345e+001 1.564286e+002 -2.199141e+001 9.640555e+001
14775000000 -1.686755e+001 8.220101e+001 -2.461606e+001 1.021354e+002 -2.417598e+001 1.183728e+002 -2.403471e+001 3.762077e+001
14870000000 -2.070446e+001 3.707479e+001 -2.753727e+001 6.482974e+001 -2.569881e+001 8.591053e+001 -1.814191e+001 -1.530543e+001
14965000000 -3.193833e+001 2.376851e+001 -2.648125e+001 5.061218e+001 -2.446803e+001 6.099300e+001 -1.738033e+001 -4.546164e+001
15060000000 -2.726336e+001 1.027923e+002 -2.343059e+001 5.602929e+000 -2.241918e+001 1.465038e+001 -1.740200e+001 -6.762433e+001
15155000000 -2.231673e+001 6.753870e+001 -2.248826e+001 -4.729678e+001 -2.091607e+001 -3.397609e+001 -1.501268e+001 -6.552084e+001
15250000000 -2.393551e+001 3.353093e+001 -2.272416e+001 -9.279759e+001 -2.146564e+001 -8.683168e+001 -1.725719e+001 -7.973785e+001
