!Agilent Technologies,N5230A,MY45001629,A.07.50.67
!Agilent N5230A: A.07.50.67
!Date: Monday, June 05, 2017 16:33:55
!Correction: S11(Full 2 Port(1,2)) 
!S21(Full 2 Port(1,2)) 
!S12(Full 2 Port(1,2)) 
!S22(Full 2 Port(1,2)) 
!S2P File: Measurements: S11, S21, S12, S22:
# Hz S  dB   R 50
1000000000 -2.158549e-001 5.256835e+001 -5.012782e+001 -2.146279e+001 -5.156711e+001 -1.282555e+001 -8.587174e-001 4.358121e+001
1095000000 -2.412293e-001 3.635587e+001 -4.322896e+001 -6.000177e+001 -4.304496e+001 -5.546481e+001 -1.108721e+000 2.646339e+001
1190000000 -3.992268e-001 1.801003e+001 -3.411891e+001 -1.075376e+002 -3.414938e+001 -1.071827e+002 -1.566058e+000 7.953614e+000
1285000000 -9.437171e-001 -2.191026e+000 -2.612344e+001 1.787546e+002 -2.598954e+001 1.792573e+002 -2.353683e+000 -9.793042e+000
1380000000 -1.448922e+000 -2.439148e+001 -2.103304e+001 1.028792e+002 -2.099480e+001 1.029376e+002 -2.544545e+000 -2.932361e+001
1475000000 -2.969046e+000 -5.655339e+001 -1.523138e+001 3.209143e+001 -1.519196e+001 3.212293e+001 -3.406828e+000 -6.162466e+001
1570000000 -8.893475e+000 -9.794786e+001 -1.068085e+001 -5.400872e+001 -1.066908e+001 -5.390112e+001 -8.614011e+000 -1.026560e+002
1665000000 -2.148792e+001 -3.785830e+001 -9.294422e+000 -1.439563e+002 -9.275606e+000 -1.438942e+002 -1.993770e+001 -8.187656e+001
1760000000 -1.242480e+001 -2.734917e+000 -1.011105e+001 1.384780e+002 -1.009847e+001 1.385324e+002 -1.673033e+001 -1.665579e+001
1855000000 -8.095959e+000 -2.966304e+001 -1.082941e+001 7.898943e+001 -1.081833e+001 7.877795e+001 -1.113589e+001 -3.313901e+001
1950000000 -7.837204e+000 -6.024709e+001 -1.033329e+001 2.295438e+001 -1.031372e+001 2.277779e+001 -9.583030e+000 -5.965088e+001
2045000000 -1.035172e+001 -7.809869e+001 -9.273857e+000 -3.761448e+001 -9.278472e+000 -3.764346e+001 -1.125143e+001 -8.033414e+001
2140000000 -1.150861e+001 -7.685728e+001 -8.682842e+000 -9.811597e+001 -8.675393e+000 -9.836538e+001 -1.227341e+001 -7.449931e+001
2235000000 -9.878968e+000 -8.539450e+001 -8.647485e+000 -1.593464e+002 -8.666026e+000 -1.594693e+002 -1.036763e+001 -8.419719e+001
2330000000 -1.011894e+001 -1.078363e+002 -8.950109e+000 1.453163e+002 -8.961780e+000 1.453671e+002 -9.780861e+000 -1.051430e+002
2425000000 -1.225410e+001 -1.218688e+002 -8.710390e+000 8.948235e+001 -8.697591e+000 8.956693e+001 -1.112224e+001 -1.184466e+002
2520000000 -1.363021e+001 -1.286644e+002 -8.729754e+000 3.467470e+001 -8.707314e+000 3.472231e+001 -1.243736e+001 -1.303970e+002
2615000000 -1.561758e+001 -1.417684e+002 -8.685467e+000 -2.001278e+001 -8.650455e+000 -2.006124e+001 -1.367433e+001 -1.427912e+002
2710000000 -2.123659e+001 -1.275006e+002 -8.936705e+000 -7.423175e+001 -8.900451e+000 -7.447378e+001 -1.840655e+001 -1.359424e+002
2805000000 -1.709455e+001 -8.960628e+001 -9.078263e+000 -1.265091e+002 -9.088838e+000 -1.266393e+002 -1.671965e+001 -1.070024e+002
2900000000 -1.287223e+001 -1.073968e+002 -9.445218e+000 -1.764737e+002 -9.431567e+000 -1.767756e+002 -1.203399e+001 -1.141744e+002
2995000000 -1.234110e+001 -1.295275e+002 -9.211165e+000 1.348570e+002 -9.222310e+000 1.351066e+002 -1.118191e+001 -1.354082e+002
3090000000 -1.452849e+001 -1.389515e+002 -8.820097e+000 8.370560e+001 -8.807152e+000 8.384164e+001 -1.271883e+001 -1.496872e+002
3185000000 -1.479479e+001 -1.190317e+002 -8.618632e+000 3.053296e+001 -8.623026e+000 3.070970e+001 -1.443500e+001 -1.352507e+002
3280000000 -1.045659e+001 -1.213930e+002 -8.807484e+000 -2.239780e+001 -8.813220e+000 -2.229437e+001 -1.034250e+001 -1.350517e+002
3375000000 -8.336237e+000 -1.444027e+002 -9.207791e+000 -7.294849e+001 -9.220661e+000 -7.274181e+001 -8.503528e+000 -1.513961e+002
3470000000 -8.209202e+000 -1.656105e+002 -9.310001e+000 -1.206434e+002 -9.310052e+000 -1.204758e+002 -8.455733e+000 -1.724209e+002
3565000000 -8.989010e+000 1.778292e+002 -9.259815e+000 -1.698802e+002 -9.257440e+000 -1.697380e+002 -8.973263e+000 1.746768e+002
3660000000 -1.034974e+001 1.651606e+002 -9.047393e+000 1.414064e+002 -9.043497e+000 1.415078e+002 -9.761808e+000 1.654790e+002
3755000000 -1.160166e+001 1.590154e+002 -8.842404e+000 9.074491e+001 -8.817286e+000 9.095144e+001 -1.012763e+001 1.548020e+002
3850000000 -1.308535e+001 1.592476e+002 -8.789298e+000 3.935711e+001 -8.781282e+000 3.953106e+001 -1.149929e+001 1.465232e+002
3945000000 -1.295300e+001 1.630917e+002 -8.831568e+000 -1.167348e+001 -8.821904e+000 -1.173851e+001 -1.254684e+001 1.415513e+002
4040000000 -1.180409e+001 1.559690e+002 -9.047089e+000 -6.201395e+001 -9.018645e+000 -6.202722e+001 -1.245124e+001 1.350514e+002
4135000000 -1.293801e+001 1.421790e+002 -9.112858e+000 -1.145119e+002 -9.091747e+000 -1.142499e+002 -1.445332e+001 1.165040e+002
4230000000 -1.571427e+001 1.529331e+002 -1.001817e+001 -1.681685e+002 -9.994806e+000 -1.681366e+002 -2.191501e+001 1.396138e+002
4325000000 -1.278632e+001 1.636986e+002 -1.149897e+001 1.446979e+002 -1.146716e+001 1.446123e+002 -1.435777e+001 1.705840e+002
4420000000 -1.099766e+001 1.543461e+002 -1.236566e+001 1.034598e+002 -1.233751e+001 1.033562e+002 -1.154096e+001 1.527723e+002
4515000000 -9.929784e+000 1.467054e+002 -1.226402e+001 6.296407e+001 -1.223864e+001 6.303180e+001 -1.014718e+001 1.360151e+002
4610000000 -8.315976e+000 1.341796e+002 -1.166980e+001 1.841904e+001 -1.163996e+001 1.844051e+001 -9.580666e+000 1.144664e+002
4705000000 -7.770625e+000 1.145468e+002 -1.130654e+001 -2.955254e+001 -1.125828e+001 -2.979680e+001 -9.385126e+000 9.353017e+001
4800000000 -8.505759e+000 9.221972e+001 -1.103042e+001 -7.813494e+001 -1.096497e+001 -7.828027e+001 -1.123517e+001 7.047373e+001
4895000000 -1.074354e+001 7.628130e+001 -1.082867e+001 -1.283145e+002 -1.078818e+001 -1.284089e+002 -1.333579e+001 4.977448e+001
4990000000 -1.337120e+001 6.749145e+001 -1.112034e+001 -1.788719e+002 -1.107038e+001 -1.788611e+002 -1.628122e+001 3.751712e+001
5085000000 -1.629845e+001 6.429422e+001 -1.151019e+001 1.328662e+002 -1.147988e+001 1.328779e+002 -1.911519e+001 3.101935e+001
5180000000 -1.949666e+001 8.416661e+001 -1.197113e+001 8.676286e+001 -1.194516e+001 8.637669e+001 -2.447378e+001 3.073925e+001
5275000000 -1.646023e+001 1.075662e+002 -1.208684e+001 4.046943e+001 -1.210276e+001 4.019621e+001 -2.382410e+001 6.275481e+001
5370000000 -1.315328e+001 9.358499e+001 -1.241968e+001 -5.315854e+000 -1.245764e+001 -5.742728e+000 -1.876330e+001 5.230405e+001
5465000000 -1.267609e+001 7.071763e+001 -1.249239e+001 -4.925549e+001 -1.251101e+001 -4.971505e+001 -1.744942e+001 1.905352e+001
5560000000 -1.461027e+001 5.046042e+001 -1.220878e+001 -9.524462e+001 -1.222085e+001 -9.552258e+001 -1.904953e+001 -1.645530e+001
5655000000 -1.801480e+001 5.351027e+001 -1.178366e+001 -1.451287e+002 -1.180299e+001 -1.450331e+002 -2.560699e+001 -5.175381e+001
5750000000 -1.572860e+001 6.156334e+001 -1.210785e+001 1.634794e+002 -1.206176e+001 1.635189e+002 -2.614831e+001 4.072998e+001
5845000000 -1.433258e+001 3.739659e+001 -1.320693e+001 1.141234e+002 -1.317168e+001 1.138113e+002 -1.850466e+001 1.308911e+000
5940000000 -1.538029e+001 4.009023e+000 -1.402832e+001 7.177980e+001 -1.406596e+001 7.157168e+001 -1.599119e+001 -3.394999e+001
6035000000 -1.843653e+001 -3.097083e+001 -1.454622e+001 3.082677e+001 -1.456429e+001 3.029397e+001 -1.475375e+001 -6.867436e+001
6130000000 -2.086857e+001 -9.050896e+001 -1.420259e+001 -7.484584e+000 -1.426305e+001 -7.732521e+000 -1.510247e+001 -1.085315e+002
6225000000 -2.018107e+001 -1.759761e+002 -1.345128e+001 -5.135240e+001 -1.351749e+001 -5.147017e+001 -1.742471e+001 -1.457283e+002
6320000000 -1.828754e+001 1.132893e+002 -1.273440e+001 -9.848734e+001 -1.266305e+001 -9.838882e+001 -2.726431e+001 -1.798448e+002
6415000000 -2.081653e+001 5.334674e+001 -1.224969e+001 -1.482590e+002 -1.223646e+001 -1.482398e+002 -2.989018e+001 -6.918984e+001
6510000000 -3.220565e+001 -3.665697e+001 -1.239296e+001 1.627292e+002 -1.242199e+001 1.630680e+002 -1.911702e+001 -8.729711e+001
6605000000 -2.456623e+001 1.681963e+002 -1.240260e+001 1.163435e+002 -1.245342e+001 1.163223e+002 -1.692095e+001 -1.140953e+002
6700000000 -1.980277e+001 1.261868e+002 -1.233673e+001 6.967027e+001 -1.239111e+001 6.933270e+001 -1.720388e+001 -1.409834e+002
6795000000 -1.909370e+001 8.452629e+001 -1.236770e+001 2.326358e+001 -1.243619e+001 2.281618e+001 -1.945050e+001 -1.524382e+002
6890000000 -2.170572e+001 3.977783e+001 -1.239506e+001 -2.396564e+001 -1.237158e+001 -2.393793e+001 -2.030005e+001 -1.326878e+002
6985000000 -2.643675e+001 -4.146221e+001 -1.230874e+001 -7.063073e+001 -1.228687e+001 -7.059038e+001 -1.601776e+001 -1.352952e+002
7080000000 -2.248043e+001 -1.297729e+002 -1.214036e+001 -1.186572e+002 -1.213552e+001 -1.188068e+002 -1.330129e+001 -1.490802e+002
7175000000 -1.824809e+001 -1.730534e+002 -1.217010e+001 -1.663654e+002 -1.224568e+001 -1.663365e+002 -1.270272e+001 -1.732337e+002
7270000000 -1.600446e+001 1.645556e+002 -1.234802e+001 1.465698e+002 -1.236017e+001 1.466096e+002 -1.236196e+001 1.722061e+002
7365000000 -1.473075e+001 1.454223e+002 -1.253813e+001 1.006923e+002 -1.253002e+001 1.000883e+002 -1.279601e+001 1.580071e+002
7460000000 -1.421938e+001 1.307417e+002 -1.260915e+001 5.449545e+001 -1.256479e+001 5.396509e+001 -1.235382e+001 1.497743e+002
7555000000 -1.366930e+001 1.210395e+002 -1.246135e+001 8.612708e+000 -1.239920e+001 8.698731e+000 -1.250866e+001 1.378857e+002
7650000000 -1.328807e+001 1.084403e+002 -1.222413e+001 -3.826542e+001 -1.219542e+001 -3.782231e+001 -1.183596e+001 1.279763e+002
7745000000 -1.315686e+001 9.538956e+001 -1.195649e+001 -8.579397e+001 -1.200103e+001 -8.594669e+001 -1.230887e+001 1.152204e+002
7840000000 -1.461733e+001 8.411919e+001 -1.192540e+001 -1.338707e+002 -1.198240e+001 -1.339958e+002 -1.262109e+001 1.092526e+002
7935000000 -1.631168e+001 8.633067e+001 -1.203331e+001 1.792158e+002 -1.199441e+001 1.787040e+002 -1.262205e+001 1.043132e+002
8030000000 -1.559647e+001 9.274665e+001 -1.194368e+001 1.305795e+002 -1.188916e+001 1.302783e+002 -1.209960e+001 9.575886e+001
8125000000 -1.424038e+001 8.459733e+001 -1.198630e+001 8.123131e+001 -1.193451e+001 8.144838e+001 -1.181541e+001 8.369225e+001
8220000000 -1.547812e+001 7.546529e+001 -1.208822e+001 3.177229e+001 -1.213351e+001 3.227154e+001 -1.242905e+001 7.791479e+001
8315000000 -1.637004e+001 8.604362e+001 -1.251943e+001 -1.658993e+001 -1.261148e+001 -1.631847e+001 -1.305440e+001 7.092728e+001
8410000000 -1.376494e+001 9.096329e+001 -1.306520e+001 -6.340745e+001 -1.305234e+001 -6.290491e+001 -1.211548e+001 6.689691e+001
8505000000 -1.183469e+001 7.590573e+001 -1.331850e+001 -1.079672e+002 -1.339416e+001 -1.073618e+002 -1.117596e+001 5.941719e+001
8600000000 -1.176789e+001 5.652563e+001 -1.312671e+001 -1.519014e+002 -1.322945e+001 -1.520851e+002 -1.015333e+001 4.065182e+001
8695000000 -1.416672e+001 4.639537e+001 -1.298307e+001 1.607167e+002 -1.304714e+001 1.601950e+002 -1.123497e+001 2.540051e+001
8790000000 -1.487698e+001 5.151943e+001 -1.285007e+001 1.113896e+002 -1.279216e+001 1.113373e+002 -1.153997e+001 1.295197e+001
8885000000 -1.323539e+001 4.565988e+001 -1.297469e+001 5.923779e+001 -1.292689e+001 5.998579e+001 -1.191683e+001 3.787899e+000
8980000000 -1.454223e+001 2.483711e+001 -1.370222e+001 9.366515e+000 -1.376440e+001 9.816688e+000 -1.079478e+001 -1.091803e+001
9075000000 -1.882129e+001 4.468791e+000 -1.447132e+001 -3.472134e+001 -1.459076e+001 -3.444906e+001 -1.229277e+001 -3.539395e+001
9170000000 -2.294458e+001 6.803452e+001 -1.452431e+001 -7.654009e+001 -1.465910e+001 -7.665638e+001 -1.423793e+001 -5.646445e+001
9265000000 -1.624158e+001 5.793693e+001 -1.391011e+001 -1.240177e+002 -1.390158e+001 -1.248981e+002 -1.770844e+001 -3.998628e+001
9360000000 -1.706220e+001 2.028647e+001 -1.421938e+001 -1.775374e+002 -1.411590e+001 -1.781807e+002 -1.411169e+001 -5.062340e+001
9455000000 -3.149785e+001 2.393325e+000 -1.494485e+001 1.315736e+002 -1.502925e+001 1.319467e+002 -1.359222e+001 -7.305809e+001
9550000000 -1.982143e+001 1.166542e+002 -1.591482e+001 8.627831e+001 -1.600942e+001 8.553681e+001 -1.414883e+001 -1.077649e+002
9645000000 -1.487853e+001 8.344849e+001 -1.623538e+001 4.457165e+001 -1.616616e+001 4.471489e+001 -1.801606e+001 -1.200855e+002
9740000000 -1.542822e+001 5.398565e+001 -1.593898e+001 -4.002747e+000 -1.585409e+001 -5.033401e+000 -2.027682e+001 -1.046996e+002
9835000000 -2.356008e+001 5.510654e+001 -1.663987e+001 -5.887934e+001 -1.648581e+001 -5.936480e+001 -1.473796e+001 -1.077081e+002
9930000000 -1.754549e+001 1.132574e+002 -1.832449e+001 -1.062921e+002 -1.818946e+001 -1.057994e+002 -1.311224e+001 -1.410286e+002
10025000000 -1.256452e+001 1.020366e+002 -1.913352e+001 -1.473746e+002 -1.907430e+001 -1.460603e+002 -1.353018e+001 -1.633701e+002
10120000000 -1.092220e+001 8.755164e+001 -1.869549e+001 1.669661e+002 -1.882390e+001 1.671912e+002 -1.471751e+001 1.765509e+002
10215000000 -9.597192e+000 8.379192e+001 -1.931519e+001 1.172011e+002 -1.940983e+001 1.158816e+002 -1.675857e+001 1.685039e+002
10310000000 -7.169619e+000 7.452495e+001 -2.155021e+001 6.973008e+001 -2.164085e+001 6.908397e+001 -1.642838e+001 1.578087e+002
10405000000 -5.904919e+000 5.704648e+001 -2.345807e+001 3.511578e+001 -2.307054e+001 3.462074e+001 -1.934953e+001 1.415561e+002
10500000000 -5.689728e+000 4.339963e+001 -2.280041e+001 -3.302326e+000 -2.254487e+001 -3.547590e+000 -2.148288e+001 1.307978e+002
10595000000 -5.123905e+000 3.526348e+001 -2.338119e+001 -6.095507e+001 -2.205664e+001 -5.773669e+001 -2.684840e+001 1.688602e+002
10690000000 -3.827980e+000 2.391125e+001 -2.403721e+001 -1.109950e+002 -2.452295e+001 -1.104764e+002 -1.917569e+001 -1.516475e+002
10785000000 -2.979348e+000 3.347768e+000 -3.385903e+001 -1.500439e+002 -3.016063e+001 -1.440485e+002 -1.428695e+001 -1.751745e+002
10880000000 -3.207510e+000 -2.066928e+001 -2.903924e+001 -1.371516e+002 -3.023741e+001 -1.326703e+002 -1.580966e+001 1.561432e+002
10975000000 -4.773039e+000 -4.056312e+001 -2.420881e+001 -1.541692e+002 -2.465701e+001 -1.652865e+002 -1.615254e+001 1.590608e+002
11070000000 -6.305079e+000 -5.691629e+001 -2.200357e+001 1.387812e+002 -2.142197e+001 1.409010e+002 -1.488362e+001 1.682248e+002
11165000000 -8.353013e+000 -7.871704e+001 -1.991886e+001 8.842868e+001 -2.057134e+001 8.510405e+001 -1.231947e+001 1.582324e+002
11260000000 -1.310013e+001 -1.038578e+002 -2.145496e+001 3.498445e+001 -2.073054e+001 2.977536e+001 -1.097863e+001 1.372453e+002
11355000000 -2.211666e+001 -1.095977e+002 -2.024862e+001 -8.183502e+000 -2.083439e+001 -9.763062e+000 -1.030777e+001 1.135859e+002
11450000000 -2.849211e+001 -5.183842e+001 -1.967623e+001 -6.141119e+001 -1.981815e+001 -5.400011e+001 -1.123502e+001 1.116767e+002
11545000000 -3.190352e+001 3.832593e+000 -1.958422e+001 -1.040837e+002 -1.908627e+001 -1.039694e+002 -1.073677e+001 9.705592e+001
11640000000 -2.131571e+001 4.204393e+001 -2.020924e+001 -1.518732e+002 -1.875973e+001 -1.521405e+002 -1.081603e+001 9.891652e+001
11735000000 -1.528159e+001 2.731436e+001 -1.911929e+001 1.613795e+002 -1.848672e+001 1.575049e+002 -1.192451e+001 8.384460e+001
11830000000 -1.403076e+001 7.496570e+000 -2.000999e+001 1.040961e+002 -1.890637e+001 1.046476e+002 -1.159324e+001 7.139642e+001
11925000000 -1.390846e+001 -2.271492e+000 -2.045864e+001 5.777424e+001 -1.976982e+001 6.036176e+001 -1.203469e+001 6.989857e+001
12020000000 -1.385630e+001 -9.408372e+000 -1.922648e+001 1.904733e+001 -1.986288e+001 1.371924e+001 -1.158452e+001 5.139803e+001
12115000000 -1.433009e+001 -1.768644e+001 -1.966098e+001 -2.078609e+001 -1.983068e+001 -2.669202e+001 -1.129427e+001 4.366399e+001
12210000000 -1.590710e+001 -1.749144e+001 -1.982812e+001 -7.819864e+001 -1.911142e+001 -7.561493e+001 -1.270729e+001 4.180013e+001
12305000000 -1.654117e+001 -6.795377e-002 -1.945707e+001 -1.348035e+002 -1.916461e+001 -1.256516e+002 -1.108334e+001 3.812360e+001
12400000000 -1.327961e+001 8.489309e+000 -1.866334e+001 -1.760728e+002 -1.917080e+001 -1.783468e+002 -1.041138e+001 3.315062e+001
12495000000 -1.061386e+001 -3.183113e+000 -1.952011e+001 1.419401e+002 -1.990705e+001 1.339877e+002 -8.982234e+000 1.783924e+001
12590000000 -1.007167e+001 -1.824148e+001 -2.064107e+001 9.416191e+001 -2.030014e+001 8.545592e+001 -8.650439e+000 4.657989e+000
12685000000 -1.084203e+001 -2.557122e+001 -2.246591e+001 4.749061e+001 -2.193070e+001 4.511708e+001 -1.111122e+001 3.449895e+000
12780000000 -1.039785e+001 -2.471904e+001 -2.310305e+001 1.087393e+001 -2.259292e+001 6.657172e-001 -1.022314e+001 -7.412196e+000
12875000000 -8.583619e+000 -3.242769e+001 -2.185589e+001 -3.065823e+001 -2.224867e+001 -3.544878e+001 -8.816339e+000 -1.589269e+001
12970000000 -7.823225e+000 -4.532479e+001 -2.127430e+001 -7.374871e+001 -2.146811e+001 -8.076576e+001 -7.483160e+000 -2.301084e+001
13065000000 -8.254665e+000 -6.186043e+001 -2.018760e+001 -1.305241e+002 -2.137863e+001 -1.336653e+002 -9.740909e+000 -3.626112e+001
13160000000 -9.424339e+000 -6.715033e+001 -2.215895e+001 -1.781816e+002 -2.295021e+001 1.724019e+002 -9.645449e+000 -4.260926e+001
13255000000 -9.507504e+000 -7.190331e+001 -2.410327e+001 1.434918e+002 -2.591403e+001 1.467026e+002 -9.971795e+000 -4.337082e+001
13350000000 -8.531822e+000 -8.071078e+001 -2.336716e+001 1.198366e+002 -2.434783e+001 1.192109e+002 -8.502735e+000 -6.074824e+001
13445000000 -8.285823e+000 -9.545961e+001 -2.071905e+001 7.478248e+001 -2.158123e+001 7.288757e+001 -7.566581e+000 -6.826097e+001
13540000000 -9.316313e+000 -1.154024e+002 -1.982484e+001 1.923719e+001 -2.041848e+001 2.008927e+001 -8.660243e+000 -7.250931e+001
13635000000 -1.126223e+001 -1.279014e+002 -2.073782e+001 -2.877318e+001 -2.131055e+001 -2.772497e+001 -1.081745e+001 -8.607371e+001
13730000000 -1.418767e+001 -1.324617e+002 -2.082503e+001 -7.691942e+001 -2.117032e+001 -6.989341e+001 -8.774836e+000 -1.034606e+002
13825000000 -1.611331e+001 -1.332754e+002 -2.046532e+001 -1.152635e+002 -2.057851e+001 -1.118452e+002 -8.978850e+000 -1.057291e+002
13920000000 -1.537699e+001 -1.305460e+002 -1.904362e+001 -1.624244e+002 -1.913946e+001 -1.604397e+002 -1.054058e+001 -1.127764e+002
14015000000 -1.705694e+001 -1.399306e+002 -1.826489e+001 1.443424e+002 -1.818691e+001 1.479411e+002 -1.277808e+001 -1.341188e+002
14110000000 -1.912745e+001 -1.415871e+002 -1.814072e+001 8.783443e+001 -1.761635e+001 9.377200e+001 -1.246714e+001 -1.345539e+002
14205000000 -1.748272e+001 -1.290834e+002 -1.878878e+001 3.719140e+001 -1.790736e+001 4.086662e+001 -1.317199e+001 -1.403462e+002
14300000000 -1.548862e+001 -1.465237e+002 -1.924519e+001 -1.180797e+001 -1.829124e+001 -9.607455e+000 -1.345748e+001 -1.573760e+002
14395000000 -1.557876e+001 -1.722549e+002 -1.976564e+001 -6.528658e+001 -1.842827e+001 -6.398749e+001 -1.531264e+001 -1.672755e+002
14490000000 -1.665203e+001 1.727242e+002 -2.169794e+001 -1.146015e+002 -2.069992e+001 -1.162577e+002 -1.915327e+001 1.735893e+002
14585000000 -1.664773e+001 1.551387e+002 -2.348847e+001 -1.599181e+002 -2.315821e+001 -1.660042e+002 -2.251702e+001 1.196987e+002
14680000000 -1.564203e+001 1.275158e+002 -2.431315e+001 1.667866e+002 -2.443769e+001 1.558474e+002 -2.026251e+001 9.998824e+001
14775000000 -1.669829e+001 8.351273e+001 -2.419324e+001 1.291186e+002 -2.514839e+001 1.199403e+002 -2.444919e+001 5.670493e+001
14870000000 -2.038460e+001 4.082984e+001 -2.521962e+001 9.998949e+001 -2.653485e+001 7.924497e+001 -1.836279e+001 -1.656089e+001
14965000000 -3.089628e+001 2.406399e+001 -2.373742e+001 6.699948e+001 -2.442192e+001 6.514709e+001 -1.735542e+001 -4.258814e+001
15060000000 -2.696207e+001 9.860841e+001 -2.132758e+001 1.784221e+001 -2.223188e+001 1.898853e+001 -1.861188e+001 -5.202822e+001
15155000000 -2.231746e+001 6.534783e+001 -2.028688e+001 -3.351897e+001 -2.096417e+001 -3.264008e+001 -1.784696e+001 -6.877853e+001
15250000000 -2.501079e+001 3.426515e+001 -2.078902e+001 -8.359932e+001 -2.190842e+001 -8.454692e+001 -1.706966e+001 -9.684132e+001
