!Agilent Technologies,N5230A,MY45001629,A.07.50.67
!Agilent N5230A: A.07.50.67
!Date: Monday, June 05, 2017 16:35:16
!Correction: S11(Full 2 Port(1,2)) 
!S21(Full 2 Port(1,2)) 
!S12(Full 2 Port(1,2)) 
!S22(Full 2 Port(1,2)) 
!S2P File: Measurements: S11, S21, S12, S22:
# Hz S  dB   R 50
1000000000 -2.196508e-001 5.256033e+001 -5.301099e+001 -2.218814e+001 -5.126988e+001 -1.964032e+001 -8.686776e-001 4.360883e+001
1095000000 -2.391889e-001 3.635684e+001 -4.369891e+001 -5.576431e+001 -4.305445e+001 -5.466309e+001 -1.106160e+000 2.644260e+001
1190000000 -4.009902e-001 1.798683e+001 -3.424348e+001 -1.043190e+002 -3.413433e+001 -1.062305e+002 -1.561550e+000 7.956906e+000
1285000000 -9.370388e-001 -2.265039e+000 -2.618735e+001 -1.793295e+002 -2.614003e+001 -1.793288e+002 -2.340421e+000 -9.846548e+000
1380000000 -1.468774e+000 -2.449541e+001 -2.104839e+001 1.046689e+002 -2.098148e+001 1.044256e+002 -2.559783e+000 -2.935234e+001
1475000000 -3.004982e+000 -5.650671e+001 -1.519008e+001 3.306320e+001 -1.515748e+001 3.305312e+001 -3.445360e+000 -6.159985e+001
1570000000 -8.994657e+000 -9.757784e+001 -1.067160e+001 -5.318061e+001 -1.067530e+001 -5.326031e+001 -8.670085e+000 -1.020834e+002
1665000000 -2.100321e+001 -3.688081e+001 -9.253298e+000 -1.431633e+002 -9.252337e+000 -1.432690e+002 -1.948616e+001 -8.109943e+001
1760000000 -1.258740e+001 -3.967738e+000 -1.004389e+001 1.397462e+002 -1.005424e+001 1.397291e+002 -1.698933e+001 -1.772582e+001
1855000000 -8.228350e+000 -2.996972e+001 -1.076375e+001 7.979957e+001 -1.077998e+001 7.984424e+001 -1.122147e+001 -3.273555e+001
1950000000 -7.966865e+000 -5.999614e+001 -1.028566e+001 2.358301e+001 -1.026971e+001 2.367676e+001 -9.705788e+000 -5.914269e+001
2045000000 -1.047639e+001 -7.731329e+001 -9.281137e+000 -3.717867e+001 -9.274512e+000 -3.707266e+001 -1.136680e+001 -7.945285e+001
2140000000 -1.147163e+001 -7.553697e+001 -8.715034e+000 -9.755436e+001 -8.689768e+000 -9.751786e+001 -1.230819e+001 -7.428925e+001
2235000000 -9.711631e+000 -8.473841e+001 -8.689662e+000 -1.585232e+002 -8.662413e+000 -1.586604e+002 -1.037399e+001 -8.433094e+001
2330000000 -9.872684e+000 -1.080439e+002 -8.937266e+000 1.467050e+002 -8.921185e+000 1.465039e+002 -9.774203e+000 -1.063671e+002
2425000000 -1.205382e+001 -1.238025e+002 -8.613935e+000 9.092095e+001 -8.611976e+000 9.083900e+001 -1.118548e+001 -1.203172e+002
2520000000 -1.374028e+001 -1.314845e+002 -8.587927e+000 3.606540e+001 -8.595098e+000 3.606796e+001 -1.267987e+001 -1.316353e+002
2615000000 -1.606078e+001 -1.438604e+002 -8.540597e+000 -1.864845e+001 -8.531180e+000 -1.855886e+001 -1.397591e+001 -1.422146e+002
2710000000 -2.205445e+001 -1.245976e+002 -8.837636e+000 -7.316808e+001 -8.835301e+000 -7.310614e+001 -1.843385e+001 -1.318674e+002
2805000000 -1.677413e+001 -8.567809e+001 -9.022635e+000 -1.253670e+002 -9.010371e+000 -1.254007e+002 -1.622795e+001 -1.065403e+002
2900000000 -1.246425e+001 -1.057332e+002 -9.378070e+000 -1.751599e+002 -9.379727e+000 -1.751053e+002 -1.168953e+001 -1.139688e+002
2995000000 -1.176624e+001 -1.292772e+002 -9.162418e+000 1.370806e+002 -9.131709e+000 1.369678e+002 -1.093892e+001 -1.363851e+002
3090000000 -1.390724e+001 -1.431715e+002 -8.631926e+000 8.633122e+001 -8.616418e+000 8.625681e+001 -1.269932e+001 -1.524283e+002
3185000000 -1.543331e+001 -1.251048e+002 -8.316984e+000 3.324041e+001 -8.325520e+000 3.309422e+001 -1.508256e+001 -1.357594e+002
3280000000 -1.111758e+001 -1.205495e+002 -8.422049e+000 -2.023363e+001 -8.421997e+000 -1.996791e+001 -1.060531e+001 -1.317980e+002
3375000000 -8.642112e+000 -1.425039e+002 -8.781125e+000 -7.084632e+001 -8.826868e+000 -7.080261e+001 -8.407290e+000 -1.489085e+002
3470000000 -8.388474e+000 -1.632034e+002 -8.905149e+000 -1.188052e+002 -8.933981e+000 -1.187619e+002 -8.204986e+000 -1.710782e+002
3565000000 -8.935196e+000 -1.792193e+002 -8.811712e+000 -1.681689e+002 -8.825085e+000 -1.680871e+002 -8.655815e+000 1.747265e+002
3660000000 -9.907139e+000 1.683481e+002 -8.572439e+000 1.432041e+002 -8.596984e+000 1.433064e+002 -9.441941e+000 1.644094e+002
3755000000 -1.076051e+001 1.587728e+002 -8.274981e+000 9.287587e+001 -8.279732e+000 9.287901e+001 -9.949991e+000 1.513001e+002
3850000000 -1.255176e+001 1.529883e+002 -8.116882e+000 4.088496e+001 -8.116136e+000 4.085374e+001 -1.211283e+001 1.411222e+002
3945000000 -1.356262e+001 1.570874e+002 -8.157285e+000 -1.114605e+001 -8.167021e+000 -1.101406e+001 -1.362915e+001 1.437920e+002
4040000000 -1.263819e+001 1.556392e+002 -8.415418e+000 -6.193369e+001 -8.394629e+000 -6.219708e+001 -1.270822e+001 1.424576e+002
4135000000 -1.360121e+001 1.452472e+002 -8.533937e+000 -1.145544e+002 -8.531315e+000 -1.146786e+002 -1.390615e+001 1.252326e+002
4230000000 -1.566833e+001 1.594463e+002 -9.406803e+000 -1.686497e+002 -9.426408e+000 -1.685628e+002 -1.906904e+001 1.375077e+002
4325000000 -1.228859e+001 1.664397e+002 -1.076331e+001 1.442278e+002 -1.080969e+001 1.442808e+002 -1.439753e+001 1.635012e+002
4420000000 -1.037376e+001 1.552313e+002 -1.159235e+001 1.029438e+002 -1.160890e+001 1.030373e+002 -1.198039e+001 1.489917e+002
4515000000 -9.303394e+000 1.441649e+002 -1.141988e+001 6.120575e+001 -1.140889e+001 6.146719e+001 -1.077955e+001 1.346944e+002
4610000000 -8.177149e+000 1.298942e+002 -1.085968e+001 1.554133e+001 -1.084632e+001 1.577409e+001 -1.030400e+001 1.159233e+002
4705000000 -8.056095e+000 1.106253e+002 -1.054216e+001 -3.267616e+001 -1.050676e+001 -3.288823e+001 -9.807208e+000 9.744904e+001
4800000000 -9.060358e+000 8.973710e+001 -1.037592e+001 -8.191428e+001 -1.034542e+001 -8.192144e+001 -1.116508e+001 7.593161e+001
4895000000 -1.157827e+001 7.617915e+001 -1.021192e+001 -1.324295e+002 -1.022276e+001 -1.322994e+002 -1.279638e+001 5.381461e+001
4990000000 -1.429373e+001 7.248029e+001 -1.052806e+001 1.768623e+002 -1.054042e+001 1.772228e+002 -1.512301e+001 3.847546e+001
5085000000 -1.625848e+001 7.672155e+001 -1.102490e+001 1.282599e+002 -1.104162e+001 1.284822e+002 -1.814362e+001 2.420948e+001
5180000000 -1.689002e+001 8.707831e+001 -1.153314e+001 8.175293e+001 -1.155376e+001 8.170808e+001 -2.393794e+001 1.532828e+001
5275000000 -1.573745e+001 9.587675e+001 -1.180017e+001 3.540672e+001 -1.175874e+001 3.501709e+001 -2.646353e+001 5.424463e+001
5370000000 -1.361648e+001 8.578249e+001 -1.226229e+001 -1.086908e+001 -1.225507e+001 -1.128434e+001 -2.077148e+001 5.498531e+001
5465000000 -1.351879e+001 6.632632e+001 -1.250075e+001 -5.459343e+001 -1.245693e+001 -5.492783e+001 -1.836473e+001 2.504470e+001
5560000000 -1.582771e+001 5.001043e+001 -1.231307e+001 -9.999461e+001 -1.223850e+001 -9.999185e+001 -1.927050e+001 -8.016559e+000
5655000000 -1.891576e+001 6.164360e+001 -1.180063e+001 -1.488485e+002 -1.184296e+001 -1.490875e+002 -2.493147e+001 -4.046858e+001
5750000000 -1.544934e+001 6.781071e+001 -1.215967e+001 1.590513e+002 -1.213938e+001 1.594575e+002 -2.490670e+001 2.901345e+001
5845000000 -1.386949e+001 4.193061e+001 -1.323081e+001 1.098153e+002 -1.321440e+001 1.100167e+002 -1.790361e+001 -3.514681e+000
5940000000 -1.461086e+001 8.207400e+000 -1.416464e+001 6.783759e+001 -1.410673e+001 6.770645e+001 -1.560108e+001 -3.793509e+001
6035000000 -1.726066e+001 -2.807116e+001 -1.469858e+001 2.674815e+001 -1.462361e+001 2.640773e+001 -1.444913e+001 -7.049467e+001
6130000000 -1.951052e+001 -8.506293e+001 -1.453036e+001 -1.096918e+001 -1.446233e+001 -1.164015e+001 -1.482372e+001 -1.111748e+002
6225000000 -1.942861e+001 -1.684642e+002 -1.377271e+001 -5.428994e+001 -1.376989e+001 -5.470557e+001 -1.730143e+001 -1.503983e+002
6320000000 -1.814319e+001 1.188630e+002 -1.288131e+001 -1.010944e+002 -1.290380e+001 -1.013093e+002 -2.817370e+001 1.598858e+002
6415000000 -2.092791e+001 6.106818e+001 -1.254060e+001 -1.508693e+002 -1.248834e+001 -1.509736e+002 -2.767969e+001 -4.024178e+001
6510000000 -3.536102e+001 -1.385569e+001 -1.275399e+001 1.604063e+002 -1.268693e+001 1.602946e+002 -1.793851e+001 -7.767164e+001
6605000000 -2.501424e+001 1.580120e+002 -1.276463e+001 1.139324e+002 -1.273759e+001 1.140392e+002 -1.575255e+001 -1.116936e+002
6700000000 -2.003920e+001 1.211654e+002 -1.269615e+001 6.714599e+001 -1.269132e+001 6.773298e+001 -1.614461e+001 -1.417328e+002
6795000000 -1.917972e+001 8.045846e+001 -1.259794e+001 2.106869e+001 -1.266171e+001 2.110344e+001 -1.921604e+001 -1.579950e+002
6890000000 -2.170410e+001 3.353170e+001 -1.251282e+001 -2.538057e+001 -1.259190e+001 -2.549695e+001 -2.121257e+001 -1.373869e+002
6985000000 -2.528578e+001 -4.894087e+001 -1.250439e+001 -7.209126e+001 -1.247677e+001 -7.226858e+001 -1.669173e+001 -1.326927e+002
7080000000 -2.129593e+001 -1.305523e+002 -1.245754e+001 -1.202289e+002 -1.236601e+001 -1.204453e+002 -1.366042e+001 -1.462806e+002
7175000000 -1.740683e+001 -1.745352e+002 -1.256321e+001 -1.683548e+002 -1.249269e+001 -1.680185e+002 -1.272373e+001 -1.700205e+002
7270000000 -1.540913e+001 1.607005e+002 -1.272359e+001 1.448782e+002 -1.272190e+001 1.452773e+002 -1.240839e+001 1.741863e+002
7365000000 -1.468285e+001 1.405119e+002 -1.275878e+001 9.940048e+001 -1.287384e+001 9.952447e+001 -1.250291e+001 1.584172e+002
7460000000 -1.465156e+001 1.268940e+002 -1.279602e+001 5.404643e+001 -1.286130e+001 5.396457e+001 -1.232779e+001 1.490851e+002
7555000000 -1.437095e+001 1.207954e+002 -1.261445e+001 8.504251e+000 -1.255831e+001 8.457495e+000 -1.243490e+001 1.363026e+002
7650000000 -1.364187e+001 1.107106e+002 -1.243209e+001 -3.807380e+001 -1.234716e+001 -3.842278e+001 -1.182887e+001 1.275506e+002
7745000000 -1.329961e+001 9.749525e+001 -1.217163e+001 -8.711083e+001 -1.217894e+001 -8.697427e+001 -1.235570e+001 1.125922e+002
7840000000 -1.453759e+001 8.623410e+001 -1.215046e+001 -1.356999e+002 -1.220071e+001 -1.347031e+002 -1.253001e+001 1.078978e+002
7935000000 -1.601332e+001 8.825330e+001 -1.218454e+001 1.782238e+002 -1.219620e+001 1.778258e+002 -1.297646e+001 1.022844e+002
8030000000 -1.512813e+001 9.244540e+001 -1.216664e+001 1.304145e+002 -1.211658e+001 1.298328e+002 -1.223638e+001 9.622646e+001
8125000000 -1.391470e+001 8.246156e+001 -1.212889e+001 8.098086e+001 -1.215167e+001 8.085709e+001 -1.185332e+001 8.582756e+001
8220000000 -1.546982e+001 7.128411e+001 -1.237337e+001 3.075057e+001 -1.232988e+001 3.117048e+001 -1.204637e+001 7.759945e+001
8315000000 -1.691972e+001 8.477454e+001 -1.280844e+001 -1.775411e+001 -1.281946e+001 -1.692421e+001 -1.250974e+001 7.074229e+001
8410000000 -1.406472e+001 9.238306e+001 -1.344430e+001 -6.337103e+001 -1.335537e+001 -6.308659e+001 -1.174304e+001 6.656275e+001
8505000000 -1.194841e+001 7.748637e+001 -1.361282e+001 -1.077663e+002 -1.363575e+001 -1.074814e+002 -1.107310e+001 5.742292e+001
8600000000 -1.182357e+001 5.825880e+001 -1.334362e+001 -1.529541e+002 -1.338825e+001 -1.521982e+002 -1.002648e+001 3.902553e+001
8695000000 -1.396879e+001 4.895248e+001 -1.326950e+001 1.601882e+002 -1.325057e+001 1.600180e+002 -1.132080e+001 2.610460e+001
8790000000 -1.433535e+001 5.181923e+001 -1.309515e+001 1.116749e+002 -1.304055e+001 1.113210e+002 -1.160016e+001 1.336337e+001
8885000000 -1.283881e+001 4.361408e+001 -1.328466e+001 6.031913e+001 -1.318655e+001 6.019434e+001 -1.175202e+001 6.461355e+000
8980000000 -1.450074e+001 2.040750e+001 -1.408470e+001 9.865151e+000 -1.404881e+001 1.060222e+001 -1.086348e+001 -8.881500e+000
9075000000 -1.944853e+001 -1.584447e+000 -1.473169e+001 -3.400163e+001 -1.478397e+001 -3.326091e+001 -1.213611e+001 -3.424089e+001
9170000000 -2.308144e+001 7.663394e+001 -1.463900e+001 -7.593164e+001 -1.470824e+001 -7.573613e+001 -1.448364e+001 -5.440384e+001
9265000000 -1.604230e+001 5.996484e+001 -1.398181e+001 -1.234512e+002 -1.401124e+001 -1.243608e+002 -1.771725e+001 -3.685939e+001
9360000000 -1.690036e+001 2.203514e+001 -1.426127e+001 -1.769070e+002 -1.420980e+001 -1.775051e+002 -1.391317e+001 -4.974758e+001
9455000000 -3.034827e+001 9.887568e+000 -1.518849e+001 1.317223e+002 -1.517005e+001 1.321513e+002 -1.374592e+001 -7.508158e+001
9550000000 -1.983229e+001 1.153482e+002 -1.607132e+001 8.575412e+001 -1.621399e+001 8.562024e+001 -1.423747e+001 -1.086248e+002
9645000000 -1.471463e+001 8.293658e+001 -1.638059e+001 4.506844e+001 -1.648418e+001 4.482200e+001 -1.961311e+001 -1.252295e+002
9740000000 -1.543354e+001 5.204980e+001 -1.609097e+001 -2.513030e+000 -1.617972e+001 -3.882328e+000 -2.072929e+001 -1.015910e+002
9835000000 -2.442779e+001 5.517558e+001 -1.684299e+001 -5.654155e+001 -1.674618e+001 -5.744760e+001 -1.482386e+001 -1.042024e+002
9930000000 -1.714686e+001 1.162932e+002 -1.851898e+001 -1.028406e+002 -1.834897e+001 -1.027787e+002 -1.308124e+001 -1.405107e+002
10025000000 -1.228107e+001 1.016843e+002 -1.929836e+001 -1.438583e+002 -1.910832e+001 -1.442070e+002 -1.324986e+001 -1.636617e+002
10120000000 -1.091454e+001 8.686273e+001 -1.878426e+001 1.674289e+002 -1.878755e+001 1.693391e+002 -1.444592e+001 1.742812e+002
10215000000 -9.659909e+000 8.357934e+001 -1.927872e+001 1.175478e+002 -1.947565e+001 1.171561e+002 -1.630332e+001 1.665446e+002
10310000000 -7.196619e+000 7.442230e+001 -2.158110e+001 7.091258e+001 -2.160973e+001 6.996897e+001 -1.615560e+001 1.557596e+002
10405000000 -5.944322e+000 5.693482e+001 -2.327224e+001 3.820982e+001 -2.318978e+001 3.543121e+001 -1.844771e+001 1.373278e+002
10500000000 -5.720169e+000 4.328406e+001 -2.279338e+001 -1.621485e+000 -2.259430e+001 -2.063327e+000 -2.101269e+001 1.282705e+002
10595000000 -5.219265e+000 3.569037e+001 -2.247815e+001 -5.325087e+001 -2.202422e+001 -5.409666e+001 -2.991643e+001 1.742999e+002
10690000000 -3.884144e+000 2.422485e+001 -2.367598e+001 -1.124323e+002 -2.407218e+001 -1.122034e+002 -1.822623e+001 -1.571454e+002
10785000000 -3.011581e+000 4.411140e+000 -3.077674e+001 -1.239294e+002 -3.108619e+001 -1.478178e+002 -1.419769e+001 -1.780838e+002
10880000000 -3.206439e+000 -2.014959e+001 -3.063377e+001 -1.387065e+002 -3.051838e+001 -1.275205e+002 -1.569588e+001 1.571803e+002
10975000000 -4.707523e+000 -3.984273e+001 -2.317913e+001 -1.586020e+002 -2.459258e+001 -1.639608e+002 -1.589970e+001 1.587561e+002
11070000000 -6.262687e+000 -5.649878e+001 -2.153837e+001 1.398912e+002 -2.101287e+001 1.440913e+002 -1.480419e+001 1.625703e+002
11165000000 -8.235232e+000 -7.846985e+001 -1.919684e+001 8.271373e+001 -2.020888e+001 8.308990e+001 -1.154967e+001 1.573031e+002
11260000000 -1.294345e+001 -1.043493e+002 -2.109102e+001 3.681512e+001 -2.061805e+001 3.187220e+001 -1.030260e+001 1.381909e+002
11355000000 -2.179867e+001 -1.098698e+002 -2.047352e+001 -1.504406e+001 -2.036074e+001 -1.119218e+001 -1.054259e+001 1.145904e+002
11450000000 -2.814999e+001 -5.284311e+001 -2.046075e+001 -5.543847e+001 -1.977370e+001 -5.386709e+001 -1.095572e+001 1.124112e+002
11545000000 -3.311623e+001 8.391407e+000 -1.960389e+001 -1.020635e+002 -1.898457e+001 -1.019205e+002 -1.112895e+001 9.678432e+001
11640000000 -2.064904e+001 4.356179e+001 -1.874849e+001 -1.477112e+002 -1.858325e+001 -1.538856e+002 -1.049923e+001 1.021210e+002
11735000000 -1.534222e+001 2.664762e+001 -1.859035e+001 1.601329e+002 -1.830263e+001 1.588092e+002 -1.114833e+001 8.826381e+001
11830000000 -1.414944e+001 7.021498e+000 -1.910399e+001 1.135009e+002 -1.900506e+001 1.043255e+002 -1.147858e+001 7.254877e+001
11925000000 -1.380237e+001 -7.742127e-001 -2.011453e+001 5.777217e+001 -1.968834e+001 5.953395e+001 -1.134828e+001 6.838100e+001
12020000000 -1.373800e+001 -9.655925e+000 -2.005623e+001 1.080048e+001 -1.974518e+001 1.608919e+001 -1.146642e+001 5.308521e+001
12115000000 -1.429238e+001 -1.785803e+001 -1.905585e+001 -2.380038e+001 -1.934909e+001 -2.434090e+001 -1.111592e+001 4.390578e+001
12210000000 -1.584895e+001 -1.834657e+001 -1.912325e+001 -6.702870e+001 -1.879818e+001 -7.526534e+001 -1.311306e+001 4.794009e+001
12305000000 -1.657424e+001 1.906635e+000 -1.937749e+001 -1.243419e+002 -1.864677e+001 -1.242693e+002 -1.104831e+001 3.957830e+001
12400000000 -1.304119e+001 8.394239e+000 -1.885824e+001 1.783123e+002 -1.894637e+001 -1.744908e+002 -1.069776e+001 3.297698e+001
12495000000 -1.054156e+001 -3.618898e+000 -1.877831e+001 1.369352e+002 -1.945711e+001 1.371188e+002 -9.267070e+000 1.999171e+001
12590000000 -9.854164e+000 -1.935195e+001 -1.981256e+001 8.419691e+001 -2.026526e+001 8.510545e+001 -8.547642e+000 1.058738e+000
12685000000 -1.082487e+001 -2.601523e+001 -2.128362e+001 3.660400e+001 -2.112379e+001 4.431891e+001 -1.092285e+001 3.458631e+000
12780000000 -1.040757e+001 -2.434624e+001 -2.226780e+001 2.123311e+000 -2.250299e+001 4.179337e+000 -1.093151e+001 -5.996592e+000
12875000000 -8.726583e+000 -3.183002e+001 -2.175326e+001 -4.024791e+001 -2.175670e+001 -3.549331e+001 -8.791383e+000 -1.871791e+001
12970000000 -7.961605e+000 -4.499834e+001 -2.159719e+001 -8.287656e+001 -2.114954e+001 -7.727533e+001 -7.743882e+000 -2.420216e+001
13065000000 -8.386832e+000 -6.210509e+001 -2.072216e+001 -1.374781e+002 -2.110282e+001 -1.322339e+002 -9.555346e+000 -3.767633e+001
13160000000 -9.276087e+000 -6.721552e+001 -2.344731e+001 1.678528e+002 -2.305318e+001 1.770499e+002 -9.546857e+000 -4.492310e+001
13255000000 -9.510724e+000 -7.131831e+001 -2.594384e+001 1.378857e+002 -2.448608e+001 1.447974e+002 -9.495584e+000 -4.626201e+001
13350000000 -8.485584e+000 -8.002155e+001 -2.554721e+001 1.121021e+002 -2.333421e+001 1.157862e+002 -8.492546e+000 -6.216925e+001
13445000000 -8.133775e+000 -9.423273e+001 -2.241821e+001 7.460744e+001 -2.131709e+001 7.254917e+001 -7.423365e+000 -6.967173e+001
13540000000 -9.228136e+000 -1.159732e+002 -2.111790e+001 2.012949e+001 -2.048915e+001 1.890088e+001 -8.211020e+000 -7.544620e+001
13635000000 -1.114719e+001 -1.300192e+002 -2.223999e+001 -2.057830e+001 -2.090524e+001 -2.752164e+001 -9.995873e+000 -8.740947e+001
13730000000 -1.395369e+001 -1.332976e+002 -2.124632e+001 -6.013525e+001 -2.070532e+001 -7.014576e+001 -8.852601e+000 -1.044444e+002
13825000000 -1.605170e+001 -1.324788e+002 -2.026360e+001 -1.045424e+002 -1.975852e+001 -1.118868e+002 -8.998243e+000 -1.085433e+002
13920000000 -1.568398e+001 -1.318149e+002 -1.856962e+001 -1.502222e+002 -1.843259e+001 -1.597243e+002 -1.051756e+001 -1.130080e+002
14015000000 -1.708187e+001 -1.406976e+002 -1.867839e+001 1.535591e+002 -1.781299e+001 1.472735e+002 -1.272116e+001 -1.301743e+002
14110000000 -1.907380e+001 -1.388691e+002 -1.836182e+001 1.009676e+002 -1.761129e+001 9.394150e+001 -1.261751e+001 -1.338216e+002
14205000000 -1.710657e+001 -1.280578e+002 -1.864140e+001 4.894278e+001 -1.777664e+001 4.155467e+001 -1.292127e+001 -1.407890e+002
14300000000 -1.515561e+001 -1.478844e+002 -1.841917e+001 -5.388747e+000 -1.827453e+001 -9.550992e+000 -1.259157e+001 -1.554782e+002
14395000000 -1.549147e+001 -1.751578e+002 -1.970339e+001 -5.801431e+001 -1.868521e+001 -6.411715e+001 -1.496589e+001 -1.613387e+002
14490000000 -1.677875e+001 1.709687e+002 -2.093412e+001 -1.096079e+002 -2.001324e+001 -1.202986e+002 -2.083511e+001 1.771811e+002
14585000000 -1.641396e+001 1.535718e+002 -2.203718e+001 -1.481635e+002 -2.226296e+001 -1.621028e+002 -2.296245e+001 1.271154e+002
14680000000 -1.558618e+001 1.253111e+002 -2.360340e+001 1.684374e+002 -2.386156e+001 1.571143e+002 -2.237510e+001 1.064975e+002
14775000000 -1.671013e+001 8.341631e+001 -2.407288e+001 1.308323e+002 -2.471030e+001 1.165036e+002 -2.670183e+001 3.546198e+001
14870000000 -2.074837e+001 3.946341e+001 -2.471137e+001 9.444014e+001 -2.628563e+001 8.579201e+001 -1.741026e+001 -1.841761e+001
14965000000 -3.315971e+001 2.484140e+001 -2.385708e+001 6.408299e+001 -2.452597e+001 6.094819e+001 -1.598336e+001 -3.698551e+001
15060000000 -2.688522e+001 1.048754e+002 -2.107169e+001 1.819420e+001 -2.208586e+001 1.630810e+001 -1.874942e+001 -5.528837e+001
15155000000 -2.223705e+001 6.524936e+001 -2.067689e+001 -3.645107e+001 -2.074909e+001 -3.233661e+001 -1.743782e+001 -6.731458e+001
15250000000 -2.402285e+001 3.458098e+001 -2.011876e+001 -8.243633e+001 -2.127654e+001 -8.297213e+001 -1.708244e+001 -9.420020e+001
