!Agilent Technologies,N5230A,MY45001629,A.07.50.67
!Agilent N5230A: A.07.50.67
!Date: Monday, June 05, 2017 16:31:58
!Correction: S11(Full 2 Port(1,2)) 
!S21(Full 2 Port(1,2)) 
!S12(Full 2 Port(1,2)) 
!S22(Full 2 Port(1,2)) 
!S2P File: Measurements: S11, S21, S12, S22:
# Hz S  dB   R 50
1000000000 -2.198992e-001 5.256878e+001 -5.270160e+001 -1.227944e+001 -5.105282e+001 -1.027177e+001 -8.587770e-001 4.357448e+001
1095000000 -2.476037e-001 3.637914e+001 -4.403318e+001 -5.365440e+001 -4.309627e+001 -5.425457e+001 -1.097079e+000 2.648496e+001
1190000000 -4.011275e-001 1.800774e+001 -3.418795e+001 -1.046706e+002 -3.421823e+001 -1.061365e+002 -1.556277e+000 8.030283e+000
1285000000 -9.452531e-001 -2.324956e+000 -2.614024e+001 -1.781674e+002 -2.605580e+001 -1.788516e+002 -2.341923e+000 -9.791860e+000
1380000000 -1.468029e+000 -2.446944e+001 -2.099177e+001 1.047752e+002 -2.098178e+001 1.043704e+002 -2.566246e+000 -2.931723e+001
1475000000 -2.998657e+000 -5.645426e+001 -1.519723e+001 3.320037e+001 -1.517172e+001 3.296924e+001 -3.453152e+000 -6.163023e+001
1570000000 -9.035389e+000 -9.740818e+001 -1.071629e+001 -5.323508e+001 -1.069561e+001 -5.323466e+001 -8.645984e+000 -1.023851e+002
1665000000 -2.097540e+001 -3.738531e+001 -9.296761e+000 -1.431426e+002 -9.280182e+000 -1.430596e+002 -1.964100e+001 -8.166257e+001
1760000000 -1.255642e+001 -3.810349e+000 -1.007091e+001 1.396759e+002 -1.006857e+001 1.397159e+002 -1.703121e+001 -1.822268e+001
1855000000 -8.228212e+000 -2.994488e+001 -1.084487e+001 7.995028e+001 -1.081870e+001 7.985345e+001 -1.118313e+001 -3.282191e+001
1950000000 -7.951565e+000 -6.007660e+001 -1.032936e+001 2.384866e+001 -1.030891e+001 2.379415e+001 -9.645982e+000 -5.921106e+001
2045000000 -1.045688e+001 -7.739351e+001 -9.258423e+000 -3.648194e+001 -9.275670e+000 -3.658848e+001 -1.131250e+001 -7.998391e+001
2140000000 -1.147474e+001 -7.552706e+001 -8.682415e+000 -9.683544e+001 -8.667197e+000 -9.709825e+001 -1.223477e+001 -7.349424e+001
2235000000 -9.732594e+000 -8.457121e+001 -8.634042e+000 -1.581928e+002 -8.651847e+000 -1.583792e+002 -1.031230e+001 -8.437793e+001
2330000000 -9.875803e+000 -1.078574e+002 -8.895713e+000 1.467960e+002 -8.906054e+000 1.467455e+002 -9.701894e+000 -1.062634e+002
2425000000 -1.203699e+001 -1.236891e+002 -8.656119e+000 9.086379e+001 -8.651353e+000 9.122229e+001 -1.121700e+001 -1.198071e+002
2520000000 -1.372276e+001 -1.314851e+002 -8.623141e+000 3.639863e+001 -8.616748e+000 3.647942e+001 -1.284362e+001 -1.310971e+002
2615000000 -1.604737e+001 -1.438403e+002 -8.586536e+000 -1.823765e+001 -8.540245e+000 -1.835638e+001 -1.389466e+001 -1.428935e+002
2710000000 -2.218821e+001 -1.248625e+002 -8.858455e+000 -7.281729e+001 -8.823382e+000 -7.295200e+001 -1.865401e+001 -1.320597e+002
2805000000 -1.686280e+001 -8.534804e+001 -8.996943e+000 -1.247496e+002 -9.011756e+000 -1.249524e+002 -1.629242e+001 -1.067119e+002
2900000000 -1.247332e+001 -1.055037e+002 -9.367763e+000 -1.746250e+002 -9.363636e+000 -1.748885e+002 -1.181618e+001 -1.140380e+002
2995000000 -1.174474e+001 -1.291017e+002 -9.106780e+000 1.373043e+002 -9.122528e+000 1.373184e+002 -1.086726e+001 -1.366539e+002
3090000000 -1.386477e+001 -1.431117e+002 -8.631248e+000 8.648556e+001 -8.636542e+000 8.668562e+001 -1.260063e+001 -1.530361e+002
3185000000 -1.543787e+001 -1.254646e+002 -8.344706e+000 3.356491e+001 -8.344039e+000 3.360015e+001 -1.526971e+001 -1.361852e+002
3280000000 -1.114702e+001 -1.203631e+002 -8.447803e+000 -1.967724e+001 -8.431671e+000 -1.956868e+001 -1.063269e+001 -1.320790e+002
3375000000 -8.663634e+000 -1.424649e+002 -8.801792e+000 -7.064893e+001 -8.799858e+000 -7.046029e+001 -8.378098e+000 -1.488714e+002
3470000000 -8.393493e+000 -1.630758e+002 -8.904732e+000 -1.186230e+002 -8.921093e+000 -1.184742e+002 -8.231408e+000 -1.703817e+002
3565000000 -8.936377e+000 -1.788338e+002 -8.882874e+000 -1.676256e+002 -8.862812e+000 -1.676474e+002 -8.617089e+000 1.751047e+002
3660000000 -9.905992e+000 1.685482e+002 -8.657055e+000 1.439090e+002 -8.619690e+000 1.440327e+002 -9.467287e+000 1.639941e+002
3755000000 -1.074961e+001 1.589646e+002 -8.304842e+000 9.326576e+001 -8.276917e+000 9.341357e+001 -9.934353e+000 1.519803e+002
3850000000 -1.248309e+001 1.530317e+002 -8.129280e+000 4.159314e+001 -8.109952e+000 4.160946e+001 -1.189500e+001 1.412135e+002
3945000000 -1.360571e+001 1.567569e+002 -8.150605e+000 -1.050359e+001 -8.115375e+000 -1.047118e+001 -1.384884e+001 1.432269e+002
4040000000 -1.271127e+001 1.559585e+002 -8.401704e+000 -6.174454e+001 -8.364755e+000 -6.170738e+001 -1.289146e+001 1.438874e+002
4135000000 -1.361636e+001 1.459332e+002 -8.520615e+000 -1.139196e+002 -8.497611e+000 -1.140857e+002 -1.385865e+001 1.253763e+002
4230000000 -1.553987e+001 1.593868e+002 -9.403136e+000 -1.679532e+002 -9.384562e+000 -1.679888e+002 -1.921121e+001 1.362564e+002
4325000000 -1.224917e+001 1.662002e+002 -1.081239e+001 1.446431e+002 -1.077323e+001 1.444981e+002 -1.439281e+001 1.632208e+002
4420000000 -1.036080e+001 1.549974e+002 -1.166891e+001 1.036643e+002 -1.163662e+001 1.034830e+002 -1.187150e+001 1.490097e+002
4515000000 -9.353500e+000 1.439964e+002 -1.143861e+001 6.244703e+001 -1.140014e+001 6.223582e+001 -1.091049e+001 1.356035e+002
4610000000 -8.240664e+000 1.301777e+002 -1.088703e+001 1.671554e+001 -1.084481e+001 1.651541e+001 -1.034515e+001 1.174325e+002
4705000000 -8.077207e+000 1.107904e+002 -1.051915e+001 -3.206651e+001 -1.050850e+001 -3.236619e+001 -9.780055e+000 9.714770e+001
4800000000 -9.073956e+000 9.011617e+001 -1.040772e+001 -8.120734e+001 -1.035754e+001 -8.133257e+001 -1.114502e+001 7.636021e+001
4895000000 -1.155233e+001 7.643128e+001 -1.033271e+001 -1.316315e+002 -1.027908e+001 -1.317686e+002 -1.265509e+001 5.529616e+001
4990000000 -1.429307e+001 7.265971e+001 -1.064705e+001 1.781785e+002 -1.063555e+001 1.781526e+002 -1.539453e+001 3.660010e+001
5085000000 -1.616164e+001 7.634634e+001 -1.104550e+001 1.296785e+002 -1.100028e+001 1.292348e+002 -1.837094e+001 2.359271e+001
5180000000 -1.692203e+001 8.654785e+001 -1.157804e+001 8.301747e+001 -1.153197e+001 8.252999e+001 -2.375108e+001 2.361251e+001
5275000000 -1.577605e+001 9.639342e+001 -1.171436e+001 3.632360e+001 -1.175712e+001 3.587820e+001 -2.515419e+001 4.415693e+001
5370000000 -1.360828e+001 8.597451e+001 -1.223428e+001 -1.031465e+001 -1.226336e+001 -1.072908e+001 -2.092290e+001 5.425869e+001
5465000000 -1.345621e+001 6.689929e+001 -1.244264e+001 -5.375364e+001 -1.246807e+001 -5.391123e+001 -1.881450e+001 2.822142e+001
5560000000 -1.569955e+001 5.000493e+001 -1.223819e+001 -9.847461e+001 -1.225144e+001 -9.888538e+001 -1.921416e+001 -9.138846e+000
5655000000 -1.896284e+001 6.044179e+001 -1.173749e+001 -1.478579e+002 -1.178385e+001 -1.476962e+002 -2.542954e+001 -3.931193e+001
5750000000 -1.553183e+001 6.815207e+001 -1.208462e+001 1.604325e+002 -1.202986e+001 1.603908e+002 -2.488934e+001 2.990733e+001
5845000000 -1.387794e+001 4.206239e+001 -1.318700e+001 1.108586e+002 -1.314862e+001 1.104439e+002 -1.819494e+001 -3.560104e+000
5940000000 -1.465248e+001 8.287930e+000 -1.414082e+001 6.850861e+001 -1.418450e+001 6.781114e+001 -1.575600e+001 -3.707922e+001
6035000000 -1.732303e+001 -2.729704e+001 -1.467792e+001 2.786307e+001 -1.469916e+001 2.737041e+001 -1.440009e+001 -7.172291e+001
6130000000 -1.949942e+001 -8.421867e+001 -1.439349e+001 -1.075445e+001 -1.446524e+001 -1.070162e+001 -1.474230e+001 -1.098602e+002
6225000000 -1.942078e+001 -1.672855e+002 -1.373029e+001 -5.350826e+001 -1.380809e+001 -5.393559e+001 -1.760137e+001 -1.467997e+002
6320000000 -1.812963e+001 1.196364e+002 -1.289607e+001 -9.989919e+001 -1.286621e+001 -1.001762e+002 -2.770957e+001 1.659227e+002
6415000000 -2.079491e+001 6.195334e+001 -1.253162e+001 -1.497821e+002 -1.250688e+001 -1.499263e+002 -2.833458e+001 -3.857079e+001
6510000000 -3.433909e+001 -9.351431e+000 -1.275731e+001 1.612893e+002 -1.271317e+001 1.611283e+002 -1.785183e+001 -7.786496e+001
6605000000 -2.510818e+001 1.597718e+002 -1.275413e+001 1.147192e+002 -1.273429e+001 1.150063e+002 -1.589486e+001 -1.107250e+002
6700000000 -2.003032e+001 1.212490e+002 -1.265998e+001 6.823685e+001 -1.265245e+001 6.873704e+001 -1.621659e+001 -1.401679e+002
6795000000 -1.926131e+001 8.080127e+001 -1.261712e+001 2.190093e+001 -1.267960e+001 2.174522e+001 -1.918178e+001 -1.559663e+002
6890000000 -2.165872e+001 3.460501e+001 -1.257143e+001 -2.438877e+001 -1.264665e+001 -2.454515e+001 -2.117318e+001 -1.364308e+002
6985000000 -2.533277e+001 -4.808066e+001 -1.252681e+001 -7.069595e+001 -1.251680e+001 -7.120290e+001 -1.679038e+001 -1.328993e+002
7080000000 -2.131980e+001 -1.305081e+002 -1.243595e+001 -1.192991e+002 -1.236091e+001 -1.193210e+002 -1.375221e+001 -1.456896e+002
7175000000 -1.738379e+001 -1.735631e+002 -1.253503e+001 -1.668549e+002 -1.251104e+001 -1.667904e+002 -1.284910e+001 -1.697693e+002
7270000000 -1.531879e+001 1.607385e+002 -1.270110e+001 1.462560e+002 -1.272309e+001 1.462439e+002 -1.238915e+001 1.740623e+002
7365000000 -1.464724e+001 1.402807e+002 -1.273897e+001 1.004558e+002 -1.282419e+001 1.005371e+002 -1.257967e+001 1.578464e+002
7460000000 -1.468518e+001 1.267003e+002 -1.280581e+001 5.509573e+001 -1.284353e+001 5.487440e+001 -1.242756e+001 1.491248e+002
7555000000 -1.438005e+001 1.211666e+002 -1.263111e+001 9.313051e+000 -1.259156e+001 9.164341e+000 -1.253327e+001 1.365169e+002
7650000000 -1.363530e+001 1.109102e+002 -1.246782e+001 -3.757034e+001 -1.239286e+001 -3.780268e+001 -1.200413e+001 1.268613e+002
7745000000 -1.325847e+001 9.769301e+001 -1.221725e+001 -8.616824e+001 -1.219875e+001 -8.580355e+001 -1.242439e+001 1.136414e+002
7840000000 -1.454062e+001 8.627859e+001 -1.221014e+001 -1.345733e+002 -1.222791e+001 -1.340609e+002 -1.256408e+001 1.065095e+002
7935000000 -1.605293e+001 8.847420e+001 -1.223152e+001 1.794057e+002 -1.226748e+001 1.788325e+002 -1.301294e+001 1.018980e+002
8030000000 -1.510214e+001 9.285887e+001 -1.214882e+001 1.316600e+002 -1.210745e+001 1.308593e+002 -1.236283e+001 9.670557e+001
8125000000 -1.390900e+001 8.285444e+001 -1.215005e+001 8.197712e+001 -1.210573e+001 8.215844e+001 -1.170615e+001 8.516716e+001
8220000000 -1.544027e+001 7.160008e+001 -1.233399e+001 3.162332e+001 -1.232761e+001 3.229142e+001 -1.213677e+001 7.798096e+001
8315000000 -1.693904e+001 8.412168e+001 -1.282010e+001 -1.632019e+001 -1.284110e+001 -1.592775e+001 -1.247526e+001 7.041319e+001
8410000000 -1.415811e+001 9.250381e+001 -1.339697e+001 -6.208691e+001 -1.330051e+001 -6.215771e+001 -1.172512e+001 6.532148e+001
8505000000 -1.187519e+001 7.809773e+001 -1.352959e+001 -1.073038e+002 -1.360262e+001 -1.066972e+002 -1.111904e+001 5.752632e+001
8600000000 -1.176056e+001 5.851045e+001 -1.339249e+001 -1.519070e+002 -1.343743e+001 -1.513183e+002 -1.006353e+001 4.003130e+001
8695000000 -1.391453e+001 4.844925e+001 -1.326500e+001 1.612047e+002 -1.331097e+001 1.611245e+002 -1.125025e+001 2.607128e+001
8790000000 -1.443648e+001 5.165763e+001 -1.312685e+001 1.130485e+002 -1.307453e+001 1.124165e+002 -1.167525e+001 1.412665e+001
8885000000 -1.287190e+001 4.386384e+001 -1.328842e+001 6.144737e+001 -1.325177e+001 6.119094e+001 -1.166652e+001 6.689765e+000
8980000000 -1.438651e+001 2.088023e+001 -1.398192e+001 1.126400e+001 -1.403674e+001 1.157080e+001 -1.067698e+001 -8.336326e+000
9075000000 -1.924722e+001 -2.010883e+000 -1.473563e+001 -3.274831e+001 -1.480740e+001 -3.227432e+001 -1.214798e+001 -3.311548e+001
9170000000 -2.330880e+001 7.777227e+001 -1.467220e+001 -7.454522e+001 -1.475166e+001 -7.423254e+001 -1.432327e+001 -5.427803e+001
9265000000 -1.608566e+001 6.063262e+001 -1.400073e+001 -1.221565e+002 -1.399220e+001 -1.227326e+002 -1.770594e+001 -3.978655e+001
9360000000 -1.669467e+001 2.295523e+001 -1.429316e+001 -1.759947e+002 -1.423389e+001 -1.763718e+002 -1.400924e+001 -4.955879e+001
9455000000 -2.893015e+001 5.005967e+000 -1.515339e+001 1.335796e+002 -1.519171e+001 1.330570e+002 -1.390379e+001 -7.390427e+001
9550000000 -2.011080e+001 1.166525e+002 -1.611951e+001 8.678788e+001 -1.623659e+001 8.705428e+001 -1.426418e+001 -1.101328e+002
9645000000 -1.471780e+001 8.462794e+001 -1.648440e+001 4.690167e+001 -1.642939e+001 4.602430e+001 -1.925422e+001 -1.252071e+002
9740000000 -1.531162e+001 5.333516e+001 -1.625247e+001 -8.589620e-001 -1.613321e+001 -1.945249e+000 -2.141684e+001 -1.007930e+002
9835000000 -2.383561e+001 5.340932e+001 -1.687438e+001 -5.547690e+001 -1.671691e+001 -5.555711e+001 -1.488665e+001 -1.054237e+002
9930000000 -1.734078e+001 1.167401e+002 -1.831056e+001 -1.028398e+002 -1.830150e+001 -1.019484e+002 -1.311897e+001 -1.415988e+002
10025000000 -1.229126e+001 1.022788e+002 -1.911721e+001 -1.438549e+002 -1.910537e+001 -1.425589e+002 -1.306415e+001 -1.649238e+002
10120000000 -1.085598e+001 8.690215e+001 -1.870883e+001 1.703549e+002 -1.884183e+001 1.706918e+002 -1.432332e+001 1.728843e+002
10215000000 -9.649475e+000 8.333424e+001 -1.929253e+001 1.208441e+002 -1.950091e+001 1.194818e+002 -1.656037e+001 1.665029e+002
10310000000 -7.205530e+000 7.461431e+001 -2.170945e+001 7.263063e+001 -2.152898e+001 7.126389e+001 -1.609167e+001 1.561960e+002
10405000000 -5.891650e+000 5.711401e+001 -2.358811e+001 3.829976e+001 -2.308449e+001 3.658507e+001 -1.824759e+001 1.378694e+002
10500000000 -5.669171e+000 4.329140e+001 -2.279607e+001 -1.677278e+000 -2.270647e+001 1.995174e-001 -2.116188e+001 1.294119e+002
10595000000 -5.157005e+000 3.483329e+001 -2.156867e+001 -4.734251e+001 -2.196949e+001 -5.499202e+001 -2.642114e+001 1.656604e+002
10690000000 -3.872385e+000 2.368686e+001 -2.433943e+001 -1.182979e+002 -2.466065e+001 -1.103725e+002 -1.876652e+001 -1.532691e+002
10785000000 -2.995826e+000 3.189183e+000 -2.811011e+001 -1.280640e+002 -3.104844e+001 -1.448164e+002 -1.396335e+001 -1.759919e+002
10880000000 -3.263448e+000 -2.081715e+001 -3.113302e+001 -1.214596e+002 -3.023889e+001 -1.285745e+002 -1.476273e+001 1.562943e+002
10975000000 -4.821667e+000 -4.041887e+001 -2.312294e+001 -1.667935e+002 -2.456102e+001 -1.606438e+002 -1.609128e+001 1.555748e+002
11070000000 -6.347374e+000 -5.657104e+001 -2.095713e+001 1.475964e+002 -2.106565e+001 1.439474e+002 -1.459405e+001 1.697304e+002
11165000000 -8.317440e+000 -7.855611e+001 -1.997909e+001 8.087842e+001 -2.006392e+001 8.589157e+001 -1.159690e+001 1.565507e+002
11260000000 -1.298994e+001 -1.044392e+002 -1.991529e+001 3.842339e+001 -2.084755e+001 3.449733e+001 -1.080170e+001 1.356305e+002
11355000000 -2.186345e+001 -1.110517e+002 -2.115519e+001 -1.221693e+001 -2.091971e+001 -7.979393e+000 -1.005702e+001 1.147063e+002
11450000000 -2.882571e+001 -5.082067e+001 -2.035890e+001 -4.669051e+001 -1.971565e+001 -5.026543e+001 -1.114157e+001 1.160077e+002
11545000000 -3.206382e+001 1.317324e+001 -1.858022e+001 -9.942045e+001 -1.908017e+001 -1.005461e+002 -1.057529e+001 1.011247e+002
11640000000 -2.091783e+001 4.246685e+001 -1.788250e+001 -1.479963e+002 -1.848797e+001 -1.505941e+002 -1.065702e+001 1.018519e+002
11735000000 -1.526975e+001 2.707620e+001 -1.800262e+001 1.588633e+002 -1.832559e+001 1.573551e+002 -1.207587e+001 8.504492e+001
11830000000 -1.412210e+001 7.690324e+000 -1.835753e+001 1.128795e+002 -1.896720e+001 1.087988e+002 -1.136603e+001 7.300211e+001
11925000000 -1.380950e+001 -1.267959e+000 -1.982871e+001 6.835551e+001 -1.941969e+001 6.313420e+001 -1.215497e+001 7.471215e+001
12020000000 -1.372030e+001 -9.630214e+000 -2.024548e+001 1.429296e+001 -2.011674e+001 2.065292e+001 -1.119959e+001 5.375019e+001
12115000000 -1.423264e+001 -1.737301e+001 -1.863017e+001 -2.677002e+001 -1.926150e+001 -2.574976e+001 -1.213908e+001 4.456277e+001
12210000000 -1.583601e+001 -1.775337e+001 -1.846646e+001 -7.009410e+001 -1.912291e+001 -7.307675e+001 -1.283770e+001 4.170424e+001
12305000000 -1.671739e+001 6.877729e-001 -1.940381e+001 -1.175983e+002 -1.855477e+001 -1.238465e+002 -1.140768e+001 4.067118e+001
12400000000 -1.336052e+001 9.740964e+000 -1.937574e+001 -1.727729e+002 -1.903074e+001 -1.732068e+002 -1.086675e+001 3.375264e+001
12495000000 -1.048508e+001 -2.952370e+000 -1.849573e+001 1.400238e+002 -1.944939e+001 1.382545e+002 -9.479228e+000 2.173198e+001
12590000000 -9.933066e+000 -1.824435e+001 -1.918030e+001 9.517203e+001 -1.980676e+001 8.943313e+001 -8.710585e+000 4.899948e+000
12685000000 -1.057150e+001 -2.616002e+001 -2.067456e+001 5.100639e+001 -2.131641e+001 4.646288e+001 -1.161192e+001 3.788936e+000
12780000000 -1.049518e+001 -2.504123e+001 -2.104183e+001 1.429117e+001 -2.164675e+001 6.161483e+000 -1.097037e+001 -1.044969e+001
12875000000 -8.854025e+000 -3.144044e+001 -2.009702e+001 -2.888053e+001 -2.161080e+001 -3.611629e+001 -8.606352e+000 -1.802062e+001
12970000000 -7.892873e+000 -4.432140e+001 -2.006821e+001 -7.538719e+001 -2.171291e+001 -7.993170e+001 -7.976953e+000 -2.222711e+001
13065000000 -8.283961e+000 -6.160665e+001 -1.980367e+001 -1.269397e+002 -2.090701e+001 -1.318118e+002 -9.979856e+000 -3.743834e+001
13160000000 -9.464193e+000 -6.765652e+001 -2.142611e+001 -1.764648e+002 -2.263672e+001 1.777170e+002 -9.523723e+000 -4.596249e+001
13255000000 -9.543890e+000 -7.181213e+001 -2.331390e+001 1.542075e+002 -2.419997e+001 1.454250e+002 -9.339615e+000 -4.731234e+001
13350000000 -8.459410e+000 -8.029427e+001 -2.256346e+001 1.213032e+002 -2.370434e+001 1.144179e+002 -8.109546e+000 -6.156152e+001
13445000000 -8.209044e+000 -9.502143e+001 -2.070253e+001 7.689172e+001 -2.091383e+001 7.044254e+001 -7.496727e+000 -7.037140e+001
13540000000 -9.197696e+000 -1.149411e+002 -1.985545e+001 2.271364e+001 -2.060232e+001 2.057413e+001 -8.590030e+000 -7.613269e+001
13635000000 -1.112772e+001 -1.297915e+002 -2.006481e+001 -2.469975e+001 -2.060933e+001 -2.658595e+001 -9.991559e+000 -8.802335e+001
13730000000 -1.398225e+001 -1.330789e+002 -2.028886e+001 -6.978094e+001 -2.093078e+001 -6.677755e+001 -8.008519e+000 -1.030338e+002
13825000000 -1.600149e+001 -1.349936e+002 -1.963085e+001 -1.128813e+002 -2.024773e+001 -1.060856e+002 -8.838288e+000 -1.039096e+002
13920000000 -1.567182e+001 -1.305507e+002 -1.793801e+001 -1.608632e+002 -1.843766e+001 -1.558937e+002 -1.065743e+001 -1.096114e+002
14015000000 -1.717920e+001 -1.417710e+002 -1.760158e+001 1.453433e+002 -1.772875e+001 1.513299e+002 -1.251869e+001 -1.354602e+002
14110000000 -1.874260e+001 -1.400528e+002 -1.720292e+001 9.245831e+001 -1.705724e+001 9.495033e+001 -1.166061e+001 -1.359913e+002
14205000000 -1.735614e+001 -1.283291e+002 -1.705359e+001 3.721960e+001 -1.778855e+001 4.316394e+001 -1.198148e+001 -1.353223e+002
14300000000 -1.514496e+001 -1.474609e+002 -1.755288e+001 -1.624725e+001 -1.813180e+001 -1.013979e+001 -1.369008e+001 -1.520465e+002
14395000000 -1.531095e+001 -1.738848e+002 -1.802384e+001 -6.549496e+001 -1.837437e+001 -6.377279e+001 -1.557229e+001 -1.671491e+002
14490000000 -1.692309e+001 1.711661e+002 -1.977704e+001 -1.262441e+002 -1.994138e+001 -1.148240e+002 -2.005258e+001 1.715446e+002
14585000000 -1.676825e+001 1.536225e+002 -2.197882e+001 -1.740028e+002 -2.238602e+001 -1.597175e+002 -2.228973e+001 1.348508e+002
14680000000 -1.579538e+001 1.253837e+002 -2.337815e+001 1.473102e+002 -2.342625e+001 1.603516e+002 -2.229609e+001 1.165162e+002
14775000000 -1.680765e+001 8.300690e+001 -2.434468e+001 1.064238e+002 -2.469060e+001 1.217394e+002 -2.698594e+001 1.891118e+001
14870000000 -2.042114e+001 3.857010e+001 -2.793502e+001 7.384651e+001 -2.626986e+001 8.733145e+001 -1.633811e+001 -1.549261e+001
14965000000 -3.458368e+001 2.610064e+001 -2.535283e+001 5.104238e+001 -2.516576e+001 6.417998e+001 -1.595793e+001 -3.410188e+001
15060000000 -2.711685e+001 1.066994e+002 -2.309916e+001 1.357918e+001 -2.227826e+001 1.836932e+001 -1.980055e+001 -6.014400e+001
15155000000 -2.179832e+001 6.934306e+001 -2.159082e+001 -4.078039e+001 -2.152464e+001 -3.269814e+001 -1.630956e+001 -7.087985e+001
15250000000 -2.394025e+001 3.814441e+001 -2.213197e+001 -8.553229e+001 -2.121068e+001 -8.243888e+001 -1.640660e+001 -8.833330e+001
