!Agilent Technologies,N5230A,MY45001629,A.07.50.67
!Agilent N5230A: A.07.50.67
!Date: Monday, June 05, 2017 16:34:55
!Correction: S11(Full 2 Port(1,2)) 
!S21(Full 2 Port(1,2)) 
!S12(Full 2 Port(1,2)) 
!S22(Full 2 Port(1,2)) 
!S2P File: Measurements: S11, S21, S12, S22:
# Hz S  dB   R 50
1000000000 -2.201124e-001 5.254701e+001 -5.189794e+001 -4.705789e+000 -5.105478e+001 -1.530615e+001 -8.651406e-001 4.357436e+001
1095000000 -2.429894e-001 3.636889e+001 -4.310834e+001 -4.830977e+001 -4.344349e+001 -5.525907e+001 -1.107233e+000 2.642590e+001
1190000000 -3.942089e-001 1.798186e+001 -3.407366e+001 -1.063502e+002 -3.416137e+001 -1.065015e+002 -1.555013e+000 7.959721e+000
1285000000 -9.335075e-001 -2.289043e+000 -2.602011e+001 -1.792040e+002 -2.610756e+001 -1.796703e+002 -2.335963e+000 -9.795332e+000
1380000000 -1.461653e+000 -2.453893e+001 -2.103047e+001 1.043550e+002 -2.104844e+001 1.041478e+002 -2.556962e+000 -2.932233e+001
1475000000 -3.004267e+000 -5.654489e+001 -1.517257e+001 3.284598e+001 -1.519129e+001 3.283770e+001 -3.446967e+000 -6.156760e+001
1570000000 -9.002401e+000 -9.777171e+001 -1.068381e+001 -5.372534e+001 -1.067723e+001 -5.362690e+001 -8.697627e+000 -1.020849e+002
1665000000 -2.101764e+001 -3.563075e+001 -9.321473e+000 -1.436224e+002 -9.308581e+000 -1.435510e+002 -1.965615e+001 -8.171230e+001
1760000000 -1.249452e+001 -3.979693e+000 -1.011417e+001 1.393409e+002 -1.010813e+001 1.394622e+002 -1.689914e+001 -1.781454e+001
1855000000 -8.219189e+000 -3.017859e+001 -1.087109e+001 7.990057e+001 -1.083863e+001 7.983794e+001 -1.119209e+001 -3.326247e+001
1950000000 -7.959327e+000 -6.027182e+001 -1.034447e+001 2.366578e+001 -1.030496e+001 2.363016e+001 -9.712840e+000 -5.928862e+001
2045000000 -1.050730e+001 -7.758749e+001 -9.283590e+000 -3.679755e+001 -9.288618e+000 -3.681776e+001 -1.143040e+001 -7.995066e+001
2140000000 -1.151658e+001 -7.539760e+001 -8.724833e+000 -9.717696e+001 -8.710542e+000 -9.747311e+001 -1.230483e+001 -7.382296e+001
2235000000 -9.724076e+000 -8.443416e+001 -8.698943e+000 -1.584464e+002 -8.716672e+000 -1.585130e+002 -1.031991e+001 -8.383239e+001
2330000000 -9.864588e+000 -1.076032e+002 -8.968300e+000 1.465773e+002 -8.983691e+000 1.465816e+002 -9.609533e+000 -1.060897e+002
2425000000 -1.194871e+001 -1.234614e+002 -8.710646e+000 9.094866e+001 -8.696714e+000 9.117562e+001 -1.099947e+001 -1.202998e+002
2520000000 -1.364718e+001 -1.323612e+002 -8.694745e+000 3.644662e+001 -8.674638e+000 3.656931e+001 -1.270392e+001 -1.325779e+002
2615000000 -1.605610e+001 -1.446226e+002 -8.620983e+000 -1.827929e+001 -8.582021e+000 -1.840107e+001 -1.402641e+001 -1.433796e+002
2710000000 -2.239497e+001 -1.246707e+002 -8.873172e+000 -7.273345e+001 -8.842925e+000 -7.293156e+001 -1.884166e+001 -1.309025e+002
2805000000 -1.679124e+001 -8.460146e+001 -9.006297e+000 -1.248524e+002 -9.008945e+000 -1.250231e+002 -1.626163e+001 -1.053222e+002
2900000000 -1.240031e+001 -1.052089e+002 -9.403846e+000 -1.746208e+002 -9.375477e+000 -1.748553e+002 -1.171335e+001 -1.139339e+002
2995000000 -1.169892e+001 -1.290353e+002 -9.146548e+000 1.372890e+002 -9.150591e+000 1.373212e+002 -1.087455e+001 -1.366282e+002
3090000000 -1.376566e+001 -1.431996e+002 -8.636244e+000 8.645750e+001 -8.646481e+000 8.663860e+001 -1.262428e+001 -1.530498e+002
3185000000 -1.537118e+001 -1.262122e+002 -8.333239e+000 3.377582e+001 -8.347655e+000 3.361285e+001 -1.513980e+001 -1.369562e+002
3280000000 -1.120733e+001 -1.211907e+002 -8.425823e+000 -1.943502e+001 -8.422251e+000 -1.951941e+001 -1.074786e+001 -1.321348e+002
3375000000 -8.745745e+000 -1.427402e+002 -8.792643e+000 -7.028631e+001 -8.824591e+000 -7.032243e+001 -8.480225e+000 -1.490534e+002
3470000000 -8.502434e+000 -1.630229e+002 -8.884174e+000 -1.180424e+002 -8.904305e+000 -1.181776e+002 -8.141789e+000 -1.704021e+002
3565000000 -9.025309e+000 -1.781906e+002 -8.831870e+000 -1.672207e+002 -8.826613e+000 -1.673749e+002 -8.667095e+000 1.760734e+002
3660000000 -9.841413e+000 1.698988e+002 -8.577879e+000 1.442938e+002 -8.596445e+000 1.443228e+002 -9.354852e+000 1.650625e+002
3755000000 -1.044306e+001 1.597528e+002 -8.223500e+000 9.440919e+001 -8.248794e+000 9.422877e+001 -9.702438e+000 1.510180e+002
3850000000 -1.211073e+001 1.504035e+002 -7.931682e+000 4.283089e+001 -7.933599e+000 4.275502e+001 -1.180000e+001 1.383592e+002
3945000000 -1.393581e+001 1.529049e+002 -7.809749e+000 -9.807904e+000 -7.816202e+000 -9.953403e+000 -1.427476e+001 1.409135e+002
4040000000 -1.321877e+001 1.570466e+002 -7.976865e+000 -6.189090e+001 -8.000666e+000 -6.199312e+001 -1.338597e+001 1.470474e+002
4135000000 -1.377520e+001 1.486045e+002 -8.192668e+000 -1.150706e+002 -8.199103e+000 -1.152056e+002 -1.384242e+001 1.300190e+002
4230000000 -1.522933e+001 1.620805e+002 -9.095274e+000 -1.691931e+002 -9.094178e+000 -1.692801e+002 -1.809467e+001 1.358561e+002
4325000000 -1.183078e+001 1.657273e+002 -1.044577e+001 1.431074e+002 -1.048009e+001 1.431646e+002 -1.462432e+001 1.587530e+002
4420000000 -1.021394e+001 1.525749e+002 -1.126450e+001 1.007300e+002 -1.130086e+001 1.005553e+002 -1.217505e+001 1.466283e+002
4515000000 -9.582350e+000 1.419970e+002 -1.128598e+001 5.800938e+001 -1.127280e+001 5.807119e+001 -1.124247e+001 1.351353e+002
4610000000 -8.475110e+000 1.303944e+002 -1.091265e+001 1.270647e+001 -1.089823e+001 1.285158e+001 -1.060937e+001 1.190861e+002
4705000000 -8.184247e+000 1.118871e+002 -1.070523e+001 -3.503364e+001 -1.072657e+001 -3.509640e+001 -9.659182e+000 9.982902e+001
4800000000 -9.076315e+000 9.121288e+001 -1.058986e+001 -8.335537e+001 -1.058507e+001 -8.325940e+001 -1.066676e+001 7.728319e+001
4895000000 -1.146467e+001 7.759671e+001 -1.048816e+001 -1.335083e+002 -1.047881e+001 -1.335329e+002 -1.217938e+001 5.354848e+001
4990000000 -1.394393e+001 7.313338e+001 -1.080473e+001 1.759735e+002 -1.081861e+001 1.761546e+002 -1.509293e+001 3.460680e+001
5085000000 -1.587852e+001 7.354034e+001 -1.130941e+001 1.278956e+002 -1.130212e+001 1.279126e+002 -1.844907e+001 1.951369e+001
5180000000 -1.739599e+001 8.432653e+001 -1.192879e+001 8.205457e+001 -1.193837e+001 8.201843e+001 -2.582888e+001 9.590510e+000
5275000000 -1.601864e+001 9.787067e+001 -1.207282e+001 3.680985e+001 -1.203373e+001 3.639286e+001 -2.589028e+001 6.819588e+001
5370000000 -1.353900e+001 8.694772e+001 -1.239182e+001 -8.780706e+000 -1.233906e+001 -9.322783e+000 -1.916821e+001 5.477688e+001
5465000000 -1.345735e+001 6.684123e+001 -1.243778e+001 -5.358121e+001 -1.242146e+001 -5.380355e+001 -1.800147e+001 2.404469e+001
5560000000 -1.575104e+001 5.029417e+001 -1.226897e+001 -9.934866e+001 -1.221819e+001 -9.945905e+001 -1.963253e+001 -1.246138e+001
5655000000 -1.892446e+001 6.223290e+001 -1.183048e+001 -1.484457e+002 -1.185506e+001 -1.486654e+002 -2.633184e+001 -3.970991e+001
5750000000 -1.522414e+001 6.833556e+001 -1.210016e+001 1.596061e+002 -1.211442e+001 1.596188e+002 -2.468559e+001 3.513416e+001
5845000000 -1.367188e+001 3.997143e+001 -1.326813e+001 1.101423e+002 -1.323653e+001 1.102486e+002 -1.791857e+001 -2.452438e+000
5940000000 -1.469265e+001 5.200413e+000 -1.431480e+001 6.834454e+001 -1.427783e+001 6.782421e+001 -1.576899e+001 -3.720453e+001
6035000000 -1.779797e+001 -3.097036e+001 -1.489991e+001 2.807291e+001 -1.479755e+001 2.766398e+001 -1.458047e+001 -7.224223e+001
6130000000 -2.020599e+001 -8.680560e+001 -1.449880e+001 -9.315490e+000 -1.452500e+001 -1.003338e+001 -1.485480e+001 -1.100282e+002
6225000000 -1.986547e+001 -1.708650e+002 -1.376743e+001 -5.287209e+001 -1.377254e+001 -5.332249e+001 -1.756916e+001 -1.469875e+002
6320000000 -1.840044e+001 1.175215e+002 -1.281202e+001 -9.986691e+001 -1.279579e+001 -9.993258e+001 -2.783154e+001 1.649605e+002
6415000000 -2.106749e+001 5.964616e+001 -1.245082e+001 -1.499246e+002 -1.241758e+001 -1.500718e+002 -2.726933e+001 -4.671055e+001
6510000000 -3.550014e+001 -2.055255e+001 -1.261909e+001 1.608714e+002 -1.259610e+001 1.608633e+002 -1.838684e+001 -7.981493e+001
6605000000 -2.477895e+001 1.598504e+002 -1.270457e+001 1.141216e+002 -1.265128e+001 1.145728e+002 -1.612753e+001 -1.132465e+002
6700000000 -1.980571e+001 1.217408e+002 -1.253130e+001 6.745239e+001 -1.257722e+001 6.765154e+001 -1.653226e+001 -1.400789e+002
6795000000 -1.904029e+001 8.077763e+001 -1.248897e+001 2.120386e+001 -1.258804e+001 2.125290e+001 -1.949514e+001 -1.567682e+002
6890000000 -2.153365e+001 3.436018e+001 -1.246676e+001 -2.549901e+001 -1.250978e+001 -2.572683e+001 -2.093029e+001 -1.352783e+002
6985000000 -2.495223e+001 -4.803860e+001 -1.249150e+001 -7.193452e+001 -1.245334e+001 -7.231853e+001 -1.679877e+001 -1.321826e+002
7080000000 -2.116452e+001 -1.295760e+002 -1.235325e+001 -1.200823e+002 -1.228348e+001 -1.201959e+002 -1.360859e+001 -1.470223e+002
7175000000 -1.726699e+001 -1.736396e+002 -1.245331e+001 -1.679398e+002 -1.247368e+001 -1.677323e+002 -1.277432e+001 -1.693502e+002
7270000000 -1.518875e+001 1.605812e+002 -1.261594e+001 1.445965e+002 -1.261689e+001 1.450700e+002 -1.242253e+001 1.736496e+002
7365000000 -1.459288e+001 1.397090e+002 -1.273002e+001 9.915857e+001 -1.282150e+001 9.903957e+001 -1.249629e+001 1.585872e+002
7460000000 -1.470826e+001 1.265586e+002 -1.275475e+001 5.390206e+001 -1.283446e+001 5.370504e+001 -1.252470e+001 1.491105e+002
7555000000 -1.434693e+001 1.209945e+002 -1.257502e+001 8.346789e+000 -1.260200e+001 7.998189e+000 -1.250375e+001 1.374507e+002
7650000000 -1.363518e+001 1.108031e+002 -1.246801e+001 -3.848117e+001 -1.238480e+001 -3.871243e+001 -1.192830e+001 1.291245e+002
7745000000 -1.328092e+001 9.741577e+001 -1.225926e+001 -8.699586e+001 -1.217480e+001 -8.698872e+001 -1.220297e+001 1.128131e+002
7840000000 -1.451518e+001 8.626297e+001 -1.217886e+001 -1.353651e+002 -1.218449e+001 -1.348841e+002 -1.250707e+001 1.077689e+002
7935000000 -1.603390e+001 8.826115e+001 -1.211839e+001 1.785860e+002 -1.218139e+001 1.775582e+002 -1.317857e+001 1.016156e+002
8030000000 -1.516206e+001 9.254829e+001 -1.209789e+001 1.301713e+002 -1.207997e+001 1.296203e+002 -1.225490e+001 9.766212e+001
8125000000 -1.395787e+001 8.300889e+001 -1.220331e+001 8.095238e+001 -1.213927e+001 8.076585e+001 -1.191202e+001 8.646970e+001
8220000000 -1.537178e+001 7.216228e+001 -1.242723e+001 3.115386e+001 -1.236226e+001 3.122509e+001 -1.201767e+001 7.739766e+001
8315000000 -1.682205e+001 8.344593e+001 -1.279490e+001 -1.703606e+001 -1.285394e+001 -1.696639e+001 -1.254395e+001 7.167106e+001
8410000000 -1.418157e+001 9.215762e+001 -1.331277e+001 -6.302058e+001 -1.326465e+001 -6.285738e+001 -1.167697e+001 6.684061e+001
8505000000 -1.196478e+001 7.772403e+001 -1.356366e+001 -1.083043e+002 -1.360782e+001 -1.079314e+002 -1.116815e+001 5.740221e+001
8600000000 -1.177820e+001 5.861793e+001 -1.343022e+001 -1.529201e+002 -1.343003e+001 -1.526497e+002 -9.988561e+000 4.005277e+001
8695000000 -1.396057e+001 4.892224e+001 -1.322428e+001 1.602835e+002 -1.330273e+001 1.599583e+002 -1.130533e+001 2.608373e+001
8790000000 -1.431523e+001 5.154629e+001 -1.304949e+001 1.114719e+002 -1.304374e+001 1.110761e+002 -1.148578e+001 1.261295e+001
8885000000 -1.283079e+001 4.351179e+001 -1.329350e+001 6.004847e+001 -1.321660e+001 6.046618e+001 -1.175037e+001 6.121385e+000
8980000000 -1.441878e+001 2.019132e+001 -1.413924e+001 9.546115e+000 -1.400656e+001 1.016986e+001 -1.077512e+001 -1.027317e+001
9075000000 -1.938508e+001 -1.774723e+000 -1.476387e+001 -3.387680e+001 -1.480677e+001 -3.332169e+001 -1.212262e+001 -3.479129e+001
9170000000 -2.306544e+001 7.791976e+001 -1.461206e+001 -7.621027e+001 -1.473252e+001 -7.592262e+001 -1.471745e+001 -5.429992e+001
9265000000 -1.594625e+001 5.980130e+001 -1.396331e+001 -1.239936e+002 -1.398399e+001 -1.242468e+002 -1.770658e+001 -3.870274e+001
9360000000 -1.692823e+001 2.265731e+001 -1.428663e+001 -1.769355e+002 -1.424728e+001 -1.775330e+002 -1.381055e+001 -4.911340e+001
9455000000 -2.992677e+001 6.763102e+000 -1.527271e+001 1.315017e+002 -1.523566e+001 1.321096e+002 -1.381175e+001 -7.447618e+001
9550000000 -1.997959e+001 1.159019e+002 -1.621636e+001 8.560848e+001 -1.630278e+001 8.540961e+001 -1.417578e+001 -1.092893e+002
9645000000 -1.464080e+001 8.253006e+001 -1.633839e+001 4.525565e+001 -1.647696e+001 4.486199e+001 -1.925887e+001 -1.255669e+002
9740000000 -1.543003e+001 5.205412e+001 -1.612244e+001 -3.180789e+000 -1.618925e+001 -3.848504e+000 -2.057487e+001 -1.029930e+002
9835000000 -2.435146e+001 5.484100e+001 -1.704795e+001 -5.641750e+001 -1.679150e+001 -5.716203e+001 -1.482741e+001 -1.043163e+002
9930000000 -1.710090e+001 1.160634e+002 -1.858849e+001 -1.028180e+002 -1.838811e+001 -1.031139e+002 -1.303234e+001 -1.419756e+002
10025000000 -1.229238e+001 1.016039e+002 -1.913828e+001 -1.441634e+002 -1.910385e+001 -1.432237e+002 -1.346439e+001 -1.640734e+002
10120000000 -1.088600e+001 8.663594e+001 -1.868054e+001 1.677861e+002 -1.878587e+001 1.695246e+002 -1.467037e+001 1.730535e+002
10215000000 -9.593173e+000 8.351356e+001 -1.929451e+001 1.179976e+002 -1.945065e+001 1.173435e+002 -1.641578e+001 1.678363e+002
10310000000 -7.203490e+000 7.462522e+001 -2.152836e+001 7.166824e+001 -2.154445e+001 6.959651e+001 -1.645922e+001 1.548620e+002
10405000000 -5.927359e+000 5.695508e+001 -2.321297e+001 3.711244e+001 -2.332598e+001 3.545659e+001 -1.861001e+001 1.372916e+002
10500000000 -5.712464e+000 4.320429e+001 -2.281207e+001 -2.889223e+000 -2.256135e+001 -1.870242e+000 -2.154117e+001 1.264029e+002
10595000000 -5.238594e+000 3.566289e+001 -2.172310e+001 -5.740084e+001 -2.213974e+001 -5.637104e+001 -2.696655e+001 1.752804e+002
10690000000 -3.907110e+000 2.405813e+001 -2.420654e+001 -1.033114e+002 -2.464140e+001 -1.130559e+002 -1.885928e+001 -1.502654e+002
10785000000 -2.964243e+000 4.107957e+000 -3.300749e+001 -1.451496e+002 -3.018979e+001 -1.462438e+002 -1.418457e+001 -1.779776e+002
10880000000 -3.207127e+000 -2.026694e+001 -2.796579e+001 -1.388045e+002 -3.076780e+001 -1.260106e+002 -1.519408e+001 1.534084e+002
10975000000 -4.748942e+000 -4.018604e+001 -2.383430e+001 -1.541991e+002 -2.473707e+001 -1.623846e+002 -1.588181e+001 1.567790e+002
11070000000 -6.232228e+000 -5.638134e+001 -2.041461e+001 1.372164e+002 -2.120969e+001 1.437254e+002 -1.463477e+001 1.680372e+002
11165000000 -8.210416e+000 -7.836819e+001 -1.983575e+001 8.792164e+001 -2.004462e+001 8.381353e+001 -1.169078e+001 1.553114e+002
11260000000 -1.297550e+001 -1.047291e+002 -2.087891e+001 2.933970e+001 -2.096582e+001 3.335505e+001 -1.079583e+001 1.348569e+002
11355000000 -2.174702e+001 -1.085502e+002 -1.979422e+001 -6.740610e+000 -2.056503e+001 -8.459946e+000 -1.018480e+001 1.156279e+002
11450000000 -2.844034e+001 -5.646645e+001 -1.977315e+001 -5.680392e+001 -1.973911e+001 -5.203845e+001 -1.109908e+001 1.106498e+002
11545000000 -3.272552e+001 7.302202e+000 -1.978584e+001 -1.066749e+002 -1.909940e+001 -1.019055e+002 -1.070191e+001 1.009354e+002
11640000000 -2.099169e+001 4.379324e+001 -1.919618e+001 -1.512837e+002 -1.879544e+001 -1.532302e+002 -1.085061e+001 1.003513e+002
11735000000 -1.519192e+001 2.552709e+001 -1.933052e+001 1.549895e+002 -1.832578e+001 1.548549e+002 -1.205824e+001 8.429402e+001
11830000000 -1.412711e+001 7.552481e+000 -2.001366e+001 1.063728e+002 -1.877487e+001 1.058555e+002 -1.153566e+001 7.130420e+001
11925000000 -1.380716e+001 -2.008740e+000 -1.923296e+001 5.772199e+001 -1.969104e+001 6.297908e+001 -1.206492e+001 7.368913e+001
12020000000 -1.370250e+001 -9.558093e+000 -1.905830e+001 2.224964e+001 -1.946962e+001 1.659744e+001 -1.152011e+001 5.213036e+001
12115000000 -1.435669e+001 -1.839409e+001 -1.972904e+001 -2.430511e+001 -1.914614e+001 -2.589994e+001 -1.171730e+001 4.245420e+001
12210000000 -1.586261e+001 -1.839641e+001 -1.978620e+001 -7.985580e+001 -1.879155e+001 -7.492606e+001 -1.323849e+001 4.342710e+001
12305000000 -1.652065e+001 1.443096e+000 -1.830422e+001 -1.292081e+002 -1.894813e+001 -1.226567e+002 -1.129583e+001 4.135467e+001
12400000000 -1.307342e+001 8.411257e+000 -1.828445e+001 -1.695915e+002 -1.883773e+001 -1.745273e+002 -1.017910e+001 3.111004e+001
12495000000 -1.049520e+001 -3.720561e+000 -1.965598e+001 1.422273e+002 -1.943058e+001 1.357362e+002 -9.758645e+000 2.040866e+001
12590000000 -9.994512e+000 -1.882389e+001 -2.088069e+001 8.484333e+001 -2.002420e+001 8.621268e+001 -9.387661e+000 -1.289588e+000
12685000000 -1.066654e+001 -2.596181e+001 -2.257841e+001 4.165864e+001 -2.187567e+001 4.566692e+001 -1.095288e+001 3.294483e-001
12780000000 -1.036388e+001 -2.457527e+001 -2.294533e+001 3.600007e+000 -2.202890e+001 5.557653e+000 -1.022277e+001 -6.776316e+000
12875000000 -8.879678e+000 -3.253538e+001 -2.266240e+001 -3.538243e+001 -2.186118e+001 -3.652584e+001 -9.092375e+000 -1.661461e+001
12970000000 -7.763633e+000 -4.477566e+001 -2.189689e+001 -7.805945e+001 -2.091026e+001 -7.992100e+001 -8.440869e+000 -2.258386e+001
13065000000 -8.377282e+000 -6.098165e+001 -2.175219e+001 -1.289844e+002 -2.079088e+001 -1.354332e+002 -9.849154e+000 -4.402477e+001
13160000000 -9.284784e+000 -6.726503e+001 -2.389223e+001 1.790458e+002 -2.268669e+001 1.748218e+002 -8.941598e+000 -4.693512e+001
13255000000 -9.428126e+000 -7.104189e+001 -2.703220e+001 1.447116e+002 -2.539767e+001 1.475080e+002 -8.869481e+000 -4.248739e+001
13350000000 -8.379981e+000 -7.956052e+001 -2.668655e+001 1.201315e+002 -2.403354e+001 1.120755e+002 -8.866459e+000 -5.795874e+001
13445000000 -8.239062e+000 -9.576501e+001 -2.355023e+001 7.118080e+001 -2.131445e+001 7.097397e+001 -8.041926e+000 -7.485473e+001
13540000000 -9.201251e+000 -1.156710e+002 -2.228193e+001 2.120259e+001 -2.071023e+001 2.094715e+001 -7.834033e+000 -8.056105e+001
13635000000 -1.115805e+001 -1.291585e+002 -2.232958e+001 -1.938446e+001 -2.090986e+001 -3.003922e+001 -9.050126e+000 -8.418097e+001
13730000000 -1.401258e+001 -1.321252e+002 -2.225953e+001 -6.122375e+001 -2.131355e+001 -6.938117e+001 -8.607808e+000 -9.641172e+001
13825000000 -1.587211e+001 -1.334391e+002 -2.094563e+001 -1.055770e+002 -1.985472e+001 -1.097173e+002 -1.022122e+001 -1.069251e+002
13920000000 -1.574941e+001 -1.300456e+002 -1.894744e+001 -1.553848e+002 -1.858436e+001 -1.588363e+002 -1.059044e+001 -1.226139e+002
14015000000 -1.727348e+001 -1.416665e+002 -1.869934e+001 1.531029e+002 -1.745263e+001 1.488670e+002 -1.106253e+001 -1.320573e+002
14110000000 -1.923586e+001 -1.396601e+002 -1.812903e+001 9.889658e+001 -1.759412e+001 9.315639e+001 -1.206523e+001 -1.239985e+002
14205000000 -1.714154e+001 -1.279676e+002 -1.784138e+001 4.622546e+001 -1.743779e+001 4.300854e+001 -1.390844e+001 -1.328796e+002
14300000000 -1.521211e+001 -1.478065e+002 -1.800609e+001 -4.058047e+000 -1.790518e+001 -8.785251e+000 -1.421007e+001 -1.639280e+002
14395000000 -1.534776e+001 -1.728529e+002 -1.851782e+001 -5.989504e+001 -1.823989e+001 -6.464332e+001 -1.421645e+001 -1.751544e+002
14490000000 -1.688430e+001 1.717249e+002 -1.971615e+001 -1.122177e+002 -2.004854e+001 -1.176350e+002 -1.830620e+001 1.757755e+002
14585000000 -1.658650e+001 1.527465e+002 -2.112281e+001 -1.605334e+002 -2.205458e+001 -1.603419e+002 -2.494746e+001 1.431762e+002
14680000000 -1.556125e+001 1.252936e+002 -2.199160e+001 1.598237e+002 -2.390131e+001 1.555813e+002 -2.621030e+001 1.018383e+002
14775000000 -1.700146e+001 8.243882e+001 -2.173820e+001 1.227946e+002 -2.371534e+001 1.180135e+002 -2.201826e+001 2.828675e+001
14870000000 -2.051257e+001 3.640940e+001 -2.390506e+001 8.709166e+001 -2.629891e+001 8.613708e+001 -1.676456e+001 -5.219814e+000
14965000000 -3.207710e+001 2.549512e+001 -2.210972e+001 6.250388e+001 -2.563691e+001 5.839305e+001 -1.983660e+001 -3.768065e+001
15060000000 -2.663622e+001 1.112279e+002 -2.060265e+001 1.205636e+001 -2.287600e+001 1.943161e+001 -1.750208e+001 -7.967043e+001
15155000000 -2.211711e+001 6.726140e+001 -1.912562e+001 -3.681308e+001 -2.087308e+001 -3.140660e+001 -1.420138e+001 -6.979887e+001
15250000000 -2.416918e+001 3.678577e+001 -1.963244e+001 -8.162313e+001 -2.109956e+001 -8.418261e+001 -1.747424e+001 -6.498203e+001
