!Agilent Technologies,N5230A,MY45001629,A.07.50.67
!Agilent N5230A: A.07.50.67
!Date: Monday, June 05, 2017 16:33:05
!Correction: S11(Full 2 Port(1,2)) 
!S21(Full 2 Port(1,2)) 
!S12(Full 2 Port(1,2)) 
!S22(Full 2 Port(1,2)) 
!S2P File: Measurements: S11, S21, S12, S22:
# Hz S  dB   R 50
1000000000 -2.215943e-001 5.255737e+001 -5.063968e+001 -1.265466e+001 -5.155648e+001 -1.611112e+001 -8.586954e-001 4.360102e+001
1095000000 -2.476820e-001 3.635798e+001 -4.283560e+001 -6.032149e+001 -4.319592e+001 -5.452079e+001 -1.094426e+000 2.651686e+001
1190000000 -3.990472e-001 1.801868e+001 -3.400690e+001 -1.086858e+002 -3.394672e+001 -1.077238e+002 -1.572595e+000 7.994796e+000
1285000000 -9.526436e-001 -2.167109e+000 -2.606233e+001 1.794169e+002 -2.600518e+001 1.795845e+002 -2.353073e+000 -9.709071e+000
1380000000 -1.446093e+000 -2.433231e+001 -2.097433e+001 1.025327e+002 -2.096029e+001 1.028636e+002 -2.545789e+000 -2.937123e+001
1475000000 -2.988711e+000 -5.651484e+001 -1.526210e+001 3.159820e+001 -1.522824e+001 3.169771e+001 -3.398476e+000 -6.163592e+001
1570000000 -8.850440e+000 -9.739381e+001 -1.059122e+001 -5.383380e+001 -1.059588e+001 -5.377873e+001 -8.633361e+000 -1.030620e+002
1665000000 -2.187347e+001 -3.933046e+001 -9.161852e+000 -1.444827e+002 -9.167103e+000 -1.444369e+002 -1.985653e+001 -8.364911e+001
1760000000 -1.252982e+001 -1.763671e+000 -1.000748e+001 1.378982e+002 -9.995771e+000 1.380991e+002 -1.681966e+001 -1.569394e+001
1855000000 -8.117415e+000 -2.921912e+001 -1.080105e+001 7.855170e+001 -1.077310e+001 7.850454e+001 -1.101901e+001 -3.321280e+001
1950000000 -7.803564e+000 -5.968710e+001 -1.026332e+001 2.229548e+001 -1.022428e+001 2.234940e+001 -9.479167e+000 -5.927581e+001
2045000000 -1.025380e+001 -7.713515e+001 -9.195538e+000 -3.808361e+001 -9.188936e+000 -3.813087e+001 -1.123703e+001 -7.980562e+001
2140000000 -1.125496e+001 -7.710257e+001 -8.572865e+000 -9.823348e+001 -8.554787e+000 -9.839577e+001 -1.220461e+001 -7.528804e+001
2235000000 -9.755477e+000 -8.698158e+001 -8.508770e+000 -1.596988e+002 -8.502439e+000 -1.598909e+002 -1.047534e+001 -8.459073e+001
2330000000 -1.010472e+001 -1.102036e+002 -8.723134e+000 1.451796e+002 -8.749974e+000 1.451760e+002 -9.895217e+000 -1.059716e+002
2425000000 -1.267699e+001 -1.240431e+002 -8.452503e+000 8.892567e+001 -8.439760e+000 8.908421e+001 -1.145658e+001 -1.181564e+002
2520000000 -1.433532e+001 -1.280122e+002 -8.435115e+000 3.403313e+001 -8.415854e+000 3.412689e+001 -1.267629e+001 -1.281434e+002
2615000000 -1.622761e+001 -1.370199e+002 -8.376019e+000 -2.064613e+001 -8.341589e+000 -2.061472e+001 -1.365398e+001 -1.411009e+002
2710000000 -2.040052e+001 -1.171299e+002 -8.616398e+000 -7.506467e+001 -8.589966e+000 -7.522596e+001 -1.783287e+001 -1.348293e+002
2805000000 -1.591126e+001 -9.260789e+001 -8.715279e+000 -1.272570e+002 -8.702292e+000 -1.274475e+002 -1.674396e+001 -1.122935e+002
2900000000 -1.229437e+001 -1.123032e+002 -8.979884e+000 -1.774238e+002 -8.955441e+000 -1.776826e+002 -1.224930e+001 -1.164976e+002
2995000000 -1.223541e+001 -1.369061e+002 -8.662844e+000 1.336898e+002 -8.686085e+000 1.335686e+002 -1.166072e+001 -1.375409e+002
3090000000 -1.588354e+001 -1.471516e+002 -8.168279e+000 8.147222e+001 -8.199561e+000 8.157088e+001 -1.359566e+001 -1.479041e+002
3185000000 -1.605948e+001 -1.092815e+002 -8.008904e+000 2.720743e+001 -8.014188e+000 2.720981e+001 -1.423438e+001 -1.251495e+002
3280000000 -1.015200e+001 -1.151771e+002 -8.316916e+000 -2.643865e+001 -8.338762e+000 -2.633466e+001 -9.522277e+000 -1.333848e+002
3375000000 -7.948982e+000 -1.415086e+002 -8.784112e+000 -7.701273e+001 -8.801369e+000 -7.692327e+001 -7.933817e+000 -1.539583e+002
3470000000 -7.749949e+000 -1.636945e+002 -8.976480e+000 -1.249022e+002 -8.971766e+000 -1.248644e+002 -8.267375e+000 -1.769299e+002
3565000000 -8.388363e+000 1.787285e+002 -8.871449e+000 -1.739899e+002 -8.904906e+000 -1.738756e+002 -9.464279e+000 1.701812e+002
3660000000 -9.479185e+000 1.640143e+002 -8.676545e+000 1.374805e+002 -8.695683e+000 1.375615e+002 -1.053741e+001 1.658884e+002
3755000000 -1.084730e+001 1.519247e+002 -8.395951e+000 8.700095e+001 -8.412610e+000 8.707652e+001 -1.066089e+001 1.572868e+002
3850000000 -1.364746e+001 1.461290e+002 -8.258678e+000 3.510771e+001 -8.262728e+000 3.514814e+001 -1.178801e+001 1.501447e+002
3945000000 -1.548524e+001 1.605886e+002 -8.246568e+000 -1.713522e+001 -8.245172e+000 -1.708747e+001 -1.224694e+001 1.465058e+002
4040000000 -1.325397e+001 1.670706e+002 -8.553208e+000 -6.872575e+001 -8.552710e+000 -6.886707e+001 -1.160253e+001 1.381254e+002
4135000000 -1.275957e+001 1.579789e+002 -8.713514e+000 -1.216705e+002 -8.699614e+000 -1.215882e+002 -1.339677e+001 1.156200e+002
4230000000 -1.331485e+001 1.595166e+002 -9.591331e+000 -1.755020e+002 -9.582495e+000 -1.752948e+002 -2.125233e+001 1.242418e+002
4325000000 -1.131269e+001 1.590442e+002 -1.100326e+001 1.367582e+002 -1.100167e+001 1.367357e+002 -1.591115e+001 1.684337e+002
4420000000 -1.001851e+001 1.470855e+002 -1.181469e+001 9.420190e+001 -1.178862e+001 9.422546e+001 -1.253880e+001 1.555274e+002
4515000000 -9.811179e+000 1.345011e+002 -1.185561e+001 5.062979e+001 -1.183156e+001 5.083917e+001 -1.056294e+001 1.414838e+002
4610000000 -9.745591e+000 1.243766e+002 -1.169152e+001 4.685513e+000 -1.168448e+001 4.883590e+000 -9.542261e+000 1.220209e+002
4705000000 -9.932955e+000 1.143351e+002 -1.165698e+001 -4.276764e+001 -1.161551e+001 -4.282065e+001 -8.823439e+000 9.848542e+001
4800000000 -1.009832e+001 1.022605e+002 -1.170372e+001 -9.085911e+001 -1.165621e+001 -9.072112e+001 -1.004347e+001 7.358173e+001
4895000000 -1.083349e+001 9.105726e+001 -1.175352e+001 -1.396576e+002 -1.173158e+001 -1.395821e+002 -1.148165e+001 4.730022e+001
4990000000 -1.195378e+001 7.978174e+001 -1.211366e+001 1.712330e+002 -1.207666e+001 1.714850e+002 -1.506379e+001 2.168481e+001
5085000000 -1.364197e+001 6.963853e+001 -1.262598e+001 1.233940e+002 -1.258769e+001 1.235343e+002 -2.090358e+001 6.226317e+000
5180000000 -1.586109e+001 6.820676e+001 -1.318959e+001 7.802951e+001 -1.315801e+001 7.814262e+001 -3.190957e+001 4.649316e+001
5275000000 -1.776334e+001 7.936359e+001 -1.322336e+001 3.326403e+001 -1.319649e+001 3.302001e+001 -2.403584e+001 8.381844e+001
5370000000 -1.625273e+001 8.498697e+001 -1.364517e+001 -1.296995e+001 -1.362209e+001 -1.334189e+001 -1.827862e+001 6.149311e+001
5465000000 -1.549211e+001 7.564674e+001 -1.381276e+001 -5.668726e+001 -1.377679e+001 -5.702468e+001 -1.650108e+001 3.015174e+001
5560000000 -1.637499e+001 6.814710e+001 -1.375767e+001 -1.012969e+002 -1.367843e+001 -1.014291e+002 -1.759169e+001 -5.525537e+000
5655000000 -1.654719e+001 7.221283e+001 -1.329984e+001 -1.494492e+002 -1.333301e+001 -1.494922e+002 -2.099252e+001 -3.804864e+001
5750000000 -1.401036e+001 6.503317e+001 -1.355610e+001 1.603782e+002 -1.349892e+001 1.606741e+002 -2.764707e+001 -2.201400e+001
5845000000 -1.313714e+001 3.854527e+001 -1.438800e+001 1.111976e+002 -1.433880e+001 1.112762e+002 -2.191146e+001 -7.522308e+000
5940000000 -1.399834e+001 5.163574e+000 -1.524777e+001 6.878442e+001 -1.522151e+001 6.830970e+001 -1.797038e+001 -3.157519e+001
6035000000 -1.657584e+001 -2.926949e+001 -1.579049e+001 2.754567e+001 -1.578961e+001 2.661496e+001 -1.601107e+001 -6.441105e+001
6130000000 -1.829453e+001 -8.152342e+001 -1.561908e+001 -1.036143e+001 -1.561299e+001 -1.089468e+001 -1.608545e+001 -1.039664e+002
6225000000 -1.830463e+001 -1.552836e+002 -1.505238e+001 -5.229190e+001 -1.503495e+001 -5.294402e+001 -1.802283e+001 -1.372960e+002
6320000000 -1.731600e+001 1.363763e+002 -1.399305e+001 -9.737164e+001 -1.403057e+001 -9.742837e+001 -2.735099e+001 -1.635862e+002
6415000000 -1.885994e+001 8.483177e+001 -1.339117e+001 -1.463429e+002 -1.335778e+001 -1.465000e+002 -2.810429e+001 -7.030817e+001
6510000000 -2.627647e+001 4.879076e+001 -1.336030e+001 1.647587e+002 -1.331235e+001 1.644527e+002 -1.850761e+001 -8.459563e+001
6605000000 -2.930542e+001 1.177974e+002 -1.317804e+001 1.170549e+002 -1.313170e+001 1.171692e+002 -1.620874e+001 -1.169569e+002
6700000000 -2.301443e+001 1.120041e+002 -1.300443e+001 6.886897e+001 -1.300960e+001 6.900195e+001 -1.652798e+001 -1.442492e+002
6795000000 -2.145431e+001 7.739067e+001 -1.299570e+001 2.201895e+001 -1.303087e+001 2.197848e+001 -1.969924e+001 -1.615788e+002
6890000000 -2.417930e+001 2.992561e+001 -1.302007e+001 -2.475702e+001 -1.309132e+001 -2.524245e+001 -2.188811e+001 -1.373483e+002
6985000000 -2.685457e+001 -6.811007e+001 -1.299311e+001 -7.121825e+001 -1.303056e+001 -7.188279e+001 -1.727892e+001 -1.289497e+002
7080000000 -2.107480e+001 -1.404246e+002 -1.291000e+001 -1.199735e+002 -1.284773e+001 -1.201613e+002 -1.356447e+001 -1.429934e+002
7175000000 -1.719290e+001 -1.797524e+002 -1.309624e+001 -1.680050e+002 -1.301762e+001 -1.675916e+002 -1.241920e+001 -1.658076e+002
7270000000 -1.533269e+001 1.561449e+002 -1.326364e+001 1.446939e+002 -1.326090e+001 1.450857e+002 -1.172825e+001 1.751249e+002
7365000000 -1.477582e+001 1.361282e+002 -1.341645e+001 9.905048e+001 -1.351036e+001 9.916904e+001 -1.163618e+001 1.573852e+002
7460000000 -1.518961e+001 1.222504e+002 -1.358093e+001 5.421146e+001 -1.368024e+001 5.394542e+001 -1.213029e+001 1.441849e+002
7555000000 -1.528288e+001 1.197682e+002 -1.340481e+001 1.016985e+001 -1.339577e+001 9.696680e+000 -1.267102e+001 1.320498e+002
7650000000 -1.449870e+001 1.141276e+002 -1.312110e+001 -3.610410e+001 -1.299833e+001 -3.607442e+001 -1.263408e+001 1.277454e+002
7745000000 -1.352594e+001 1.036252e+002 -1.269964e+001 -8.472915e+001 -1.270635e+001 -8.483244e+001 -1.285213e+001 1.144863e+002
7840000000 -1.420697e+001 9.224642e+001 -1.261743e+001 -1.334166e+002 -1.261586e+001 -1.325904e+002 -1.266164e+001 1.125291e+002
7935000000 -1.502957e+001 9.078089e+001 -1.259088e+001 1.799689e+002 -1.259785e+001 1.793912e+002 -1.277987e+001 1.049629e+002
8030000000 -1.431429e+001 8.972337e+001 -1.250535e+001 1.319545e+002 -1.244367e+001 1.310194e+002 -1.174346e+001 9.781829e+001
8125000000 -1.354815e+001 7.822402e+001 -1.247098e+001 8.225133e+001 -1.246074e+001 8.193166e+001 -1.172938e+001 8.488145e+001
8220000000 -1.554987e+001 6.477318e+001 -1.268335e+001 3.173631e+001 -1.264986e+001 3.192988e+001 -1.203944e+001 7.543782e+001
8315000000 -1.817288e+001 8.145120e+001 -1.307545e+001 -1.627250e+001 -1.313843e+001 -1.577908e+001 -1.285326e+001 7.042705e+001
8410000000 -1.479488e+001 9.673254e+001 -1.361447e+001 -6.233382e+001 -1.355732e+001 -6.207264e+001 -1.213466e+001 6.655721e+001
8505000000 -1.204158e+001 8.214075e+001 -1.375289e+001 -1.071781e+002 -1.380619e+001 -1.070631e+002 -1.143019e+001 5.777380e+001
8600000000 -1.162550e+001 6.207426e+001 -1.352869e+001 -1.521611e+002 -1.358324e+001 -1.523229e+002 -1.010637e+001 4.031116e+001
8695000000 -1.346814e+001 5.127504e+001 -1.338944e+001 1.600757e+002 -1.341322e+001 1.600295e+002 -1.162392e+001 2.630602e+001
8790000000 -1.378075e+001 5.090466e+001 -1.340893e+001 1.110444e+002 -1.326627e+001 1.104589e+002 -1.161736e+001 1.410388e+001
8885000000 -1.263187e+001 4.154124e+001 -1.357488e+001 5.892873e+001 -1.348528e+001 5.910021e+001 -1.173995e+001 7.646812e+000
8980000000 -1.417325e+001 1.818702e+001 -1.433802e+001 8.952472e+000 -1.436544e+001 9.469002e+000 -1.070470e+001 -9.929853e+000
9075000000 -1.923523e+001 -7.468757e+000 -1.512649e+001 -3.478659e+001 -1.523629e+001 -3.440280e+001 -1.191522e+001 -3.269303e+001
9170000000 -2.439448e+001 7.916308e+001 -1.511464e+001 -7.633909e+001 -1.519210e+001 -7.692744e+001 -1.416974e+001 -5.467986e+001
9265000000 -1.657124e+001 6.293858e+001 -1.470036e+001 -1.241241e+002 -1.460053e+001 -1.246441e+002 -1.693016e+001 -4.749842e+001
9360000000 -1.734059e+001 2.809584e+001 -1.500416e+001 -1.766810e+002 -1.490743e+001 -1.770777e+002 -1.437395e+001 -5.343558e+001
9455000000 -2.864499e+001 3.564471e+001 -1.585156e+001 1.333815e+002 -1.585668e+001 1.335398e+002 -1.403628e+001 -7.810906e+001
9550000000 -1.954321e+001 1.077834e+002 -1.660678e+001 8.849197e+001 -1.673257e+001 8.758797e+001 -1.488349e+001 -1.085635e+002
9645000000 -1.467669e+001 7.842339e+001 -1.678308e+001 4.826136e+001 -1.681260e+001 4.740470e+001 -1.987955e+001 -1.202966e+002
9740000000 -1.586666e+001 4.663056e+001 -1.663920e+001 -1.681354e+000 -1.646926e+001 -1.675649e+000 -1.907985e+001 -9.276635e+001
9835000000 -2.698099e+001 5.453159e+001 -1.737620e+001 -5.493679e+001 -1.713931e+001 -5.518699e+001 -1.426876e+001 -1.064023e+002
9930000000 -1.665114e+001 1.216869e+002 -1.863242e+001 -1.005999e+002 -1.872055e+001 -9.933276e+001 -1.245536e+001 -1.404970e+002
10025000000 -1.187503e+001 1.020164e+002 -1.892738e+001 -1.416847e+002 -1.912920e+001 -1.400045e+002 -1.342335e+001 -1.649772e+002
10120000000 -1.066868e+001 8.584956e+001 -1.867477e+001 1.721347e+002 -1.869691e+001 1.718163e+002 -1.430754e+001 1.720007e+002
10215000000 -9.582824e+000 8.267432e+001 -1.943194e+001 1.209728e+002 -1.945822e+001 1.188564e+002 -1.684048e+001 1.692652e+002
10310000000 -7.207459e+000 7.429171e+001 -2.184609e+001 7.224948e+001 -2.149980e+001 7.055645e+001 -1.644477e+001 1.532245e+002
10405000000 -5.928627e+000 5.650631e+001 -2.325029e+001 3.572885e+001 -2.295477e+001 3.758894e+001 -1.903955e+001 1.409649e+002
10500000000 -5.732883e+000 4.299894e+001 -2.254476e+001 -3.528226e+000 -2.232254e+001 -4.387704e-001 -2.253989e+001 1.265221e+002
10595000000 -5.246641e+000 3.548190e+001 -2.139738e+001 -4.963631e+001 -2.186905e+001 -5.600270e+001 -2.471014e+001 -1.763966e+002
10690000000 -3.885282e+000 2.406657e+001 -2.531485e+001 -1.145423e+002 -2.471633e+001 -1.099478e+002 -1.966568e+001 -1.638599e+002
10785000000 -2.914202e+000 3.470118e+000 -2.838802e+001 -1.367964e+002 -3.071008e+001 -1.458594e+002 -1.455928e+001 -1.746052e+002
10880000000 -3.241775e+000 -2.065869e+001 -2.976365e+001 -1.149000e+002 -2.970002e+001 -1.230154e+002 -1.493836e+001 1.609541e+002
10975000000 -4.783033e+000 -4.003004e+001 -2.347572e+001 -1.709399e+002 -2.381240e+001 -1.657236e+002 -1.644945e+001 1.505641e+002
11070000000 -6.277597e+000 -5.669338e+001 -2.048216e+001 1.427912e+002 -2.077295e+001 1.377614e+002 -1.538170e+001 1.707581e+002
11165000000 -8.336900e+000 -7.893038e+001 -2.036952e+001 7.803393e+001 -2.011828e+001 8.166770e+001 -1.112045e+001 1.558268e+002
11260000000 -1.301224e+001 -1.035911e+002 -1.988696e+001 3.583813e+001 -2.053392e+001 3.286573e+001 -1.069025e+001 1.337121e+002
11355000000 -2.162385e+001 -1.068203e+002 -2.133643e+001 -9.314998e+000 -2.070988e+001 -1.011061e+001 -1.116583e+001 1.168731e+002
11450000000 -2.811665e+001 -5.852676e+001 -1.956159e+001 -4.520918e+001 -1.942762e+001 -5.239291e+001 -1.171329e+001 1.140401e+002
11545000000 -3.419123e+001 2.464153e+001 -1.810952e+001 -1.065885e+002 -1.879781e+001 -1.062720e+002 -1.156458e+001 1.008591e+002
11640000000 -2.043117e+001 4.523133e+001 -1.781306e+001 -1.536370e+002 -1.866053e+001 -1.566226e+002 -1.135433e+001 9.770150e+001
11735000000 -1.504085e+001 2.560143e+001 -1.810747e+001 1.509878e+002 -1.818718e+001 1.572903e+002 -1.115032e+001 7.902854e+001
11830000000 -1.421437e+001 7.605495e+000 -1.842225e+001 1.050914e+002 -1.885031e+001 1.048068e+002 -1.082695e+001 7.518012e+001
11925000000 -1.375270e+001 -7.219629e-001 -1.965743e+001 6.633942e+001 -2.021646e+001 5.777314e+001 -1.271144e+001 6.667751e+001
12020000000 -1.362381e+001 -1.056432e+001 -2.053403e+001 1.323131e+001 -2.003738e+001 1.929218e+001 -1.034169e+001 5.513083e+001
12115000000 -1.437877e+001 -1.982725e+001 -1.900871e+001 -2.977040e+001 -1.915073e+001 -2.638640e+001 -1.178593e+001 3.921633e+001
12210000000 -1.618993e+001 -1.908656e+001 -1.837537e+001 -7.381464e+001 -1.856350e+001 -7.483823e+001 -1.163825e+001 4.704758e+001
12305000000 -1.664150e+001 3.838782e+000 -1.905997e+001 -1.159181e+002 -1.879404e+001 -1.245271e+002 -1.189450e+001 3.873446e+001
12400000000 -1.315186e+001 9.000821e+000 -1.957878e+001 -1.731208e+002 -1.877344e+001 -1.764039e+002 -9.434702e+000 3.398998e+001
12495000000 -1.035322e+001 -3.679528e+000 -1.847813e+001 1.359041e+002 -1.945234e+001 1.353786e+002 -9.736888e+000 1.787085e+001
12590000000 -9.996035e+000 -1.878396e+001 -1.857862e+001 8.943803e+001 -1.990372e+001 8.620754e+001 -8.677905e+000 3.399408e+000
12685000000 -1.073569e+001 -2.493675e+001 -1.998978e+001 4.864999e+001 -2.170876e+001 4.615500e+001 -1.079359e+001 4.255736e+000
12780000000 -1.048022e+001 -2.488973e+001 -2.096285e+001 9.276872e+000 -2.183999e+001 8.636685e-001 -9.993790e+000 -5.316849e+000
12875000000 -8.684109e+000 -3.182705e+001 -1.995999e+001 -3.373541e+001 -2.100923e+001 -4.102608e+001 -9.040681e+000 -1.811897e+001
12970000000 -8.012920e+000 -4.556857e+001 -1.943815e+001 -7.919361e+001 -2.062169e+001 -8.477091e+001 -8.038109e+000 -2.349708e+001
13065000000 -8.647788e+000 -6.164524e+001 -1.951833e+001 -1.333756e+002 -2.071968e+001 -1.349673e+002 -9.414542e+000 -3.940955e+001
13160000000 -9.486431e+000 -6.478496e+001 -2.119862e+001 -1.793877e+002 -2.265285e+001 1.762490e+002 -9.173903e+000 -4.267245e+001
13255000000 -9.270488e+000 -6.883324e+001 -2.214271e+001 1.483681e+002 -2.424890e+001 1.420126e+002 -9.545247e+000 -4.589735e+001
13350000000 -8.196363e+000 -8.058330e+001 -2.123289e+001 1.100618e+002 -2.275737e+001 1.058910e+002 -8.622067e+000 -6.438715e+001
13445000000 -8.097229e+000 -9.692551e+001 -2.046210e+001 6.309314e+001 -2.193284e+001 5.972516e+001 -7.946755e+000 -7.063098e+001
13540000000 -9.384251e+000 -1.165043e+002 -2.031943e+001 1.395442e+001 -2.108294e+001 1.488811e+001 -8.518000e+000 -7.013381e+001
13635000000 -1.126634e+001 -1.278568e+002 -2.079136e+001 -2.944228e+001 -2.097878e+001 -2.603104e+001 -1.038577e+001 -8.411501e+001
13730000000 -1.372277e+001 -1.320499e+002 -2.037949e+001 -7.536166e+001 -2.083472e+001 -7.355588e+001 -8.540379e+000 -1.033277e+002
13825000000 -1.579522e+001 -1.342193e+002 -1.940778e+001 -1.185102e+002 -1.985796e+001 -1.125234e+002 -9.095833e+000 -1.072088e+002
13920000000 -1.582556e+001 -1.341770e+002 -1.804088e+001 -1.668568e+002 -1.810316e+001 -1.617393e+002 -1.071278e+001 -1.133745e+002
14015000000 -1.816429e+001 -1.388086e+002 -1.726698e+001 1.411530e+002 -1.742089e+001 1.435712e+002 -1.288294e+001 -1.339934e+002
14110000000 -1.897490e+001 -1.320122e+002 -1.643908e+001 8.715240e+001 -1.734027e+001 9.138115e+001 -1.211687e+001 -1.331035e+002
14205000000 -1.609470e+001 -1.272604e+002 -1.680929e+001 3.355442e+001 -1.724231e+001 3.841827e+001 -1.302532e+001 -1.375005e+002
14300000000 -1.487991e+001 -1.487897e+002 -1.695363e+001 -1.592194e+001 -1.722300e+001 -1.238818e+001 -1.348700e+001 -1.562320e+002
14395000000 -1.521772e+001 -1.758518e+002 -1.743191e+001 -7.117332e+001 -1.806658e+001 -6.471170e+001 -1.523900e+001 -1.684828e+002
14490000000 -1.675574e+001 1.701495e+002 -1.828861e+001 -1.286080e+002 -1.947634e+001 -1.228825e+002 -2.016329e+001 1.725691e+002
14585000000 -1.664035e+001 1.526099e+002 -2.084985e+001 -1.751585e+002 -2.134410e+001 -1.656008e+002 -2.327846e+001 1.238791e+002
14680000000 -1.577416e+001 1.240985e+002 -2.191830e+001 1.496394e+002 -2.272573e+001 1.548302e+002 -2.131971e+001 1.114590e+002
14775000000 -1.663061e+001 8.032838e+001 -2.225171e+001 1.003140e+002 -2.413737e+001 1.132356e+002 -2.632160e+001 6.049343e+001
14870000000 -2.089850e+001 3.281561e+001 -2.459853e+001 7.232856e+001 -2.441468e+001 8.081993e+001 -1.839234e+001 -1.735410e+001
14965000000 -3.537309e+001 -6.464287e+000 -2.359930e+001 3.825972e+001 -2.353174e+001 5.339202e+001 -1.682950e+001 -3.641795e+001
15060000000 -2.685999e+001 1.159421e+002 -2.248947e+001 -3.960568e+000 -2.150653e+001 4.918838e+000 -2.036744e+001 -4.565648e+001
15155000000 -2.189660e+001 7.278264e+001 -2.128711e+001 -4.894540e+001 -2.170798e+001 -4.513885e+001 -1.740026e+001 -6.981734e+001
15250000000 -2.402749e+001 4.487554e+001 -2.117505e+001 -1.003542e+002 -2.062203e+001 -9.372057e+001 -1.548145e+001 -9.315528e+001
