!Agilent Technologies,N5230A,MY45001629,A.07.50.67
!Agilent N5230A: A.07.50.67
!Date: Monday, June 05, 2017 16:28:38
!Correction: S11(Full 2 Port(1,2)) 
!S21(Full 2 Port(1,2)) 
!S12(Full 2 Port(1,2)) 
!S22(Full 2 Port(1,2)) 
!S2P File: Measurements: S11, S21, S12, S22:
# Hz S  dB   R 50
1000000000 -2.210561e-001 5.263797e+001 -5.015967e+001 -1.975173e+001 -5.137327e+001 -1.041562e+001 -8.700383e-001 4.356327e+001
1095000000 -2.465724e-001 3.645144e+001 -4.408902e+001 -5.536893e+001 -4.330347e+001 -5.446391e+001 -1.105612e+000 2.641390e+001
1190000000 -3.985281e-001 1.811875e+001 -3.399180e+001 -1.079512e+002 -3.394126e+001 -1.071522e+002 -1.559599e+000 7.984846e+000
1285000000 -9.525004e-001 -2.114964e+000 -2.605773e+001 -1.799649e+002 -2.590336e+001 1.798885e+002 -2.343613e+000 -9.751821e+000
1380000000 -1.446815e+000 -2.414125e+001 -2.099385e+001 1.025527e+002 -2.091527e+001 1.027871e+002 -2.543490e+000 -2.916880e+001
1475000000 -2.958623e+000 -5.654499e+001 -1.521400e+001 3.133871e+001 -1.518044e+001 3.118544e+001 -3.408856e+000 -6.138742e+001
1570000000 -8.888069e+000 -9.736829e+001 -1.066387e+001 -5.378022e+001 -1.064571e+001 -5.405521e+001 -8.562440e+000 -1.029185e+002
1665000000 -2.175205e+001 -4.057236e+001 -9.178468e+000 -1.437263e+002 -9.173593e+000 -1.437917e+002 -1.982358e+001 -8.293034e+001
1760000000 -1.263886e+001 -1.152553e+000 -9.925076e+000 1.389748e+002 -9.946244e+000 1.388320e+002 -1.684066e+001 -1.650958e+001
1855000000 -8.090384e+000 -2.874837e+001 -1.072638e+001 7.867678e+001 -1.075199e+001 7.854862e+001 -1.100237e+001 -3.220670e+001
1950000000 -7.798306e+000 -5.956261e+001 -1.024518e+001 2.234519e+001 -1.025545e+001 2.250821e+001 -9.453634e+000 -5.886321e+001
2045000000 -1.024619e+001 -7.708877e+001 -9.226611e+000 -3.775236e+001 -9.229064e+000 -3.768154e+001 -1.121170e+001 -8.029890e+001
2140000000 -1.126259e+001 -7.712277e+001 -8.595366e+000 -9.807169e+001 -8.563638e+000 -9.814396e+001 -1.236573e+001 -7.494989e+001
2235000000 -9.751108e+000 -8.665678e+001 -8.523348e+000 -1.594234e+002 -8.500396e+000 -1.593457e+002 -1.051857e+001 -8.474597e+001
2330000000 -1.010611e+001 -1.099866e+002 -8.703112e+000 1.455795e+002 -8.691852e+000 1.454489e+002 -1.006931e+001 -1.059830e+002
2425000000 -1.266861e+001 -1.241573e+002 -8.448200e+000 8.957084e+001 -8.432453e+000 8.963918e+001 -1.145862e+001 -1.182266e+002
2520000000 -1.432855e+001 -1.279760e+002 -8.382040e+000 3.480610e+001 -8.383114e+000 3.477666e+001 -1.289246e+001 -1.284668e+002
2615000000 -1.618720e+001 -1.365804e+002 -8.330063e+000 -1.997155e+001 -8.321830e+000 -2.008445e+001 -1.359299e+001 -1.407067e+002
2710000000 -2.032318e+001 -1.175500e+002 -8.556436e+000 -7.460641e+001 -8.544422e+000 -7.474327e+001 -1.793092e+001 -1.324992e+002
2805000000 -1.591176e+001 -9.226312e+001 -8.647928e+000 -1.271474e+002 -8.654591e+000 -1.270959e+002 -1.630057e+001 -1.118563e+002
2900000000 -1.229052e+001 -1.123890e+002 -8.947786e+000 -1.773669e+002 -8.950881e+000 -1.774046e+002 -1.214300e+001 -1.161432e+002
2995000000 -1.226569e+001 -1.368094e+002 -8.642204e+000 1.337576e+002 -8.618196e+000 1.337907e+002 -1.150494e+001 -1.373575e+002
3090000000 -1.598522e+001 -1.475296e+002 -8.129470e+000 8.187202e+001 -8.123005e+000 8.178871e+001 -1.370335e+001 -1.495363e+002
3185000000 -1.610258e+001 -1.081797e+002 -7.925658e+000 2.741973e+001 -7.915829e+000 2.738738e+001 -1.435467e+001 -1.234985e+002
3280000000 -1.011186e+001 -1.146124e+002 -8.278967e+000 -2.632209e+001 -8.269539e+000 -2.620510e+001 -9.379284e+000 -1.322861e+002
3375000000 -7.891137e+000 -1.411681e+002 -8.740002e+000 -7.696014e+001 -8.752923e+000 -7.679163e+001 -7.760946e+000 -1.531456e+002
3470000000 -7.712925e+000 -1.635924e+002 -8.930921e+000 -1.245520e+002 -8.924345e+000 -1.245437e+002 -8.179227e+000 -1.766843e+002
3565000000 -8.403200e+000 1.788058e+002 -8.838699e+000 -1.738816e+002 -8.858872e+000 -1.737450e+002 -9.211173e+000 1.696196e+002
3660000000 -9.531827e+000 1.638989e+002 -8.657795e+000 1.378156e+002 -8.648619e+000 1.379045e+002 -1.063015e+001 1.632006e+002
3755000000 -1.088976e+001 1.523725e+002 -8.348265e+000 8.744861e+001 -8.320860e+000 8.751900e+001 -1.089053e+001 1.572752e+002
3850000000 -1.367180e+001 1.468174e+002 -8.201368e+000 3.557084e+001 -8.168722e+000 3.567666e+001 -1.198584e+001 1.512143e+002
3945000000 -1.547969e+001 1.617121e+002 -8.140939e+000 -1.680986e+001 -8.154561e+000 -1.669174e+001 -1.246882e+001 1.488856e+002
4040000000 -1.327566e+001 1.678176e+002 -8.431500e+000 -6.848388e+001 -8.411769e+000 -6.861501e+001 -1.152560e+001 1.399940e+002
4135000000 -1.273199e+001 1.590183e+002 -8.622216e+000 -1.213833e+002 -8.597778e+000 -1.212478e+002 -1.298300e+001 1.176450e+002
4230000000 -1.313092e+001 1.592538e+002 -9.480589e+000 -1.754349e+002 -9.469031e+000 -1.753106e+002 -2.003213e+001 1.180365e+002
4325000000 -1.131557e+001 1.586281e+002 -1.086263e+001 1.368905e+002 -1.083370e+001 1.367912e+002 -1.590294e+001 1.656724e+002
4420000000 -1.012744e+001 1.470663e+002 -1.172872e+001 9.399104e+001 -1.167429e+001 9.395369e+001 -1.287621e+001 1.549342e+002
4515000000 -9.886579e+000 1.350691e+002 -1.179124e+001 5.114801e+001 -1.175650e+001 5.116346e+001 -1.098922e+001 1.430538e+002
4610000000 -9.889775e+000 1.249579e+002 -1.149323e+001 5.008895e+000 -1.144642e+001 5.064633e+000 -9.738282e+000 1.239019e+002
4705000000 -9.961159e+000 1.161157e+002 -1.153330e+001 -4.321476e+001 -1.149399e+001 -4.338663e+001 -8.724651e+000 1.003027e+002
4800000000 -9.961882e+000 1.032941e+002 -1.160031e+001 -9.146210e+001 -1.152864e+001 -9.141409e+001 -9.795186e+000 7.532258e+001
4895000000 -1.064521e+001 9.156475e+001 -1.167628e+001 -1.403898e+002 -1.165399e+001 -1.404308e+002 -1.127396e+001 4.921035e+001
4990000000 -1.180979e+001 7.943880e+001 -1.216471e+001 1.706594e+002 -1.213945e+001 1.706436e+002 -1.437338e+001 2.250866e+001
5085000000 -1.363876e+001 6.903587e+001 -1.257755e+001 1.231014e+002 -1.251227e+001 1.231188e+002 -1.934949e+001 -2.650082e+000
5180000000 -1.609478e+001 6.838914e+001 -1.309891e+001 7.737533e+001 -1.309363e+001 7.747299e+001 -3.462631e+001 1.455748e+001
5275000000 -1.780092e+001 8.075737e+001 -1.321969e+001 3.266585e+001 -1.320106e+001 3.237788e+001 -2.496844e+001 8.782711e+001
5370000000 -1.621977e+001 8.609762e+001 -1.357722e+001 -1.370701e+001 -1.360323e+001 -1.429714e+001 -1.863570e+001 6.785963e+001
5465000000 -1.539235e+001 7.729282e+001 -1.385799e+001 -5.744858e+001 -1.387462e+001 -5.830159e+001 -1.656944e+001 3.602157e+001
5560000000 -1.619309e+001 6.999841e+001 -1.395209e+001 -1.022679e+002 -1.388024e+001 -1.025056e+002 -1.731084e+001 -1.602455e+000
5655000000 -1.622465e+001 7.175537e+001 -1.357342e+001 -1.498623e+002 -1.358437e+001 -1.496049e+002 -2.028849e+001 -3.103329e+001
5750000000 -1.403453e+001 6.412242e+001 -1.373995e+001 1.611253e+002 -1.372136e+001 1.612761e+002 -2.469781e+001 -2.364887e+001
5845000000 -1.326243e+001 3.827718e+001 -1.449279e+001 1.120288e+002 -1.440425e+001 1.119916e+002 -2.152483e+001 -2.249026e+001
5940000000 -1.417557e+001 5.666397e+000 -1.527223e+001 6.952963e+001 -1.527027e+001 6.903085e+001 -1.903186e+001 -3.939982e+001
6035000000 -1.670372e+001 -2.909406e+001 -1.573213e+001 2.815096e+001 -1.571992e+001 2.752404e+001 -1.645741e+001 -6.687846e+001
6130000000 -1.848056e+001 -8.126299e+001 -1.557635e+001 -1.008872e+001 -1.561699e+001 -1.079974e+001 -1.622012e+001 -1.036817e+002
6225000000 -1.853545e+001 -1.548633e+002 -1.498653e+001 -5.286177e+001 -1.496820e+001 -5.349124e+001 -1.853045e+001 -1.369485e+002
6320000000 -1.737491e+001 1.378414e+002 -1.405956e+001 -9.771140e+001 -1.410456e+001 -9.771980e+001 -2.894995e+001 -1.591365e+002
6415000000 -1.877831e+001 8.784973e+001 -1.345589e+001 -1.464622e+002 -1.340724e+001 -1.466759e+002 -2.807395e+001 -6.431184e+001
6510000000 -2.510984e+001 5.414734e+001 -1.345777e+001 1.642729e+002 -1.342493e+001 1.641305e+002 -1.809430e+001 -8.400215e+001
6605000000 -2.991605e+001 1.065980e+002 -1.335049e+001 1.171430e+002 -1.333769e+001 1.171955e+002 -1.588214e+001 -1.145836e+002
6700000000 -2.409378e+001 1.122284e+002 -1.315531e+001 6.934449e+001 -1.317949e+001 6.978343e+001 -1.619931e+001 -1.453502e+002
6795000000 -2.238061e+001 8.147609e+001 -1.314010e+001 2.243856e+001 -1.319689e+001 2.252801e+001 -1.914135e+001 -1.630302e+002
6890000000 -2.498132e+001 3.666912e+001 -1.321641e+001 -2.412412e+001 -1.327069e+001 -2.446603e+001 -2.238808e+001 -1.393502e+002
6985000000 -2.842487e+001 -6.810394e+001 -1.316355e+001 -6.974236e+001 -1.317676e+001 -7.022314e+001 -1.756207e+001 -1.304476e+002
7080000000 -2.163986e+001 -1.415613e+002 -1.301325e+001 -1.181544e+002 -1.295208e+001 -1.182848e+002 -1.381116e+001 -1.414399e+002
7175000000 -1.757059e+001 -1.788474e+002 -1.307827e+001 -1.663788e+002 -1.301383e+001 -1.660653e+002 -1.261725e+001 -1.655684e+002
7270000000 -1.556573e+001 1.585666e+002 -1.318586e+001 1.464897e+002 -1.319297e+001 1.466016e+002 -1.165290e+001 1.768861e+002
7365000000 -1.488273e+001 1.381573e+002 -1.329431e+001 1.006325e+002 -1.340567e+001 1.007706e+002 -1.177083e+001 1.585874e+002
7460000000 -1.507183e+001 1.252241e+002 -1.338862e+001 5.498094e+001 -1.342634e+001 5.509856e+001 -1.182917e+001 1.455240e+002
7555000000 -1.498962e+001 1.207796e+002 -1.326997e+001 9.937441e+000 -1.324245e+001 9.493096e+000 -1.232968e+001 1.321762e+002
7650000000 -1.428288e+001 1.135041e+002 -1.304963e+001 -3.596807e+001 -1.300626e+001 -3.646256e+001 -1.236932e+001 1.237074e+002
7745000000 -1.360032e+001 1.030785e+002 -1.273786e+001 -8.449824e+001 -1.275975e+001 -8.457561e+001 -1.292091e+001 1.145944e+002
7840000000 -1.421814e+001 9.290404e+001 -1.262011e+001 -1.326954e+002 -1.269467e+001 -1.322149e+002 -1.300599e+001 1.102855e+002
7935000000 -1.509606e+001 9.177338e+001 -1.261795e+001 -1.794173e+002 -1.262341e+001 -1.797066e+002 -1.284739e+001 1.061950e+002
8030000000 -1.428486e+001 9.059562e+001 -1.256573e+001 1.326344e+002 -1.247414e+001 1.319854e+002 -1.206947e+001 9.865055e+001
8125000000 -1.358667e+001 7.951151e+001 -1.253225e+001 8.309688e+001 -1.247685e+001 8.309480e+001 -1.140674e+001 8.523780e+001
8220000000 -1.548667e+001 6.499004e+001 -1.270990e+001 3.236172e+001 -1.265576e+001 3.306618e+001 -1.201213e+001 7.743997e+001
8315000000 -1.831116e+001 8.056519e+001 -1.312863e+001 -1.590727e+001 -1.313480e+001 -1.530397e+001 -1.267562e+001 6.948266e+001
8410000000 -1.495738e+001 9.841219e+001 -1.371050e+001 -6.169374e+001 -1.359624e+001 -6.159425e+001 -1.189869e+001 6.509381e+001
8505000000 -1.200136e+001 8.432301e+001 -1.379622e+001 -1.065293e+002 -1.389986e+001 -1.065554e+002 -1.119381e+001 5.719192e+001
8600000000 -1.144239e+001 6.272688e+001 -1.369785e+001 -1.513597e+002 -1.376100e+001 -1.507460e+002 -1.025664e+001 4.025736e+001
8695000000 -1.315597e+001 5.025685e+001 -1.353865e+001 1.621743e+002 -1.355299e+001 1.616705e+002 -1.135221e+001 2.500440e+001
8790000000 -1.384245e+001 5.013299e+001 -1.337170e+001 1.131925e+002 -1.328654e+001 1.125177e+002 -1.180165e+001 1.367319e+001
8885000000 -1.288551e+001 4.178323e+001 -1.348397e+001 6.106613e+001 -1.341833e+001 6.086896e+001 -1.182344e+001 7.076793e+000
8980000000 -1.426788e+001 1.908338e+001 -1.414914e+001 1.072088e+001 -1.429818e+001 1.123003e+001 -1.065592e+001 -9.143613e+000
9075000000 -1.937309e+001 -3.647264e+000 -1.490628e+001 -3.345608e+001 -1.495433e+001 -3.283655e+001 -1.213042e+001 -3.259875e+001
9170000000 -2.391984e+001 8.046629e+001 -1.495817e+001 -7.603409e+001 -1.505538e+001 -7.641498e+001 -1.386901e+001 -5.262171e+001
9265000000 -1.646763e+001 6.408621e+001 -1.456590e+001 -1.232679e+002 -1.460309e+001 -1.242193e+002 -1.691138e+001 -4.444830e+001
9360000000 -1.717986e+001 2.877644e+001 -1.488937e+001 -1.758197e+002 -1.481475e+001 -1.760661e+002 -1.419663e+001 -5.548666e+001
9455000000 -2.797433e+001 2.403702e+001 -1.564263e+001 1.348502e+002 -1.571916e+001 1.344266e+002 -1.410836e+001 -7.627463e+001
9550000000 -1.996875e+001 1.106572e+002 -1.644207e+001 8.893348e+001 -1.661173e+001 8.847128e+001 -1.457300e+001 -1.111612e+002
9645000000 -1.483440e+001 8.113424e+001 -1.688579e+001 4.822281e+001 -1.678608e+001 4.694225e+001 -2.032976e+001 -1.176198e+002
9740000000 -1.568854e+001 4.975176e+001 -1.664945e+001 -1.448365e+000 -1.648643e+001 -2.075910e+000 -2.008642e+001 -9.431728e+001
9835000000 -2.595951e+001 5.348972e+001 -1.732221e+001 -5.505844e+001 -1.717888e+001 -5.499578e+001 -1.424026e+001 -1.041186e+002
9930000000 -1.681892e+001 1.222258e+002 -1.857134e+001 -1.002868e+002 -1.863411e+001 -9.970396e+001 -1.266928e+001 -1.396661e+002
10025000000 -1.194908e+001 1.033376e+002 -1.911226e+001 -1.405534e+002 -1.931122e+001 -1.402457e+002 -1.295599e+001 -1.637631e+002
10120000000 -1.063321e+001 8.673824e+001 -1.885751e+001 1.735959e+002 -1.886036e+001 1.724190e+002 -1.414014e+001 1.737661e+002
10215000000 -9.514401e+000 8.305878e+001 -1.953106e+001 1.232205e+002 -1.947720e+001 1.210116e+002 -1.662831e+001 1.648921e+002
10310000000 -7.187881e+000 7.457643e+001 -2.178773e+001 7.296560e+001 -2.147353e+001 7.244312e+001 -1.632350e+001 1.545900e+002
10405000000 -5.891295e+000 5.710437e+001 -2.330880e+001 3.648143e+001 -2.288916e+001 3.791110e+001 -1.926265e+001 1.382249e+002
10500000000 -5.703776e+000 4.384131e+001 -2.236940e+001 -1.961283e-001 -2.238486e+001 7.657344e-001 -2.184627e+001 1.271568e+002
10595000000 -5.145083e+000 3.561393e+001 -2.121605e+001 -4.960406e+001 -2.207144e+001 -5.396638e+001 -2.871502e+001 -1.778197e+002
10690000000 -3.820891e+000 2.417855e+001 -2.535328e+001 -1.149679e+002 -2.466175e+001 -1.108058e+002 -1.785070e+001 -1.520367e+002
10785000000 -2.922182e+000 3.491669e+000 -2.830639e+001 -1.402790e+002 -2.971030e+001 -1.386223e+002 -1.375133e+001 -1.776860e+002
10880000000 -3.306003e+000 -2.075181e+001 -2.939897e+001 -1.117615e+002 -2.879909e+001 -1.273152e+002 -1.575148e+001 1.535466e+002
10975000000 -4.931723e+000 -3.994407e+001 -2.348310e+001 -1.703992e+002 -2.324535e+001 -1.631071e+002 -1.620672e+001 1.579964e+002
11070000000 -6.280222e+000 -5.620887e+001 -2.009851e+001 1.431251e+002 -2.062613e+001 1.389998e+002 -1.466126e+001 1.679235e+002
11165000000 -8.306541e+000 -7.866245e+001 -1.997388e+001 7.950257e+001 -1.982834e+001 8.365586e+001 -1.170868e+001 1.566382e+002
11260000000 -1.300374e+001 -1.043183e+002 -1.986009e+001 3.468196e+001 -2.084207e+001 3.337553e+001 -1.081441e+001 1.368995e+002
11355000000 -2.212021e+001 -1.113087e+002 -2.127407e+001 -8.917230e+000 -2.082926e+001 -1.015852e+001 -1.042633e+001 1.136550e+002
11450000000 -2.951568e+001 -5.591022e+001 -1.945861e+001 -4.521604e+001 -1.945637e+001 -5.489047e+001 -1.139481e+001 1.148608e+002
11545000000 -3.289864e+001 3.138894e+001 -1.827847e+001 -1.019572e+002 -1.856887e+001 -1.003477e+002 -1.060257e+001 9.905352e+001
11640000000 -2.028431e+001 4.450274e+001 -1.753235e+001 -1.524326e+002 -1.856076e+001 -1.535398e+002 -1.061064e+001 9.962293e+001
11735000000 -1.508999e+001 2.640561e+001 -1.784354e+001 1.554550e+002 -1.808308e+001 1.570692e+002 -1.188481e+001 8.540896e+001
11830000000 -1.430208e+001 8.056884e+000 -1.785474e+001 1.065919e+002 -1.884127e+001 1.062263e+002 -1.123148e+001 7.166005e+001
11925000000 -1.395436e+001 -7.050815e-001 -1.953474e+001 6.346663e+001 -1.981193e+001 5.943175e+001 -1.202863e+001 7.365792e+001
12020000000 -1.390175e+001 -8.780764e+000 -2.035604e+001 1.125808e+001 -1.988368e+001 1.715664e+001 -1.131315e+001 5.319352e+001
12115000000 -1.438468e+001 -1.763120e+001 -1.884152e+001 -2.863733e+001 -1.950650e+001 -2.459110e+001 -1.157957e+001 4.452708e+001
12210000000 -1.615594e+001 -1.711342e+001 -1.854361e+001 -7.227271e+001 -1.882059e+001 -7.517403e+001 -1.303741e+001 4.459902e+001
12305000000 -1.664370e+001 4.234440e+000 -1.901428e+001 -1.162922e+002 -1.870045e+001 -1.232820e+002 -1.126283e+001 4.357287e+001
12400000000 -1.318564e+001 1.053532e+001 -1.935825e+001 -1.746436e+002 -1.859898e+001 -1.731121e+002 -1.025407e+001 3.164180e+001
12495000000 -1.050959e+001 -1.460560e+000 -1.847024e+001 1.338932e+002 -1.905448e+001 1.390293e+002 -9.343225e+000 2.089911e+001
12590000000 -9.862579e+000 -1.800699e+001 -1.865688e+001 8.708772e+001 -1.956394e+001 8.933717e+001 -8.526357e+000 4.396482e+000
12685000000 -1.059251e+001 -2.584514e+001 -1.982289e+001 4.732314e+001 -2.099110e+001 4.527760e+001 -1.110036e+001 4.928250e+000
12780000000 -1.047048e+001 -2.531592e+001 -2.021311e+001 6.556488e+000 -2.134218e+001 6.430632e+000 -1.110301e+001 -8.982723e+000
12875000000 -8.695845e+000 -3.171923e+001 -1.991549e+001 -3.598252e+001 -2.160229e+001 -3.847166e+001 -8.372784e+000 -1.825441e+001
12970000000 -8.102468e+000 -4.434420e+001 -1.944937e+001 -7.971519e+001 -2.038688e+001 -8.230862e+001 -7.559682e+000 -2.007311e+001
13065000000 -8.622430e+000 -5.945366e+001 -1.902307e+001 -1.296077e+002 -2.074947e+001 -1.309769e+002 -1.000646e+001 -3.549962e+001
13160000000 -9.575117e+000 -6.324416e+001 -2.050027e+001 -1.781082e+002 -2.140581e+001 1.773241e+002 -9.199546e+000 -4.251664e+001
13255000000 -9.043783e+000 -6.831778e+001 -2.192230e+001 1.470621e+002 -2.313361e+001 1.447464e+002 -8.863362e+000 -4.650789e+001
13350000000 -8.147161e+000 -8.010141e+001 -2.117368e+001 1.098073e+002 -2.228474e+001 1.037286e+002 -8.272743e+000 -6.269867e+001
13445000000 -8.106798e+000 -9.656551e+001 -2.006213e+001 6.223933e+001 -2.095628e+001 5.952692e+001 -8.303836e+000 -7.122270e+001
13540000000 -9.381528e+000 -1.164955e+002 -2.030359e+001 1.405065e+001 -2.104163e+001 1.256023e+001 -8.967307e+000 -7.348898e+001
13635000000 -1.146995e+001 -1.279503e+002 -2.119960e+001 -3.033719e+001 -2.223480e+001 -3.216247e+001 -1.010225e+001 -8.445002e+001
13730000000 -1.407858e+001 -1.326201e+002 -2.070983e+001 -7.614996e+001 -2.125275e+001 -7.020992e+001 -8.302375e+000 -1.009626e+002
13825000000 -1.591349e+001 -1.336871e+002 -1.940426e+001 -1.141414e+002 -1.992491e+001 -1.115849e+002 -8.758518e+000 -1.047137e+002
13920000000 -1.584534e+001 -1.322747e+002 -1.809343e+001 -1.619547e+002 -1.809164e+001 -1.560041e+002 -1.074781e+001 -1.125271e+002
14015000000 -1.783264e+001 -1.389117e+002 -1.720933e+001 1.456360e+002 -1.786498e+001 1.487841e+002 -1.257664e+001 -1.374454e+002
14110000000 -1.910185e+001 -1.316602e+002 -1.659945e+001 9.006373e+001 -1.683793e+001 9.273372e+001 -1.163231e+001 -1.350979e+002
14205000000 -1.592991e+001 -1.258790e+002 -1.625941e+001 3.573350e+001 -1.716141e+001 4.160627e+001 -1.243482e+001 -1.365833e+002
14300000000 -1.429235e+001 -1.473504e+002 -1.713632e+001 -1.774616e+001 -1.745892e+001 -1.106904e+001 -1.424749e+001 -1.490165e+002
14395000000 -1.503679e+001 -1.753788e+002 -1.753615e+001 -6.918002e+001 -1.791291e+001 -6.578085e+001 -1.592504e+001 -1.683994e+002
14490000000 -1.675836e+001 1.676248e+002 -1.882057e+001 -1.256699e+002 -1.948479e+001 -1.189761e+002 -1.920011e+001 1.572166e+002
14585000000 -1.653180e+001 1.534548e+002 -2.020893e+001 -1.708768e+002 -2.174137e+001 -1.593642e+002 -2.110240e+001 1.261365e+002
14680000000 -1.575989e+001 1.243136e+002 -2.201030e+001 1.475662e+002 -2.225935e+001 1.559421e+002 -2.431592e+001 1.129759e+002
14775000000 -1.690267e+001 7.899814e+001 -2.269122e+001 1.064276e+002 -2.222125e+001 1.162779e+002 -2.525221e+001 2.026288e+001
14870000000 -2.080088e+001 3.307287e+001 -2.403948e+001 6.693339e+001 -2.390134e+001 8.537562e+001 -1.678305e+001 -1.536215e+001
14965000000 -3.719094e+001 -1.642078e+001 -2.319592e+001 3.914805e+001 -2.319767e+001 5.384847e+001 -1.858835e+001 -2.987440e+001
15060000000 -2.599075e+001 1.278767e+002 -2.091415e+001 -2.650717e+000 -2.127654e+001 3.499018e+000 -2.268913e+001 -6.099284e+001
15155000000 -2.167498e+001 7.737849e+001 -2.092020e+001 -5.183630e+001 -2.048100e+001 -4.521384e+001 -1.616412e+001 -7.140905e+001
15250000000 -2.334390e+001 4.595954e+001 -2.078836e+001 -9.730027e+001 -2.054492e+001 -9.354209e+001 -1.502213e+001 -8.558933e+001
