!Agilent Technologies,N5230A,MY45001629,A.07.50.67
!Agilent N5230A: A.07.50.67
!Date: Monday, June 05, 2017 16:30:44
!Correction: S11(Full 2 Port(1,2)) 
!S21(Full 2 Port(1,2)) 
!S12(Full 2 Port(1,2)) 
!S22(Full 2 Port(1,2)) 
!S2P File: Measurements: S11, S21, S12, S22:
# Hz S  dB   R 50
1000000000 -2.236199e-001 5.257938e+001 -5.067966e+001 -2.631229e+001 -5.109663e+001 -9.812668e+000 -8.628874e-001 4.360294e+001
1095000000 -2.461385e-001 3.636655e+001 -4.337082e+001 -5.965571e+001 -4.340409e+001 -5.423543e+001 -1.100235e+000 2.653225e+001
1190000000 -4.014800e-001 1.802435e+001 -3.428589e+001 -1.080655e+002 -3.403001e+001 -1.070562e+002 -1.567861e+000 8.025477e+000
1285000000 -9.458976e-001 -2.200289e+000 -2.614634e+001 1.795024e+002 -2.611711e+001 1.798358e+002 -2.357526e+000 -9.697017e+000
1380000000 -1.444701e+000 -2.435614e+001 -2.106940e+001 1.033576e+002 -2.100371e+001 1.033880e+002 -2.537571e+000 -2.931874e+001
1475000000 -2.974042e+000 -5.668137e+001 -1.519489e+001 3.191871e+001 -1.515903e+001 3.207873e+001 -3.438709e+000 -6.165369e+001
1570000000 -8.988685e+000 -9.768294e+001 -1.076244e+001 -5.376290e+001 -1.073600e+001 -5.371710e+001 -8.647005e+000 -1.024797e+002
1665000000 -2.145109e+001 -3.682985e+001 -9.305100e+000 -1.436725e+002 -9.293541e+000 -1.437203e+002 -1.999511e+001 -8.228642e+001
1760000000 -1.241209e+001 -2.895656e+000 -1.008237e+001 1.388478e+002 -1.008234e+001 1.388462e+002 -1.676057e+001 -1.649691e+001
1855000000 -8.140537e+000 -2.996596e+001 -1.086765e+001 7.936572e+001 -1.086267e+001 7.921533e+001 -1.109673e+001 -3.272760e+001
1950000000 -7.864120e+000 -6.030406e+001 -1.031474e+001 2.330482e+001 -1.033317e+001 2.330190e+001 -9.639402e+000 -5.954811e+001
2045000000 -1.037715e+001 -7.806507e+001 -9.268669e+000 -3.721117e+001 -9.272388e+000 -3.718515e+001 -1.138016e+001 -8.008707e+001
2140000000 -1.153743e+001 -7.656401e+001 -8.717176e+000 -9.776469e+001 -8.699036e+000 -9.773078e+001 -1.241680e+001 -7.475224e+001
2235000000 -9.876180e+000 -8.493902e+001 -8.699182e+000 -1.591999e+002 -8.706611e+000 -1.591624e+002 -1.046867e+001 -8.423159e+001
2330000000 -1.004820e+001 -1.072616e+002 -9.022510e+000 1.456948e+002 -9.005336e+000 1.458335e+002 -9.855379e+000 -1.052886e+002
2425000000 -1.210902e+001 -1.219665e+002 -8.781541e+000 9.024274e+001 -8.753347e+000 9.014714e+001 -1.108875e+001 -1.184640e+002
2520000000 -1.351109e+001 -1.297579e+002 -8.797013e+000 3.578701e+001 -8.751570e+000 3.553020e+001 -1.235532e+001 -1.306234e+002
2615000000 -1.564444e+001 -1.435736e+002 -8.723972e+000 -1.881946e+001 -8.706904e+000 -1.902787e+001 -1.362273e+001 -1.439912e+002
2710000000 -2.170159e+001 -1.290569e+002 -8.985757e+000 -7.327366e+001 -8.978540e+000 -7.346088e+001 -1.864774e+001 -1.350881e+002
2805000000 -1.727036e+001 -8.720508e+001 -9.130507e+000 -1.257503e+002 -9.132989e+000 -1.257047e+002 -1.671103e+001 -1.066116e+002
2900000000 -1.286612e+001 -1.054371e+002 -9.504852e+000 -1.753367e+002 -9.525784e+000 -1.755589e+002 -1.202193e+001 -1.127679e+002
2995000000 -1.207923e+001 -1.276595e+002 -9.303865e+000 1.364710e+002 -9.301908e+000 1.365254e+002 -1.107407e+001 -1.346327e+002
3090000000 -1.401910e+001 -1.393135e+002 -8.875663e+000 8.562296e+001 -8.866335e+000 8.574029e+001 -1.249881e+001 -1.505656e+002
3185000000 -1.477569e+001 -1.230843e+002 -8.622243e+000 3.296996e+001 -8.651073e+000 3.270868e+001 -1.450080e+001 -1.368446e+002
3280000000 -1.078421e+001 -1.220134e+002 -8.739859e+000 -2.006750e+001 -8.721601e+000 -2.002819e+001 -1.065238e+001 -1.342362e+002
3375000000 -8.532237e+000 -1.442423e+002 -9.044922e+000 -7.079538e+001 -9.094677e+000 -7.092442e+001 -8.550500e+000 -1.505695e+002
3470000000 -8.385700e+000 -1.650569e+002 -9.198600e+000 -1.187962e+002 -9.224849e+000 -1.189010e+002 -8.459908e+000 -1.718018e+002
3565000000 -9.123441e+000 1.789750e+002 -9.202458e+000 -1.681452e+002 -9.182140e+000 -1.682293e+002 -8.875750e+000 1.746222e+002
3660000000 -1.037859e+001 1.673834e+002 -9.005755e+000 1.433557e+002 -9.014911e+000 1.433572e+002 -9.791673e+000 1.656998e+002
3755000000 -1.131809e+001 1.613815e+002 -8.763624e+000 9.318994e+001 -8.780621e+000 9.317088e+001 -1.008943e+001 1.550148e+002
3850000000 -1.240690e+001 1.591273e+002 -8.740478e+000 4.225127e+001 -8.730387e+000 4.206185e+001 -1.145006e+001 1.446593e+002
3945000000 -1.267820e+001 1.586476e+002 -8.706002e+000 -8.810827e+000 -8.713154e+000 -9.017442e+000 -1.271173e+001 1.401608e+002
4040000000 -1.219367e+001 1.525007e+002 -8.878271e+000 -5.907812e+001 -8.875548e+000 -5.931799e+001 -1.267519e+001 1.357812e+002
4135000000 -1.356841e+001 1.420140e+002 -8.942642e+000 -1.114760e+002 -8.922686e+000 -1.115608e+002 -1.489925e+001 1.182296e+002
4230000000 -1.614309e+001 1.563434e+002 -9.777649e+000 -1.653974e+002 -9.794003e+000 -1.652532e+002 -2.149250e+001 1.476638e+002
4325000000 -1.276318e+001 1.675095e+002 -1.117675e+001 1.480601e+002 -1.121484e+001 1.479657e+002 -1.383149e+001 1.715066e+002
4420000000 -1.062449e+001 1.576216e+002 -1.196425e+001 1.075620e+002 -1.197838e+001 1.075235e+002 -1.125614e+001 1.507042e+002
4515000000 -9.270424e+000 1.467698e+002 -1.162798e+001 6.606788e+001 -1.164084e+001 6.629765e+001 -1.019751e+001 1.341385e+002
4610000000 -7.948531e+000 1.317852e+002 -1.095583e+001 2.058838e+001 -1.096670e+001 2.072896e+001 -9.855775e+000 1.137177e+002
4705000000 -7.732704e+000 1.113314e+002 -1.052708e+001 -2.832882e+001 -1.053090e+001 -2.842209e+001 -9.784171e+000 9.305895e+001
4800000000 -8.745127e+000 8.950851e+001 -1.034453e+001 -7.822831e+001 -1.035179e+001 -7.808030e+001 -1.185202e+001 7.185234e+001
4895000000 -1.125422e+001 7.449454e+001 -1.027567e+001 -1.283372e+002 -1.031624e+001 -1.284503e+002 -1.366266e+001 5.432699e+001
4990000000 -1.419075e+001 6.844310e+001 -1.056968e+001 -1.783881e+002 -1.062170e+001 -1.785425e+002 -1.589508e+001 4.225774e+001
5085000000 -1.704460e+001 7.178667e+001 -1.095472e+001 1.330265e+002 -1.096689e+001 1.328872e+002 -1.867134e+001 3.181588e+001
5180000000 -1.807404e+001 9.292613e+001 -1.140282e+001 8.613858e+001 -1.140665e+001 8.632739e+001 -2.277077e+001 2.848336e+001
5275000000 -1.533033e+001 1.028074e+002 -1.158073e+001 3.971146e+001 -1.152419e+001 3.956697e+001 -2.438199e+001 4.466513e+001
5370000000 -1.289540e+001 8.776917e+001 -1.189379e+001 -6.941641e+000 -1.188291e+001 -6.887734e+000 -2.033121e+001 4.629652e+001
5465000000 -1.285923e+001 6.561815e+001 -1.200374e+001 -5.199146e+001 -1.198931e+001 -5.199282e+001 -1.846778e+001 1.882593e+001
5560000000 -1.531627e+001 4.671471e+001 -1.188713e+001 -9.816241e+001 -1.184288e+001 -9.797610e+001 -2.055823e+001 -1.493625e+001
5655000000 -1.923421e+001 5.511409e+001 -1.157681e+001 -1.470083e+002 -1.155381e+001 -1.474468e+002 -2.714026e+001 -3.462930e+001
5750000000 -1.609416e+001 6.710959e+001 -1.185158e+001 1.614321e+002 -1.191895e+001 1.616026e+002 -2.425040e+001 3.311158e+001
5845000000 -1.439054e+001 4.237243e+001 -1.297363e+001 1.117612e+002 -1.296525e+001 1.117512e+002 -1.810336e+001 -8.686110e-001
5940000000 -1.518321e+001 1.022385e+001 -1.398573e+001 6.970057e+001 -1.390347e+001 6.984377e+001 -1.562728e+001 -3.466601e+001
6035000000 -1.783383e+001 -2.336193e+001 -1.443509e+001 2.913794e+001 -1.438051e+001 2.902361e+001 -1.441738e+001 -6.940040e+001
6130000000 -2.014088e+001 -7.931341e+001 -1.412679e+001 -9.143531e+000 -1.407198e+001 -9.248717e+000 -1.471031e+001 -1.081585e+002
6225000000 -2.019652e+001 -1.647927e+002 -1.347189e+001 -5.328215e+001 -1.341085e+001 -5.366489e+001 -1.711543e+001 -1.437316e+002
6320000000 -1.860894e+001 1.203183e+002 -1.255466e+001 -9.962663e+001 -1.260503e+001 -1.000821e+002 -2.582161e+001 1.792453e+002
6415000000 -2.124844e+001 6.219270e+001 -1.215760e+001 -1.495384e+002 -1.217763e+001 -1.502783e+002 -3.115122e+001 -4.985616e+001
6510000000 -3.650593e+001 -1.866253e+001 -1.247324e+001 1.612112e+002 -1.243388e+001 1.606825e+002 -1.926048e+001 -7.457372e+001
6605000000 -2.451549e+001 1.595709e+002 -1.258749e+001 1.149458e+002 -1.252955e+001 1.146774e+002 -1.637879e+001 -1.077595e+002
6700000000 -1.973745e+001 1.219039e+002 -1.249331e+001 6.795320e+001 -1.247973e+001 6.797659e+001 -1.648244e+001 -1.345142e+002
6795000000 -1.892923e+001 8.150589e+001 -1.244548e+001 2.131924e+001 -1.250440e+001 2.153665e+001 -1.891695e+001 -1.534898e+002
6890000000 -2.134384e+001 3.585320e+001 -1.241933e+001 -2.511138e+001 -1.248284e+001 -2.510817e+001 -2.037243e+001 -1.351264e+002
6985000000 -2.499400e+001 -4.394286e+001 -1.235179e+001 -7.114738e+001 -1.239949e+001 -7.153127e+001 -1.676082e+001 -1.331844e+002
7080000000 -2.136144e+001 -1.263601e+002 -1.231484e+001 -1.191529e+002 -1.221946e+001 -1.196474e+002 -1.356434e+001 -1.472226e+002
7175000000 -1.730255e+001 -1.709985e+002 -1.239581e+001 -1.669348e+002 -1.233326e+001 -1.672011e+002 -1.278436e+001 -1.694012e+002
7270000000 -1.506064e+001 1.624321e+002 -1.256917e+001 1.453875e+002 -1.252368e+001 1.457766e+002 -1.240965e+001 1.724171e+002
7365000000 -1.434902e+001 1.407528e+002 -1.262160e+001 9.953471e+001 -1.268841e+001 9.993213e+001 -1.262049e+001 1.587583e+002
7460000000 -1.439339e+001 1.258228e+002 -1.260917e+001 5.415619e+001 -1.270122e+001 5.415380e+001 -1.282083e+001 1.491954e+002
7555000000 -1.437164e+001 1.193723e+002 -1.241656e+001 8.845719e+000 -1.253239e+001 8.353661e+000 -1.245046e+001 1.387529e+002
7650000000 -1.385063e+001 1.101413e+002 -1.233860e+001 -3.805932e+001 -1.231557e+001 -3.848572e+001 -1.198881e+001 1.295375e+002
7745000000 -1.342064e+001 9.817456e+001 -1.219501e+001 -8.684886e+001 -1.212853e+001 -8.672334e+001 -1.184272e+001 1.138766e+002
7840000000 -1.453481e+001 8.697081e+001 -1.211527e+001 -1.351994e+002 -1.213076e+001 -1.343149e+002 -1.226180e+001 1.065034e+002
7935000000 -1.604833e+001 8.862450e+001 -1.215151e+001 1.782031e+002 -1.222509e+001 1.776845e+002 -1.298557e+001 9.907463e+001
8030000000 -1.518475e+001 9.300977e+001 -1.213560e+001 1.304511e+002 -1.215744e+001 1.299630e+002 -1.249873e+001 9.793842e+001
8125000000 -1.390686e+001 8.389203e+001 -1.217826e+001 8.182194e+001 -1.216646e+001 8.163047e+001 -1.204140e+001 8.605290e+001
8220000000 -1.524222e+001 7.221487e+001 -1.243535e+001 3.190987e+001 -1.232318e+001 3.213327e+001 -1.203477e+001 7.877090e+001
8315000000 -1.681778e+001 8.318933e+001 -1.285229e+001 -1.661136e+001 -1.287554e+001 -1.604805e+001 -1.261394e+001 7.272501e+001
8410000000 -1.419009e+001 9.175249e+001 -1.337129e+001 -6.174666e+001 -1.327772e+001 -6.201599e+001 -1.171371e+001 6.702464e+001
8505000000 -1.198995e+001 7.761681e+001 -1.363106e+001 -1.074849e+002 -1.355072e+001 -1.071474e+002 -1.098357e+001 5.721728e+001
8600000000 -1.189262e+001 5.821714e+001 -1.347546e+001 -1.521190e+002 -1.344134e+001 -1.517040e+002 -9.879788e+000 4.069596e+001
8695000000 -1.407219e+001 4.904631e+001 -1.320111e+001 1.609385e+002 -1.321372e+001 1.606143e+002 -1.121224e+001 2.495104e+001
8790000000 -1.442419e+001 5.354227e+001 -1.300138e+001 1.120046e+002 -1.308053e+001 1.116990e+002 -1.140467e+001 1.298328e+001
8885000000 -1.275248e+001 4.465055e+001 -1.329527e+001 6.064030e+001 -1.320873e+001 6.036100e+001 -1.181900e+001 7.156758e+000
8980000000 -1.418113e+001 2.154666e+001 -1.417837e+001 1.069922e+001 -1.410560e+001 1.098570e+001 -1.067922e+001 -1.055776e+001
9075000000 -1.907746e+001 -3.246369e+000 -1.486415e+001 -3.323073e+001 -1.480130e+001 -3.272559e+001 -1.224245e+001 -3.290109e+001
9170000000 -2.386819e+001 7.823501e+001 -1.470495e+001 -7.517017e+001 -1.485334e+001 -7.500917e+001 -1.464596e+001 -5.502001e+001
9265000000 -1.609924e+001 6.228556e+001 -1.402613e+001 -1.228604e+002 -1.414374e+001 -1.235260e+002 -1.747642e+001 -3.759162e+001
9360000000 -1.664999e+001 2.368929e+001 -1.438022e+001 -1.761372e+002 -1.437847e+001 -1.768827e+002 -1.422528e+001 -4.674456e+001
9455000000 -2.947601e+001 7.113571e+000 -1.527270e+001 1.327234e+002 -1.529885e+001 1.330040e+002 -1.345507e+001 -7.302596e+001
9550000000 -2.021315e+001 1.158996e+002 -1.626530e+001 8.694366e+001 -1.635072e+001 8.690050e+001 -1.394914e+001 -1.087107e+002
9645000000 -1.477765e+001 8.407253e+001 -1.649813e+001 4.673378e+001 -1.651448e+001 4.596117e+001 -1.842186e+001 -1.295340e+002
9740000000 -1.530313e+001 5.351660e+001 -1.619250e+001 -1.445634e+000 -1.616384e+001 -2.791890e+000 -2.105436e+001 -9.888271e+001
9835000000 -2.343404e+001 5.195304e+001 -1.696498e+001 -5.649433e+001 -1.688379e+001 -5.666732e+001 -1.546219e+001 -1.062910e+002
9930000000 -1.746718e+001 1.166602e+002 -1.857371e+001 -1.034694e+002 -1.859466e+001 -1.023026e+002 -1.321068e+001 -1.405733e+002
10025000000 -1.228819e+001 1.028135e+002 -1.937934e+001 -1.437396e+002 -1.920821e+001 -1.425999e+002 -1.352813e+001 -1.633032e+002
10120000000 -1.078090e+001 8.723592e+001 -1.886344e+001 1.702116e+002 -1.895227e+001 1.711512e+002 -1.402664e+001 1.734381e+002
10215000000 -9.572761e+000 8.311456e+001 -1.939194e+001 1.198968e+002 -1.960128e+001 1.188302e+002 -1.671178e+001 1.680185e+002
10310000000 -7.180008e+000 7.437054e+001 -2.184910e+001 7.258137e+001 -2.172026e+001 7.067625e+001 -1.596929e+001 1.531234e+002
10405000000 -5.903332e+000 5.716669e+001 -2.380986e+001 3.779367e+001 -2.323607e+001 3.682757e+001 -1.819011e+001 1.411649e+002
10500000000 -5.658967e+000 4.333476e+001 -2.288029e+001 -1.694262e+000 -2.272628e+001 -1.217393e+000 -2.085694e+001 1.237941e+002
10595000000 -5.160997e+000 3.485429e+001 -2.189482e+001 -4.890625e+001 -2.242489e+001 -5.566117e+001 -3.017387e+001 -1.734030e+002
10690000000 -3.857693e+000 2.360793e+001 -2.467280e+001 -1.181821e+002 -2.497632e+001 -1.126823e+002 -1.822225e+001 -1.627462e+002
10785000000 -2.984435e+000 3.199237e+000 -2.962422e+001 -1.307689e+002 -3.044845e+001 -1.455297e+002 -1.447958e+001 -1.794425e+002
10880000000 -3.255735e+000 -2.090051e+001 -3.221357e+001 -1.279557e+002 -3.026734e+001 -1.282323e+002 -1.582115e+001 1.658587e+002
10975000000 -4.843215e+000 -4.074477e+001 -2.376550e+001 -1.671693e+002 -2.462637e+001 -1.606682e+002 -1.515439e+001 1.553425e+002
11070000000 -6.323658e+000 -5.700968e+001 -2.148862e+001 1.471347e+002 -2.108061e+001 1.480345e+002 -1.539256e+001 1.632962e+002
11165000000 -8.321097e+000 -7.835884e+001 -1.990685e+001 8.198560e+001 -1.997506e+001 8.517892e+001 -1.128233e+001 1.598770e+002
11260000000 -1.293016e+001 -1.044820e+002 -2.030991e+001 3.846185e+001 -2.085934e+001 3.545829e+001 -1.001589e+001 1.354503e+002
11355000000 -2.203489e+001 -1.102509e+002 -2.209387e+001 -1.517475e+001 -2.101522e+001 -7.042055e+000 -1.075351e+001 1.127189e+002
11450000000 -2.815373e+001 -5.086086e+001 -2.041374e+001 -4.454976e+001 -1.964518e+001 -5.124889e+001 -1.156173e+001 1.100197e+002
11545000000 -3.188928e+001 1.470240e+001 -1.872480e+001 -9.760125e+001 -1.897222e+001 -1.007451e+002 -1.134321e+001 9.538453e+001
11640000000 -2.109816e+001 4.545525e+001 -1.817865e+001 -1.486893e+002 -1.864001e+001 -1.503766e+002 -1.054492e+001 9.847076e+001
11735000000 -1.528416e+001 2.620295e+001 -1.806227e+001 1.606412e+002 -1.847042e+001 1.578957e+002 -1.071341e+001 8.782321e+001
11830000000 -1.407640e+001 8.845948e+000 -1.844212e+001 1.131158e+002 -1.897931e+001 1.084389e+002 -1.166302e+001 7.695313e+001
11925000000 -1.382627e+001 -1.231829e+000 -2.030150e+001 6.531502e+001 -1.969294e+001 6.182779e+001 -1.160531e+001 6.631740e+001
12020000000 -1.373893e+001 -9.399203e+000 -2.014342e+001 1.326672e+001 -1.992400e+001 1.861142e+001 -1.131663e+001 5.948357e+001
12115000000 -1.424285e+001 -1.822219e+001 -1.900092e+001 -2.494443e+001 -1.944028e+001 -2.402876e+001 -1.116981e+001 3.963207e+001
12210000000 -1.578275e+001 -1.831394e+001 -1.888267e+001 -6.719078e+001 -1.917957e+001 -7.295927e+001 -1.264082e+001 5.136234e+001
12305000000 -1.664634e+001 1.071991e+000 -1.998636e+001 -1.190988e+002 -1.908573e+001 -1.212994e+002 -1.146295e+001 3.630110e+001
12400000000 -1.333428e+001 9.177577e+000 -1.877998e+001 -1.764885e+002 -1.922135e+001 -1.698400e+002 -1.014247e+001 3.706307e+001
12495000000 -1.051944e+001 -2.431594e+000 -1.877425e+001 1.406043e+002 -1.921283e+001 1.402764e+002 -9.409349e+000 1.774268e+001
12590000000 -9.972143e+000 -1.805021e+001 -2.049965e+001 8.759950e+001 -2.020382e+001 9.126505e+001 -9.128209e+000 6.815663e+000
12685000000 -1.077618e+001 -2.503995e+001 -2.217884e+001 4.336405e+001 -2.159291e+001 4.543291e+001 -1.188520e+001 3.415381e+000
12780000000 -1.032349e+001 -2.473420e+001 -2.280001e+001 1.648418e+000 -2.232616e+001 8.903333e+000 -1.011826e+001 -1.074974e+001
12875000000 -8.775857e+000 -3.199377e+001 -2.264648e+001 -3.280236e+001 -2.178339e+001 -3.203334e+001 -8.355400e+000 -1.908817e+001
12970000000 -7.931066e+000 -4.466795e+001 -2.211935e+001 -7.851100e+001 -2.089617e+001 -7.545238e+001 -7.715824e+000 -2.075375e+001
13065000000 -8.376345e+000 -6.103962e+001 -2.153718e+001 -1.324544e+002 -2.110657e+001 -1.286401e+002 -1.014300e+001 -3.684441e+001
13160000000 -9.411979e+000 -6.671518e+001 -2.320331e+001 1.724882e+002 -2.293092e+001 -1.796577e+002 -1.004108e+001 -4.556989e+001
13255000000 -9.550443e+000 -7.049102e+001 -2.539211e+001 1.419507e+002 -2.422756e+001 1.495956e+002 -9.545373e+000 -4.820947e+001
13350000000 -8.604360e+000 -7.946075e+001 -2.505822e+001 1.123228e+002 -2.319086e+001 1.190446e+002 -8.115544e+000 -6.271685e+001
13445000000 -8.144647e+000 -9.341965e+001 -2.233810e+001 6.751833e+001 -2.145847e+001 7.540202e+001 -7.279295e+000 -6.930846e+001
13540000000 -9.233713e+000 -1.151305e+002 -2.208925e+001 1.579872e+001 -2.017781e+001 2.304552e+001 -8.394236e+000 -7.497333e+001
13635000000 -1.105193e+001 -1.277044e+002 -2.206570e+001 -2.593064e+001 -2.126879e+001 -2.379541e+001 -1.019553e+001 -8.421307e+001
13730000000 -1.406681e+001 -1.329953e+002 -2.207785e+001 -7.088578e+001 -2.095963e+001 -6.865117e+001 -8.668112e+000 -1.041501e+002
13825000000 -1.596197e+001 -1.337278e+002 -2.026133e+001 -1.124030e+002 -1.951751e+001 -1.088416e+002 -9.074312e+000 -1.077562e+002
13920000000 -1.525884e+001 -1.299005e+002 -1.942414e+001 -1.582556e+002 -1.847628e+001 -1.578837e+002 -1.055013e+001 -1.120186e+002
14015000000 -1.706564e+001 -1.407534e+002 -1.837105e+001 1.504587e+002 -1.815116e+001 1.505824e+002 -1.228362e+001 -1.311004e+002
14110000000 -1.918132e+001 -1.409663e+002 -1.813769e+001 9.457576e+001 -1.697997e+001 9.821167e+001 -1.198640e+001 -1.313808e+002
14205000000 -1.745904e+001 -1.281019e+002 -1.836416e+001 4.601722e+001 -1.750409e+001 4.530241e+001 -1.288416e+001 -1.390471e+002
14300000000 -1.518675e+001 -1.452690e+002 -1.858048e+001 -7.132095e+000 -1.777193e+001 -7.639204e+000 -1.293123e+001 -1.582177e+002
14395000000 -1.530327e+001 -1.724193e+002 -1.932047e+001 -5.713088e+001 -1.847975e+001 -6.038059e+001 -1.453287e+001 -1.598472e+002
14490000000 -1.660581e+001 1.715345e+002 -2.051396e+001 -1.075938e+002 -1.978038e+001 -1.132825e+002 -1.922831e+001 1.780258e+002
14585000000 -1.656003e+001 1.534486e+002 -2.234931e+001 -1.476011e+002 -2.192284e+001 -1.598304e+002 -2.417781e+001 1.169581e+002
14680000000 -1.549360e+001 1.266234e+002 -2.391241e+001 1.797365e+002 -2.315832e+001 1.569825e+002 -2.192856e+001 9.641797e+001
14775000000 -1.703532e+001 8.449512e+001 -2.378739e+001 1.333790e+002 -2.393660e+001 1.191832e+002 -2.403052e+001 3.370399e+001
14870000000 -2.077395e+001 4.039300e+001 -2.525531e+001 1.077484e+002 -2.654896e+001 8.827148e+001 -1.824776e+001 -1.957344e+001
14965000000 -3.193287e+001 2.427722e+001 -2.384654e+001 7.408277e+001 -2.461734e+001 6.987452e+001 -1.593491e+001 -4.826506e+001
15060000000 -2.602280e+001 1.044525e+002 -2.230646e+001 3.065296e+001 -2.251995e+001 1.949368e+001 -1.770250e+001 -5.715990e+001
15155000000 -2.219164e+001 6.454076e+001 -2.092978e+001 -2.142467e+001 -2.078750e+001 -3.053872e+001 -1.727028e+001 -6.548116e+001
15250000000 -2.478662e+001 3.960278e+001 -2.151875e+001 -7.187714e+001 -2.130677e+001 -7.952019e+001 -1.668655e+001 -9.226096e+001
